# HZ S RI R 50
28010000 -0.8441106876666667 -0.030104427666666666
28020004 -0.8437711996666667 -0.027668686999999997
28030008 -0.8435527483333333 -0.025121679999999997
28040012 -0.843380491 -0.02274746133333333
28050016 -0.843147278 -0.020248145999999998
28060020 -0.8427929879999999 -0.017732021666666667
28070024 -0.8423847556666667 -0.015267387
28080028 -0.8422543403333335 -0.012904260666666667
28090032 -0.8418716193333333 -0.010443664
28100036 -0.8414374193333334 -0.007880979333333335
28110040 -0.8413348596666667 -0.005437824666666667
28120044 -0.8408929903333333 -0.003012848666666667
28130048 -0.840637386 -0.00042866499999999995
28140052 -0.840315183 0.002074441
28150056 -0.8398448826666667 0.004472970666666667
28160060 -0.839557568 0.007018724333333334
28170064 -0.8390675186666666 0.009488978666666667
28180068 -0.838685711 0.011883726999999998
28190072 -0.838303447 0.014484802666666666
28200076 -0.837942461 0.01696718966666667
28210080 -0.8375116986666665 0.019368928666666663
28220084 -0.8370643853333334 0.021947691666666668
28230088 -0.836748918 0.024499264333333336
28240092 -0.836406529 0.026963736333333335
28250096 -0.8358918623333333 0.029568910333333333
28260100 -0.8348038196666666 0.03222190466666667
28270104 -0.8351132473333333 0.03463167066666667
28280108 -0.834587574 0.037055897
28290112 -0.8341418306666667 0.039681421
28300116 -0.8336957296666666 0.04220894233333333
28310120 -0.8331833283333333 0.044725485333333335
28320124 -0.8325044713333333 0.047250621
28330128 -0.8320920466666667 0.04969905833333333
28340132 -0.8316304883333334 0.05221284933333333
28350136 -0.8310270113333335 0.054800178666666664
28360140 -0.8304522633333334 0.057327041999999995
28370144 -0.8300352693333334 0.059806486
28380148 -0.8293863733333334 0.062353044999999996
28390152 -0.8290803236666667 0.06501540066666667
28400156 -0.8282641173333333 0.067411875
28410160 -0.8277017476666666 0.07003313066666667
28420164 -0.8271683456666666 0.07258007933333334
28430168 -0.826572756 0.07502004766666666
28440172 -0.8258855736666666 0.07767928133333334
28450176 -0.8252708516666667 0.08032834766666667
28460180 -0.8245965439999999 0.08272043366666666
28470184 -0.8239775896666667 0.08520606400000001
28480188 -0.8233014743333333 0.08780037600000001
28490192 -0.8225725490000001 0.09042878700000001
28500196 -0.8217991590000001 0.09297478233333334
28510200 -0.8212474783333334 0.095635352
28520204 -0.8204851943333334 0.09815589333333334
28530208 -0.8198791543333334 0.10075329
28540212 -0.8190749486666666 0.10324161999999999
28550216 -0.8182751536666667 0.10582519833333333
28560220 -0.8176053166666667 0.10844071500000001
28570224 -0.8168357413333333 0.11106289899999999
28580228 -0.8159086703333335 0.11366567233333334
28590232 -0.8152931133333334 0.116275281
28600236 -0.8145627776666666 0.11882210500000001
28610240 -0.8136592306666667 0.12140702466666665
28620244 -0.8128104606666667 0.12407731733333334
28630248 -0.8120685016666666 0.12665037833333334
28640252 -0.8110885023333333 0.12920841566666666
28650256 -0.8102847536666666 0.13187057766666668
28660260 -0.8095003963333335 0.13445288433333336
28670264 -0.808514615 0.13700670966666664
28680268 -0.8074498773333333 0.13958041399999999
28690272 -0.8066320616666666 0.14224945999999997
28700276 -0.8059448203333334 0.14488256
28710280 -0.804976523 0.147449185
28720284 -0.803894043 0.150090441
28730288 -0.8031813703333333 0.1527744483333333
28740292 -0.8021625280000001 0.1552482993333333
28750296 -0.8010796306666667 0.15789329
28760300 -0.8001143533333334 0.16049580766666668
28770304 -0.7991946740000001 0.16313898100000002
28780308 -0.7981398503333335 0.16564348366666667
28790312 -0.797104279 0.168393483
28800316 -0.7962001563333333 0.17097560066666664
28810320 -0.795100073 0.17344952633333333
28820324 -0.7939544913333333 0.17612332100000003
28830328 -0.792914947 0.17867161333333334
28840332 -0.7918268443333334 0.181316967
28850336 -0.7906298636666667 0.18393996366666665
28860340 -0.7896393936666667 0.18659217666666664
28870344 -0.7886950373333335 0.18915163466666665
28880348 -0.7874329483333334 0.1917542866666667
28890352 -0.7863088450000001 0.19447148866666666
28900356 -0.7852740683333334 0.19704193866666667
28910360 -0.7839148439999999 0.19965920333333334
28920364 -0.7827992636666666 0.20233478166666666
28930368 -0.7816729343333333 0.20490860933333332
28940372 -0.7803443670000001 0.20747994366666667
28950376 -0.7792203626666666 0.21018734566666666
28960380 -0.7780041296666668 0.2128305633333333
28970384 -0.7768112023333332 0.2153717626666667
28980388 -0.7754479846666666 0.21800270666666666
28990392 -0.7742000423333334 0.22065104066666666
29000396 -0.7729236286666668 0.22327141966666667
29010400 -0.7716139356666667 0.22604926400000003
29020404 -0.7702920836666666 0.2285743556666667
29030408 -0.7690220276666667 0.23116704833333332
29040412 -0.767566403 0.23381719466666664
29050416 -0.7662580213333333 0.23649912066666667
29060420 -0.7649480306666666 0.23910600433333337
29070424 -0.763423085 0.241725261
29080428 -0.7621100943333333 0.24438337966666665
29090432 -0.7606879470000001 0.24696959066666666
29100436 -0.7591252126666667 0.24961097033333335
29110440 -0.7577401003333334 0.25235505900000005
29120444 -0.7563718359999999 0.254898866
29130448 -0.7547794183333334 0.25750998633333333
29140452 -0.753320396 0.2602723636666667
29150456 -0.7518014906666667 0.26283489633333335
29160460 -0.7502878310000001 0.26550884066666663
29170464 -0.7486702403333334 0.268154005
29180468 -0.7471176186666666 0.270623386
29190472 -0.74555105 0.27337477633333335
29200476 -0.7437831359999999 0.275998503
29210480 -0.7423514923333333 0.27876660233333334
29220484 -0.7407208083333333 0.2812505566666667
29230488 -0.7389731006666667 0.28386896866666667
29240492 -0.7373429539999999 0.286569327
29250496 -0.7357802986666666 0.2892383236666667
29260500 -0.7339809736666666 0.29188132299999997
29270504 -0.7320939103333334 0.29443446766666664
29280508 -0.7305719853333335 0.297282944
29290512 -0.7288283903333334 0.2997644443333333
29300516 -0.7269875406666667 0.3023366926666667
29310520 -0.7251949306666666 0.30505319466666664
29320524 -0.7234932383333333 0.30764942333333334
29330528 -0.7215409476666667 0.3101771473333333
29340532 -0.7197469870000001 0.31285867100000003
29350536 -0.7178224923333333 0.315474898
29360540 -0.716083904 0.31792033699999994
29370544 -0.7141651113333333 0.3204726576666667
29380548 -0.7120944063333333 0.3232613006666667
29390552 -0.7102439403333335 0.325796207
29400556 -0.7082153560000001 0.3284259836666667
29410560 -0.706185778 0.331130773
29420564 -0.7041891813333333 0.33361759766666665
29430568 -0.7020779453333335 0.33619036300000005
29440572 -0.700047036 0.3388860026666667
29450576 -0.6980241536666666 0.3414165676666667
29460580 -0.6959172686666667 0.3439623316666667
29470584 -0.6938014426666665 0.34664536500000004
29480588 -0.691744705 0.34919247033333334
29490592 -0.6895238363333333 0.3517032663333333
29500596 -0.6872908473333332 0.354381899
29510600 -0.6850921713333333 0.3569778006666667
29520604 -0.6828067103333333 0.35942777966666667
29530608 -0.6803388396666668 0.361944745
29540612 -0.6782856386666668 0.36464924633333334
29550616 -0.6760923066666668 0.36717998999999996
29560620 -0.6736762323333334 0.3696755073333333
29570624 -0.671320299 0.3723709483333333
29580628 -0.6690268316666667 0.3748057186666667
29590632 -0.666480124 0.37722894533333334
29600636 -0.6640269156666666 0.37991388666666664
29610640 -0.6619699796666666 0.3822372156666667
29620644 -0.659459015 0.38467771833333336
29630648 -0.6566633583333333 0.38758287799999996
29640652 -0.6541071929999999 0.389998724
29650656 -0.6515053906666667 0.3924427826666666
29660660 -0.6488956016666667 0.39499864966666665
29670664 -0.646356185 0.3974293373333333
29680668 -0.6437468329999999 0.39988620066666664
29690672 -0.6409630379999999 0.4023689723333333
