# HZ S RI R 50
3500200 0.9764090780000001 0.050905574
3510204 0.9764360390000001 0.049850025666666666
3520208 0.9767099220000001 0.048893177
3530212 0.9768402576666667 0.047972694
3540216 0.9769632220000001 0.04678426166666667
3550220 0.9770186146666666 0.045735636
3560224 0.977162778 0.044859915666666667
3570228 0.9770512183333334 0.04382386800000001
3580232 0.9772296349999999 0.04283249233333333
3590236 0.9773835740000001 0.04186455133333333
3600240 0.97751377 0.040825372
3610244 0.9774175883333335 0.039882125666666664
3620248 0.977466901 0.039018849333333334
3630252 0.9774701593333334 0.038189677
3640256 0.9775077103333333 0.037069928
3650260 0.9777029553333333 0.035973222000000006
3660264 0.9778137206666666 0.03498563166666666
3670268 0.9775910373333332 0.034077929
3680272 0.9776867626666667 0.033116084999999996
3690276 0.9777521493333333 0.03226652966666666
3700280 0.9778580470000001 0.031259109
3710284 0.9779017766666667 0.030239169666666666
3720288 0.978020072 0.02926978466666667
3730292 0.9780813453333334 0.028457042000000002
3740296 0.9779597123333333 0.027480930333333334
3750300 0.9783273536666668 0.026532010999999998
3760304 0.978151957 0.02555814266666667
3770308 0.9782978693333334 0.024564571666666663
3780312 0.9781948326666666 0.023751250666666668
3790316 0.9782765110000001 0.022869946
3800320 0.9783543150000001 0.021927898
3810324 0.9782697159999999 0.020942286333333334
3820328 0.9784924983333333 0.020011606333333334
3830332 0.9785986146666666 0.019179627
3840336 0.9787417450000001 0.018226953
3850340 0.978643874 0.017389337666666668
3860344 0.978708784 0.016472536
3870348 0.9787365796666666 0.015560738
3880352 0.9789203603333334 0.014527012333333334
3890356 0.9790789683333333 0.013694778333333333
3900360 0.9788483383333334 0.012885090666666668
3910364 0.97889781 0.011960328
3920368 0.9792203306666666 0.011049446333333332
3930372 0.9791363079999998 0.010188012333333335
3940376 0.9789313279999999 0.009284244999999998
3950380 0.9789788920000001 0.008329422000000001
3960384 0.9791616799999999 0.007503256
3970388 0.9791483283333333 0.0067409796666666666
3980392 0.9792089863333334 0.005735359666666666
3990396 0.9793019493333333 0.0047890703333333335
