# HZ S RI R 50
5250900 0.968824367 -0.14350905033333336
5260904 0.9686279496666668 -0.14479300866666667
5270908 0.9683874846666667 -0.146240905
5280912 0.9681994913333334 -0.14761501033333332
5290916 0.968044778 -0.14894451700000003
5300920 0.9677258726666667 -0.150249074
5310924 0.9674282473333333 -0.15162983533333332
5320928 0.9675148130000001 -0.153065398
5330932 0.9671727813333334 -0.15431973333333335
5340936 0.966788292 -0.15567142766666667
5350940 0.966749668 -0.15721180033333335
5360944 0.9665861526666667 -0.15847699333333332
5370948 0.9662808776666667 -0.159846897
5380952 0.9659884173333334 -0.16126401733333334
5390956 0.9658888180000001 -0.16255842666666667
5400960 0.965550343 -0.163824315
5410964 0.9653180243333335 -0.16524201633333332
5420968 0.965130369 -0.16667328300000003
5430972 0.9648783403333333 -0.167842423
5440976 0.9644068476666666 -0.16922673600000002
