# HZ S RI R 50
3000000 0.968737344 0.10666829333333333
3010004 0.9692579506666666 0.10555083300000001
3020008 0.9692795276666667 0.10412478200000001
3030012 0.9695452449999999 0.10296841699999999
3040016 0.9700065653333333 0.101768963
3050020 0.9701587556666667 0.10046848666666668
3060024 0.9703963196666666 0.099182474
3070028 0.9703531266666667 0.09804583100000001
3080032 0.970533053 0.09692779666666666
3090036 0.970809917 0.09574493499999999
3100040 0.971274555 0.09451207766666665
3110044 0.9713690083333333 0.093470325
3120048 0.9713830153333335 0.09217385966666665
3130052 0.9715620676666666 0.09090184166666666
3140056 0.971768101 0.089864567
3150060 0.9720728796666668 0.088755188
3160064 0.9721221923333333 0.08748734733333334
3170068 0.9724999470000001 0.08635300133333333
3180072 0.97269994 0.08533176799999999
3190076 0.9727482793333334 0.08414728199999999
3200080 0.9730025926666667 0.08294914400000002
3210084 0.9733044306666666 0.08182114633333333
3220088 0.973216335 0.08081061633333333
3230092 0.9732572436666667 0.07954952866666666
3240096 0.9736606876666666 0.07850511133333334
3250100 0.9736041226666666 0.077409928
3260104 0.973688682 0.076265134
3270108 0.9739802283333333 0.07503108166666667
3280112 0.9741865989999999 0.074068802
3290116 0.9741625389999999 0.07301019133333334
3300120 0.9743895926666667 0.07186199733333333
3310124 0.9746081036666667 0.07085757733333332
3320128 0.97464929 0.06984813733333334
3330132 0.9747066896666667 0.06852850533333334
3340136 0.9749380149999999 0.06732622266666666
3350140 0.9750492770000001 0.06652129933333334
3360144 0.9749750296666666 0.06547613433333332
3370148 0.9750575819999999 0.064359548
3380152 0.9754080176666666 0.06332599366666668
3390156 0.9752003153333333 0.062323983666666666
3400160 0.975388507 0.06110334033333333
3410164 0.9755011996666667 0.060054714333333335
3420168 0.9756521783333333 0.05909553433333333
3430172 0.9756686686666667 0.05792611833333333
3440176 0.9758394356666665 0.056861106333333335
3450180 0.9759011666666667 0.05596507833333333
3460184 0.9759931963333334 0.05496526133333333
3470188 0.9760739203333334 0.05385660166666667
3480192 0.9761576453333335 0.052834448666666665
3490196 0.9763518376666666 0.05197811
3500200 0.9764090780000001 0.050905574
3510204 0.9764360390000001 0.049850025666666666
3520208 0.9767099220000001 0.048893177
3530212 0.9768402576666667 0.047972694
3540216 0.9769632220000001 0.04678426166666667
3550220 0.9770186146666666 0.045735636
3560224 0.977162778 0.044859915666666667
3570228 0.9770512183333334 0.04382386800000001
3580232 0.9772296349999999 0.04283249233333333
3590236 0.9773835740000001 0.04186455133333333
3600240 0.97751377 0.040825372
3610244 0.9774175883333335 0.039882125666666664
3620248 0.977466901 0.039018849333333334
3630252 0.9774701593333334 0.038189677
3640256 0.9775077103333333 0.037069928
3650260 0.9777029553333333 0.035973222000000006
3660264 0.9778137206666666 0.03498563166666666
3670268 0.9775910373333332 0.034077929
3680272 0.9776867626666667 0.033116084999999996
3690276 0.9777521493333333 0.03226652966666666
3700280 0.9778580470000001 0.031259109
3710284 0.9779017766666667 0.030239169666666666
3720288 0.978020072 0.02926978466666667
3730292 0.9780813453333334 0.028457042000000002
3740296 0.9779597123333333 0.027480930333333334
3750300 0.9783273536666668 0.026532010999999998
3760304 0.978151957 0.02555814266666667
3770308 0.9782978693333334 0.024564571666666663
3780312 0.9781948326666666 0.023751250666666668
3790316 0.9782765110000001 0.022869946
3800320 0.9783543150000001 0.021927898
3810324 0.9782697159999999 0.020942286333333334
3820328 0.9784924983333333 0.020011606333333334
3830332 0.9785986146666666 0.019179627
3840336 0.9787417450000001 0.018226953
3850340 0.978643874 0.017389337666666668
3860344 0.978708784 0.016472536
3870348 0.9787365796666666 0.015560738
3880352 0.9789203603333334 0.014527012333333334
3890356 0.9790789683333333 0.013694778333333333
3900360 0.9788483383333334 0.012885090666666668
3910364 0.97889781 0.011960328
3920368 0.9792203306666666 0.011049446333333332
3930372 0.9791363079999998 0.010188012333333335
3940376 0.9789313279999999 0.009284244999999998
3950380 0.9789788920000001 0.008329422000000001
3960384 0.9791616799999999 0.007503256
3970388 0.9791483283333333 0.0067409796666666666
3980392 0.9792089863333334 0.005735359666666666
3990396 0.9793019493333333 0.0047890703333333335
4000400 0.9791847270000001 0.003909513666666666
4010404 0.978491247 0.002929973
4020408 0.9789987603333333 0.002381644
4030412 0.9791582623333334 0.0013027669999999998
4040416 0.979240497 0.0005220093333333333
4050420 0.9793508449999999 -0.0003607906666666667
4060424 0.9793125593333333 -0.0011863853333333332
4070428 0.9793815810000001 -0.002122891
4080432 0.9795462686666667 -0.0029562100000000003
4090436 0.9792301456666667 -0.0037496300000000003
4100440 0.9792669813333333 -0.004639967333333334
4110444 0.9793539046666666 -0.005568794666666666
4120448 0.9792593716666667 -0.006347494666666666
4130452 0.9792529343333335 -0.007193294333333333
4140456 0.9792248406666667 -0.007975857333333334
4150460 0.979154408 -0.008773032
4160464 0.978995522 -0.009704256666666666
4170468 0.9786004620000001 -0.010467027666666668
4180472 0.9792014363333333 -0.011280525666666666
4190476 0.9791915816666666 -0.012130802666666668
4200480 0.9790986180000001 -0.013170098
4210484 0.9792233903333333 -0.01389801
4220488 0.9792076946666667 -0.014698628333333333
4230492 0.9791862366666667 -0.015576255000000002
4240496 0.979371508 -0.016439212999999998
4250500 0.9791017373333334 -0.017149860666666666
4260504 0.9790611266666666 -0.018039868
4270508 0.978852292 -0.018868928666666666
4280512 0.9791334866666667 -0.019601836
4290516 0.979245424 -0.020368312333333333
4300520 0.9790931543333333 -0.021275892333333334
4310524 0.9790416953333333 -0.022068806999999996
4320528 0.9792605243333332 -0.022970404666666666
4330532 0.979038298 -0.02372165
4340536 0.9791333276666666 -0.02458566
4350540 0.9791014590000001 -0.02535338766666666
4360544 0.9790885053333334 -0.026133590999999998
4370548 0.9792069196666667 -0.027048222
4380552 0.978867809 -0.027745220666666664
4390556 0.9789107443333332 -0.028465953333333335
4400560 0.978898724 -0.029224659
4410564 0.9789379636666666 -0.03024865833333333
4420568 0.979208191 -0.030999524
4430572 0.979049027 -0.03180567066666667
4440576 0.9787041146666667 -0.03267907933333334
4450580 0.9790848493333333 -0.033389007
4460584 0.9790460863333333 -0.034144175666666665
4470588 0.978934149 -0.03497447933333333
4480592 0.9789654216666667 -0.03590590266666666
4490596 0.9788683653333333 -0.03651144866666667
4500600 0.9786965846666668 -0.037336899666666666
4510604 0.9786962666666668 -0.038844825000000006
4520608 0.9786218206666666 -0.04027315733333333
4530612 0.9785139959999999 -0.04170509766666667
4540616 0.9784396886666666 -0.04317996533333333
4550620 0.9783382416666667 -0.04461482666666666
4560624 0.9782360793333332 -0.046082021
4570628 0.9781439106666667 -0.047585044
4580632 0.9782811800000001 -0.04906865600000001
4590636 0.9781886343333334 -0.050485776333333336
4600640 0.9780112903333333 -0.05199692
4610644 0.9780257543333333 -0.05341049166666667
4620648 0.9778281446666668 -0.054841096
4630652 0.9777906136666666 -0.05638125399999999
4640656 0.9777988393333334 -0.057792195666666664
4650660 0.9776371716666666 -0.059171794666666666
4660664 0.9775900443333333 -0.06060201933333333
4670668 0.977444291 -0.062124482
4680672 0.9774117666666667 -0.06351370133333333
4690676 0.9773884613333333 -0.06493248533333333
4700680 0.9772606886666667 -0.066426496
4710684 0.9771765870000001 -0.06785299133333333
4720688 0.9769876796666667 -0.06925368033333333
4730692 0.9768228926666667 -0.070750562
4740696 0.9769203266666667 -0.072244746
4750700 0.9767437376666667 -0.07355654733333333
4760704 0.9765076833333334 -0.07503580033333333
4770708 0.9764600993333333 -0.07639977833333333
4780712 0.9764253693333332 -0.077787444
4790716 0.9761698446666666 -0.07931011933333333
4800720 0.9761076766666666 -0.08081351933333332
4810724 0.9760958353333332 -0.08211488033333335
4820728 0.97589161 -0.08353508766666666
4830732 0.9757486976666666 -0.08496146666666667
4840736 0.97563529 -0.08643745366666666
4850740 0.9754606086666667 -0.08781020099999999
4860744 0.9756008783333333 -0.08927347000000001
4870748 0.9752209783333333 -0.09063294533333333
4880752 0.9751657246666667 -0.09195122133333333
4890756 0.9749105373333333 -0.09339373066666667
4900760 0.9748396476666666 -0.094912581
4910764 0.9746736883333332 -0.09637300199999999
4920768 0.9746785956666667 -0.09770985966666668
4930772 0.97445035 -0.09911695366666666
4940776 0.9742474556666667 -0.10052148033333332
4950780 0.9739998776666666 -0.10188817
4960784 0.9738915363333334 -0.10330162933333333
4970788 0.973922233 -0.10477356633333333
4980792 0.9738268653333333 -0.10612755766666666
4990796 0.9736151496666666 -0.10757549599999999
5000800 0.9735465643333333 -0.10895053033333334
5010804 0.9733202656666666 -0.11042729999999999
5020808 0.9730362893333333 -0.111800452
5030812 0.9730282626666668 -0.113060807
5040816 0.972718795 -0.11450798833333335
5050820 0.9726635020000001 -0.11595738466666666
5060824 0.9726053276666667 -0.11723688966666668
5070828 0.972222388 -0.11869339133333334
5080832 0.9721203843333334 -0.12015159166666667
5090836 0.971974333 -0.12144925466666667
5100840 0.9716938136666666 -0.122800534
5110844 0.9715005356666667 -0.12422362966666667
5120848 0.971381386 -0.12561635699999998
5130852 0.9710111616666667 -0.12694718433333332
5140856 0.970884939 -0.128407692
5150860 0.9707697826666667 -0.12978313366666666
5160864 0.9705933533333333 -0.131050577
5170868 0.9703443446666666 -0.13246737433333333
5180872 0.9701267483333332 -0.133816898
5190876 0.970129768 -0.13521259066666666
5200880 0.9698927996666667 -0.13665069133333332
5210884 0.9696058036666667 -0.13793972633333332
5220888 0.9694452683333333 -0.13941947133333335
5230892 0.969312012 -0.14073598866666667
5240896 0.9687687753333334 -0.142112767
5250900 0.968824367 -0.14350905033333336
5260904 0.9686279496666668 -0.14479300866666667
5270908 0.9683874846666667 -0.146240905
5280912 0.9681994913333334 -0.14761501033333332
5290916 0.968044778 -0.14894451700000003
5300920 0.9677258726666667 -0.150249074
5310924 0.9674282473333333 -0.15162983533333332
5320928 0.9675148130000001 -0.153065398
5330932 0.9671727813333334 -0.15431973333333335
5340936 0.966788292 -0.15567142766666667
5350940 0.966749668 -0.15721180033333335
5360944 0.9665861526666667 -0.15847699333333332
5370948 0.9662808776666667 -0.159846897
5380952 0.9659884173333334 -0.16126401733333334
5390956 0.9658888180000001 -0.16255842666666667
5400960 0.965550343 -0.163824315
5410964 0.9653180243333335 -0.16524201633333332
5420968 0.965130369 -0.16667328300000003
5430972 0.9648783403333333 -0.167842423
5440976 0.9644068476666666 -0.16922673600000002
5450980 0.9643568793333334 -0.1706250956666667
5460984 0.9641140899999999 -0.17186925333333333
5470988 0.9637890856666668 -0.173257187
5480992 0.9635538260000001 -0.17467776933333334
5490996 0.9634032646666667 -0.17598120866666667
5501000 0.9630682070000001 -0.17722024000000003
5511004 0.962819477 -0.178670446
5521008 0.9626424513333333 -0.18000886366666669
5531012 0.9622487623333335 -0.18129164
5541016 0.9620037673333334 -0.182682847
5551020 0.9618258279999999 -0.18405939133333335
5561024 0.961411655 -0.185296794
5571028 0.9612091580000001 -0.18667237466666667
5581032 0.9610373576666668 -0.18807004400000002
5591036 0.9607600770000001 -0.1892574083333333
5601040 0.9604327083333333 -0.19060042966666665
5611044 0.9600952863333333 -0.19203246599999999
5621048 0.9598761796666667 -0.19327833266666664
5631052 0.9596253436666666 -0.194637269
5641056 0.959291955 -0.19599744666666666
5651060 0.9591669043333333 -0.197349161
5661064 0.9586772123333334 -0.19853860133333331
5671068 0.9583687783333333 -0.19990297166666668
5681072 0.958240092 -0.20132071266666665
5691076 0.957917392 -0.20249471066666666
5701080 0.9575621086666667 -0.20390464333333333
5711084 0.9572757483333333 -0.20525087899999997
5721088 0.9570776223333333 -0.20648313566666668
5731092 0.9567181073333333 -0.20786030566666666
5741096 0.9564379453333333 -0.20923844000000003
5751100 0.956263741 -0.2105573463333333
5761104 0.9558640516666667 -0.21170025566666664
5771108 0.9554763436666667 -0.21314287666666668
5781112 0.9553452926666667 -0.21452649433333335
5791116 0.9549617966666668 -0.21571806566666665
5801120 0.9545488953333333 -0.21698057133333334
5811124 0.9542308249999999 -0.21841057633333336
5821128 0.9541677036666667 -0.21971379733333332
5831132 0.9536619783333333 -0.22088441233333334
5841136 0.9533369939999999 -0.22232654666666665
5851140 0.953150769 -0.22365631666666666
5861144 0.9527057213333333 -0.2247824913333333
5871148 0.952332179 -0.22615500333333335
5881152 0.9520731369999998 -0.22751253333333332
5891156 0.9517781933333334 -0.228682245
5901160 0.95135957 -0.23010284700000003
5911164 0.9511361123333334 -0.231510843
5921168 0.9508643546666665 -0.23267315833333332
5931172 0.9504790703333333 -0.23387380433333335
5941176 0.9500904083333334 -0.23530722166666665
5951180 0.9499335886666667 -0.236638551
5961184 0.9495785236666666 -0.23781902600000002
5971188 0.9491048853333334 -0.23916431766666668
5981192 0.948880752 -0.24062996133333334
5991196 0.948611915 -0.241716648
6001200 0.948108077 -0.24302683766666666
6011204 0.9478830296666666 -0.24442221733333333
6021208 0.9475827416666668 -0.24557535833333333
6031212 0.946532488 -0.24697471666666668
6041216 0.9469340246666667 -0.248285686
6051220 0.9465992249999999 -0.24960068866666665
6061224 0.9463491043333333 -0.250872264
6071228 0.945896089 -0.25208845733333335
6081232 0.9455218913333333 -0.2534206313333333
6091236 0.9451292356666667 -0.2546962696666667
6101240 0.9449044663333334 -0.25604335500000003
6111244 0.9446056883333335 -0.25729091
6121248 0.9442162713333332 -0.2585088713333333
6131252 0.9438725313333333 -0.259872645
6141256 0.9434108536666667 -0.26118590433333333
6151260 0.943045477 -0.2623981833333333
6161264 0.9427885610000001 -0.2636584043333333
6171268 0.9423514010000001 -0.2648564976666667
6181272 0.9419508773333334 -0.26619661866666666
6191276 0.9416143696666667 -0.26748191299999996
6201280 0.9412003156666667 -0.2687069773333333
6211284 0.940842648 -0.27005422100000004
6221288 0.9404160776666667 -0.271338463
6231292 0.9401711226666666 -0.27253374466666663
6241296 0.9397050539999999 -0.273833066
6251300 0.9394532443333333 -0.275209655
6261304 0.9390059709999999 -0.27633430566666667
6271308 0.9386855363333333 -0.27767227066666667
6281312 0.9382872383333334 -0.278909107
6291316 0.937900146 -0.2801203726666666
6301320 0.9373719093333334 -0.28133150933333334
6311324 0.937024593 -0.2826438546666667
6321328 0.9366159039999999 -0.28393454333333334
6331332 0.9362356066666666 -0.28520396333333337
6341336 0.9358965753333334 -0.28645671433333336
6351340 0.9354918796666668 -0.28771909100000004
6361344 0.9352305926666666 -0.28900890533333334
6371348 0.9347309273333333 -0.2902584673333333
6381352 0.934256494 -0.29153464233333337
6391356 0.9339895646666667 -0.2927722636666667
6401360 0.9333566430000001 -0.293935289
6411364 0.9330159226666667 -0.29524778333333335
6421368 0.932556351 -0.29657534766666666
6431372 0.9321093163333334 -0.29770653433333333
6441376 0.9317540326666666 -0.298980445
6451380 0.9312490226666666 -0.300160736
6461384 0.9309060373333334 -0.30148280666666666
6471388 0.9304645856666668 -0.30270902299999997
6481392 0.9300361276666665 -0.30405007833333336
6491396 0.929698229 -0.30525624733333334
6501400 0.9293078183333333 -0.30651748166666665
6511404 0.9287481306666666 -0.307711075
6521408 0.9283677536666666 -0.30900530033333334
6531412 0.9278781216666667 -0.310186694
6541416 0.9275878273333333 -0.31150203933333337
6551420 0.9271021286666666 -0.31271143766666665
6561424 0.926855604 -0.3139955603333333
6571428 0.926199297 -0.31513978033333334
6581432 0.9257844883333334 -0.316487531
6591436 0.9253835279999999 -0.3176322876666667
6601440 0.9249126316666668 -0.318959733
6611444 0.92452844 -0.3202041983333333
6621448 0.924085061 -0.32132910666666664
6631452 0.9236307343333333 -0.322633167
6641456 0.923156182 -0.32387878466666664
6651460 0.9226642446666666 -0.325121492
6661464 0.9223874606666667 -0.326336801
6671468 0.9217957653333334 -0.32756193466666667
6681472 0.921452264 -0.32873117933333335
6691476 0.9209072193333333 -0.3300716283333333
6701480 0.9204432166666666 -0.3313968676666667
6711484 0.920015355 -0.332498064
6721488 0.9195611873333333 -0.3336093326666667
6731492 0.9190066853333333 -0.33498481900000004
6741496 0.9185027876666667 -0.336108337
6751500 0.918198685 -0.33750524099999996
6761504 0.9177023173333333 -0.3386647503333333
6771508 0.9173331259999999 -0.33987311533333336
6781512 0.9167205890000001 -0.34106910233333326
6791516 0.9161524576666666 -0.34215637066666665
6801520 0.9156567653333334 -0.34345974500000004
6811524 0.91522938 -0.34468340866666664
6821528 0.9146910313333333 -0.34590689333333335
6831532 0.9142333866666666 -0.347153038
6841536 0.9138352073333333 -0.34839018166666663
6851540 0.913327694 -0.349592189
6861544 0.9126815796666666 -0.35066158566666666
6871548 0.9124730233333334 -0.3520657516666667
6881552 0.9118577043333334 -0.353221178
6891556 0.9113345343333332 -0.35447306433333337
6901560 0.910847743 -0.35565866
6911564 0.9105142153333334 -0.356899162
6921568 0.9100092446666667 -0.3581238686666666
6931572 0.9094357886666667 -0.35926804966666664
6941576 0.9089164733333334 -0.36055237033333337
6951580 0.9083612763333333 -0.3616811336666667
6961584 0.9078787963333332 -0.36289661133333334
6971588 0.9075185459999999 -0.3642510076666667
6981592 0.9070531526666666 -0.36540922533333325
6991596 0.9065101740000001 -0.36657568833333337
7001600 0.9058855576666667 -0.36779929199999994
7011604 0.905466815 -0.36903404233333337
7021608 0.9049707453333333 -0.3702221016666667
7031612 0.904370904 -0.371409327
7041616 0.9033611613333333 -0.37250238666666663
7051620 0.903328061 -0.37381516866666664
7061624 0.902630945 -0.3748757243333333
7071628 0.9022550583333334 -0.37624686999999996
7081632 0.901754101 -0.3773449956666666
7091636 0.9011212189999999 -0.37854540366666667
7101640 0.9006033143333333 -0.379750788
7111644 0.9000652233333334 -0.38099499533333336
7121648 0.8996537526666667 -0.3821786346666667
7131652 0.899024248 -0.38346607466666666
7141656 0.8985167343333332 -0.38462975633333335
7151660 0.8980639773333333 -0.38583074
7161664 0.8974367973333335 -0.38704245266666665
7171668 0.8967921336666667 -0.38825651999999994
7181672 0.8963703113333333 -0.38951558866666663
7191676 0.8957587483333334 -0.3905468683333333
7201680 0.895063698 -0.39182627166666667
7211684 0.8947252036666667 -0.39313371966666666
7221688 0.8941931726666668 -0.3942581613333333
7231692 0.893468976 -0.395489037
7241696 0.8928644656666668 -0.396674166
7251700 0.8924747903333333 -0.39791024733333336
7261704 0.8918887576666666 -0.3990604283333334
7271708 0.891234378 -0.40033046433333336
7281712 0.890661021 -0.40160511933333337
7291716 0.8901055856666668 -0.40267757600000004
7301720 0.8893938463333333 -0.40391486866666665
7311724 0.8889318306666666 -0.4052176973333333
7321728 0.8883534270000001 -0.40640403833333333
7331732 0.8876964250000001 -0.40760482366666667
7341736 0.8871543206666667 -0.4089018703333333
7351740 0.8865910373333333 -0.41007020099999997
7361744 0.8859773676666666 -0.411279132
7371748 0.8851206500000001 -0.4125658873333333
7381752 0.8845888176666666 -0.41375618200000003
7391756 0.88390251 -0.41484129433333333
7401760 0.8832707206666667 -0.41626925266666664
7411764 0.882777373 -0.4175741966666667
7421768 0.882015069 -0.41873478866666664
7431772 0.8812033136666667 -0.42009556266666664
7441776 0.8805876373333333 -0.421385785
7451780 0.8797406356666665 -0.42251850199999996
7461784 0.8788916666666667 -0.4238566753333333
7471788 0.878141244 -0.4252605936666667
7481792 0.8772554 -0.426397264
7491796 0.8761951526666666 -0.4276551206666666
