# HZ S RI R 50
3000000 -0.2592116993333333 0.6505654056666667
3010004 -0.245154962 0.6499381463333334
3020008 -0.2308883466666667 0.6491571069999998
3030012 -0.21710763366666666 0.6480249763333333
3040016 -0.20354504366666668 0.6464678246666667
3050020 -0.19032267733333333 0.6445677280000001
3060024 -0.17719983566666664 0.6425497333333333
3070028 -0.16446320699999997 0.6402732926666667
3080032 -0.15181136633333334 0.6379587453333334
3090036 -0.13969334466666664 0.6352303426666667
3100040 -0.12756341200000001 0.6322247983333333
3110044 -0.11587037166666665 0.629098773
3120048 -0.10440848766666666 0.6257184346666667
3130052 -0.09318561366666667 0.62231193
3140056 -0.08209488533333333 0.618617892
3150060 -0.07142483433333334 0.6149201990000001
3160064 -0.06090279666666667 0.6111946306666667
3170068 -0.050643410666666666 0.607086718
3180072 -0.040500491666666666 0.6029012003333333
3190076 -0.030655443 0.5987714726666666
3200080 -0.021080797666666668 0.5945320726666666
3210084 -0.011821726333333333 0.5899928409999999
3220088 -0.0026032846666666667 0.5855265853333335
3230092 0.006335616666666666 0.5809263389999999
3240096 0.014971926000000002 0.576279501
3250100 0.023472984 0.5715539653333334
3260104 0.03174781666666667 0.5667776663333334
3270108 0.03981335566666667 0.5619551340000001
3280112 0.04765604066666667 0.5570720436666666
3290116 0.055373179333333335 0.552067399
3300120 0.06287141866666666 0.5471166966666667
3310124 0.070279593 0.5421797633333334
3320128 0.07729749400000001 0.5371278323333334
3330132 0.08435855066666666 0.5321206850000001
3340136 0.09102605533333334 0.5269573333333333
3350140 0.09769398733333334 0.521824678
3360144 0.104210953 0.5167042016666666
3370148 0.11056182066666666 0.5116936366666667
3380152 0.11665739866666668 0.506541888
3390156 0.12271433566666666 0.5013251106666666
3400160 0.128561 0.4960885543333333
3410164 0.13423714533333334 0.4911493556666667
3420168 0.139801383 0.485959818
3430172 0.14518103499999999 0.48083339133333336
3440176 0.15046201633333334 0.47573637933333335
3450180 0.155564542 0.4704585176666667
3460184 0.16057050733333333 0.465479255
3470188 0.16549887233333335 0.46027037500000006
3480192 0.17041562 0.45519986733333334
3490196 0.17495125033333334 0.4501630266666667
3500200 0.17946449899999997 0.44504808366666665
3510204 0.18392687066666666 0.43997959300000006
3520208 0.18827534733333331 0.4349619946666667
3530212 0.19250346233333335 0.42996566499999994
3540216 0.19656793266666664 0.4249736863333333
3550220 0.20053256066666666 0.419917057
3560224 0.20448177066666665 0.4149848023333333
3570228 0.20823987833333332 0.41004964699999996
3580232 0.21191946166666667 0.405089488
3590236 0.215632672 0.40015295166666665
3600240 0.21911188466666667 0.3952772816666666
3610244 0.22255266733333334 0.39045748099999994
3620248 0.22589519133333333 0.38563943900000003
3630252 0.2291016233333333 0.38074579833333333
3640256 0.23236643766666668 0.37597895633333334
3650260 0.23543859533333333 0.37121367433333335
3660264 0.23842692899999998 0.36649407933333333
3670268 0.24139083400000003 0.361764401
3680272 0.24428018933333331 0.35709365200000004
3690276 0.24704135466666666 0.3523664773333333
3700280 0.24983645466666668 0.34773381566666667
3710284 0.25245892 0.34313793
3720288 0.2550613483333333 0.33852777866666667
3730292 0.257556975 0.3339785536666666
3740296 0.2600448233333333 0.32943425600000004
3750300 0.2624919416666667 0.3248584966666667
3760304 0.26479657500000003 0.320416351
3770308 0.267050465 0.31593507533333337
3780312 0.26928223199999995 0.3114789823333333
3790316 0.27145609266666665 0.307040731
3800320 0.2735579513333333 0.302672545
3810324 0.27563035500000005 0.2983268696666666
3820328 0.277597785 0.2938985926666667
3830332 0.27959622933333333 0.289632251
3840336 0.28142682733333335 0.28531888133333333
3850340 0.283282469 0.28106373533333334
3860344 0.2850901086666667 0.27678309866666667
3870348 0.286881099 0.2725569703333333
3880352 0.28859940166666664 0.26838676133333333
3890356 0.29024184766666666 0.2642140686666667
3900360 0.29185485833333336 0.2600525223333333
3910364 0.29340972533333337 0.25590990999999996
3920368 0.2949386636666667 0.25176640333333333
3930372 0.29639941466666664 0.24769997633333332
3940376 0.297874282 0.243634785
3950380 0.299271087 0.239635562
3960384 0.3005770843333333 0.23557424533333335
3970388 0.30195042466666666 0.23154137066666666
3980392 0.3032238583333333 0.22758835600000002
3990396 0.30451111999999997 0.22366457666666664
4000400 0.30574020733333335 0.21965617966666665
4010404 0.306744387 0.21571783266666666
4020408 0.30797135800000003 0.211867104
4030412 0.3090207773333333 0.20802061766666669
4040416 0.31012906633333337 0.20412961133333332
4050420 0.311187347 0.20028766499999998
4060424 0.31218523766666667 0.19651367266666667
4070428 0.313134402 0.19270375366666667
4080432 0.314060112 0.18889950733333336
4090436 0.31501625 0.1851630413333333
4100440 0.3159227473333333 0.18143563000000004
4110444 0.3167568343333333 0.17772537966666668
4120448 0.3175857366666667 0.17398908766666665
4130452 0.31838576 0.17032870633333333
4140456 0.3191565573333333 0.16666307066666666
4150460 0.3198621573333333 0.16302921866666667
4160464 0.3206145466666667 0.15936495366666667
4170468 0.32128381733333333 0.15578733366666667
4180472 0.32191908366666666 0.152191634
4190476 0.32254366100000004 0.14857672133333333
4200480 0.32316185033333333 0.14500707866666665
4210484 0.32381400466666665 0.14152369433333334
4220488 0.3243110576666666 0.13797161466666666
4230492 0.32485353966666664 0.13440473899999997
4240496 0.32539905133333336 0.13090086
4250500 0.32589055100000003 0.12747529666666665
4260504 0.326343934 0.12398614966666667
4270508 0.326792896 0.12047749033333334
4280512 0.32723118866666673 0.11703523266666667
4290516 0.327669005 0.113633327
4300520 0.3280555903333333 0.11023860933333333
4310524 0.3283276956666667 0.106845533
4320528 0.328723103 0.103451354
4330532 0.3290115296666667 0.10009460399999999
4340536 0.329286744 0.09674002733333333
4350540 0.3295620383333333 0.09339365100000001
4360544 0.32980654666666664 0.09004044
4370548 0.3300447066666667 0.086720278
4380552 0.33030235766666666 0.08342942833333333
4390556 0.330461194 0.08012312166666667
4400560 0.3306588033333333 0.07685400566666667
4410564 0.3308610716666666 0.07356364533333333
4420568 0.3309637406666666 0.07031481699999999
4430572 0.3311302063333333 0.06705610166666666
4440576 0.331209739 0.06385046
4450580 0.33128294366666666 0.06062310433333334
4460584 0.33137689033333334 0.057423370333333335
4470588 0.3314407466666666 0.054229997
4480592 0.33147382733333336 0.051021514
4490596 0.33150340133333334 0.047855104
4500600 0.3315334916666667 0.044649945
4510604 0.33147264533333326 0.04150846366666666
4520608 0.33146228400000005 0.03833632533333333
4530612 0.3313995996666667 0.03517122833333333
4540616 0.33136404599999997 0.032019737
4550620 0.33129998033333335 0.028877131666666667
4560624 0.331206868 0.025774942666666665
4570628 0.331104706 0.022624452333333333
4580632 0.330959181 0.019532483
4590636 0.3308252993333333 0.016408918666666664
4600640 0.33067491633333335 0.013350252666666666
4610644 0.33048674466666667 0.010268034
4620648 0.33030063933333337 0.007193967333333333
4630652 0.3301272393333334 0.0041230956666666665
4640656 0.32989733433333335 0.0010795486666666666
4650660 0.32966822366666665 -0.0019925380000000003
4660664 0.329409808 -0.005050166666666667
4670668 0.3291398486666667 -0.008070653
4680672 0.328864932 -0.011141730333333334
4690676 0.3285474876666667 -0.014175571
4700680 0.3282583356666667 -0.017199139999999998
4710684 0.32791495333333337 -0.020204961999999996
4720688 0.32757116366666666 -0.02325289233333333
4730692 0.3272209663333333 -0.026262602
4740696 0.326859067 -0.029271544333333333
4750700 0.3264506956666667 -0.032261147999999996
4760704 0.32605880499999995 -0.035263807
4770708 0.3256223 -0.03828050933333333
4780712 0.32520366733333333 -0.041232736
4790716 0.3247604766666667 -0.04424234333333333
4800720 0.32428376866666664 -0.047222661666666665
4810724 0.3238307436666667 -0.05018995933333333
4820728 0.32331109033333333 -0.05314971633333334
4830732 0.32279200333333335 -0.05615781366666667
4840736 0.322292427 -0.059104809
4850740 0.3217429916666667 -0.062053362333333334
4860744 0.3211563526666667 -0.06499249966666666
4870748 0.320610702 -0.06796824166666667
4880752 0.32001769566666666 -0.07090779400000001
4890756 0.3194374836666667 -0.073844721
4900760 0.31882035766666666 -0.07679233933333333
4910764 0.31817111400000003 -0.07972771433333332
4920768 0.3175731003333333 -0.08269450033333332
4930772 0.316867898 -0.085607958
4940776 0.31619175266666666 -0.08853288233333334
4950780 0.31554400899999996 -0.09147641299999999
4960784 0.3147964676666667 -0.09439427933333333
4970788 0.3140596846666666 -0.09732619166666667
4980792 0.31333394833333333 -0.100243442
4990796 0.312584897 -0.1031787
5000800 0.3118098876666667 -0.10607858766666667
5010804 0.3110467593333333 -0.10903024666666666
5020808 0.310048481 -0.11192083866666667
5030812 0.3094127873333334 -0.11483790466666666
5040816 0.30860756833333336 -0.11776600266666666
5050820 0.30777803033333334 -0.12070941666666667
5060824 0.3068783583333334 -0.12362447133333332
5070828 0.30599359633333334 -0.12651234366666667
5080832 0.3050948976666667 -0.12943112366666668
5090836 0.30417680733333335 -0.13234943166666668
5100840 0.3032572566666667 -0.13526349766666665
5110844 0.3023272553333334 -0.13818621133333334
5120848 0.3013184866666667 -0.14111160233333334
5130852 0.30035181866666666 -0.144020215
5140856 0.299385836 -0.14695444233333332
5150860 0.2983445923333334 -0.14985144133333334
5160864 0.2972980836666667 -0.152760585
5170868 0.2962578533333333 -0.155687754
5180872 0.2951735953333333 -0.15862827533333335
5190876 0.29411844433333334 -0.16154817233333332
5200880 0.29301345366666665 -0.16446367366666667
5210884 0.2918548286666667 -0.16737123333333334
5220888 0.2907271683333334 -0.17031147066666666
5230892 0.28953719133333333 -0.17322350033333334
5240896 0.2883911926666667 -0.176169793
5250900 0.2871779403333334 -0.17909305266666667
5260904 0.285984109 -0.18203404066666665
5270908 0.2846901416666667 -0.18495965
5280912 0.2834624746666667 -0.18791739166666666
5290916 0.2821985186666667 -0.19085664066666666
5300920 0.2809269126666667 -0.19381388533333332
5310924 0.2795986033333333 -0.19675221533333334
5320928 0.27823800833333334 -0.19969199633333332
5330932 0.27686292933333334 -0.20263251166666665
5340936 0.27547342566666666 -0.20559281133333332
5350940 0.274057567 -0.2085616836666667
5360944 0.2726654313333334 -0.21151245633333335
5370948 0.27123056866666667 -0.21447917833333333
5380952 0.269742439 -0.21743649266666668
5390956 0.26822504433333333 -0.22041402233333332
5400960 0.26674131566666665 -0.22341279700000002
5410964 0.26520737033333336 -0.22636564566666664
5420968 0.2635829946666667 -0.229314342
5430972 0.2620061636666666 -0.23230564099999998
5440976 0.26038900033333334 -0.23530565699999997
5450980 0.25874615733333334 -0.23830243466666667
5460984 0.2571071386666667 -0.241313517
5470988 0.2554240923333333 -0.24428246433333334
5480992 0.25366905333333334 -0.247276073
5490996 0.251908839 -0.25029677166666664
5501000 0.25016487633333334 -0.25330947833333334
5511004 0.24838550366666667 -0.25635097433333337
5521008 0.24658596 -0.2593145666666667
5531012 0.2447037896666667 -0.26237362633333333
5541016 0.242833838 -0.2653901376666667
5551020 0.240936473 -0.26844480633333334
5561024 0.23900508866666667 -0.271495541
5571028 0.23703857766666667 -0.2744933763333333
5581032 0.23502679133333335 -0.2775560913333333
5591036 0.232973208 -0.280534883
5601040 0.23095533266666668 -0.2836835186666667
5611044 0.2288723933333333 -0.2867244283333334
5621048 0.2267300786666667 -0.28975856299999997
5631052 0.22460660333333335 -0.292865465
5641056 0.22235129266666664 -0.29591330899999996
5651060 0.22018788766666667 -0.29901883
5661064 0.21796532966666668 -0.302112639
5671068 0.21564603833333332 -0.3051918546666667
5681072 0.21331239233333332 -0.30829575633333334
5691076 0.21094332133333335 -0.3113805353333334
5701080 0.20855847966666666 -0.31445629399999997
5711084 0.206109405 -0.31757219633333333
5721088 0.203657473 -0.320704321
5731092 0.20114710933333335 -0.32380570966666666
5741096 0.198620677 -0.3269571763333334
5751100 0.195980986 -0.3300380606666667
5761104 0.19336522599999997 -0.33317067233333336
5771108 0.190687731 -0.33629844600000003
5781112 0.18797464166666666 -0.33944096166666665
5791116 0.18523942433333332 -0.342628658
5801120 0.18243224433333335 -0.34571562233333336
5811124 0.17956474433333333 -0.3488337693333334
5821128 0.17666061200000002 -0.3519967096666667
5831132 0.17371270566666666 -0.35516501466666667
5841136 0.17077984933333334 -0.3583218656666667
5851140 0.167734156 -0.361509949
5861144 0.164702639 -0.36467948566666664
5871148 0.161523243 -0.367817392
5881152 0.158336843 -0.37098722633333336
5891156 0.15507671233333334 -0.37410457899999994
5901160 0.151813214 -0.377259016
5911164 0.14846240966666666 -0.38038236900000005
5921168 0.14508727700000001 -0.3835960823333333
5931172 0.14162634833333335 -0.38675945033333337
5941176 0.13811975233333332 -0.3899594446666667
5951180 0.13456437499999999 -0.393154194
5961184 0.13095665466666667 -0.3962621293333333
5971188 0.12725624433333332 -0.399399817
5981192 0.12347466266666667 -0.402612696
5991196 0.119710545 -0.40579800800000004
6001200 0.11586341733333333 -0.40890359866666665
6011204 0.111871948 -0.4120509623333333
6021208 0.10792437933333333 -0.415237367
6031212 0.10364283866666667 -0.4182408553333333
6041216 0.09968701033333334 -0.42154461133333326
6051220 0.09551255166666667 -0.424681594
6061224 0.09122873599999999 -0.42775077599999994
6071228 0.08684749633333333 -0.430841118
6081232 0.08240669466666667 -0.434023589
6091236 0.07798936933333334 -0.43712003033333335
6101240 0.07338873533333333 -0.44017513599999997
6111244 0.06865402300000001 -0.44321233033333335
6121248 0.063960103 -0.4463780623333333
6131252 0.059145627 -0.4493026933333333
6141256 0.054254007666666666 -0.45232622833333336
6151260 0.049230570333333334 -0.4554399946666667
6161264 0.044159991 -0.458412995
6171268 0.039067114666666666 -0.4613861043333333
6181272 0.03375707433333333 -0.464301149
6191276 0.028404327666666663 -0.46739643833333333
6201280 0.022881458333333337 -0.470133553
6211284 0.017471559666666667 -0.4730846186666667
6221288 0.011832830333333334 -0.4758754473333333
6231292 0.006029993333333333 -0.47873318200000003
6241296 0.000240588 -0.4815507233333333
6251300 -0.005618664999999999 -0.48430329566666663
6261304 -0.011719234666666667 -0.4869588616666667
6271308 -0.017918361999999997 -0.489659051
6281312 -0.024053939333333333 -0.49236343299999996
6291316 -0.030421133333333333 -0.4949197273333333
6301320 -0.03690308466666667 -0.49742352966666664
6311324 -0.043474741333333324 -0.4999866786666667
6321328 -0.05011844133333334 -0.5024681686666667
6331332 -0.056925155 -0.5048547386666665
6341336 -0.06392020466666666 -0.5071751873333333
6351340 -0.07099126066666667 -0.5095784066666668
6361344 -0.078112694 -0.511742393
6371348 -0.08546080466666668 -0.5137828386666666
6381352 -0.09286787099999999 -0.515953958
6391356 -0.10045694066666667 -0.5180184246666667
6401360 -0.10806096366666666 -0.5200083653333333
6411364 -0.11585921066666667 -0.5218131143333333
6421368 -0.12383308533333333 -0.5235907633333333
6431372 -0.131918649 -0.5252641240000001
6441376 -0.14004361133333335 -0.5269403256666667
6451380 -0.1483818543333333 -0.5282333096666666
6461384 -0.15691162133333333 -0.5297467706666666
6471388 -0.16554488233333334 -0.5309496123333334
6481392 -0.1742567766666667 -0.5320995053333334
6491396 -0.18323047966666664 -0.5331577856666667
6501400 -0.19213149966666668 -0.5340616106666666
6511404 -0.20136660333333334 -0.5348048806666666
6521408 -0.21068870999999997 -0.5354112986666667
6531412 -0.22022932266666664 -0.535872539
6541416 -0.22976538066666666 -0.5361890793333334
6551420 -0.239554882 -0.5362972616666667
6561424 -0.24959630766666666 -0.5364481806666667
6571428 -0.2596446076666667 -0.5363105533333333
6581432 -0.2698005243333333 -0.5359498066666667
6591436 -0.2801299093333333 -0.5353156526666667
6601440 -0.29076270233333334 -0.5345778663333333
6611444 -0.30141482766666666 -0.5336693326666667
6621448 -0.31203987199999994 -0.5325483676666667
6631452 -0.322992156 -0.5309931040000001
6641456 -0.3340639269999999 -0.5292481183333333
6651460 -0.3451464573333333 -0.5275069476666667
6661464 -0.356372446 -0.525373419
6671468 -0.3677754303333334 -0.5228185456666666
6681472 -0.379517645 -0.5203925370000001
6691476 -0.390959571 -0.5173633893333333
6701480 -0.4025456606666667 -0.5139748256666666
6711484 -0.41455384100000003 -0.5105345643333333
6721488 -0.4264362453333333 -0.5066746276666666
6731492 -0.438343823 -0.5025420983333333
6741496 -0.45032358166666664 -0.49787065399999997
6751500 -0.46261511233333336 -0.49294583033333333
6761504 -0.475027492 -0.48785833500000003
6771508 -0.487246563 -0.482337475
6781512 -0.49957891299999996 -0.4763169686666666
6791516 -0.5120024876666668 -0.469923437
6801520 -0.5243745643333333 -0.46313235133333325
6811524 -0.536697586 -0.4559623003333333
6821528 -0.5491266646666667 -0.44836554900000003
6831532 -0.56141005 -0.440369129
6841536 -0.5737408199999999 -0.43193235
6851540 -0.5860375363333333 -0.4232444166666666
6861544 -0.5980309643333334 -0.41373321433333327
6871548 -0.610242526 -0.4041161736666667
6881552 -0.6222031316666667 -0.39394874333333335
6891556 -0.6338553029999999 -0.3831216593333333
6901560 -0.6457320053333332 -0.372068882
6911564 -0.6569737196666666 -0.36050931633333333
6921568 -0.6680582763333334 -0.348446528
6931572 -0.6791848936666667 -0.3358275193333333
6941576 -0.6900666950000001 -0.3228242496666666
6951580 -0.7005258006666667 -0.309471915
6961584 -0.7105284136666666 -0.29551812
6971588 -0.720437825 -0.28104117533333334
6981592 -0.7301095523333334 -0.2662340103333333
6991596 -0.7391812403333334 -0.25103181566666666
7001600 -0.7478488883333334 -0.23528497933333334
7011604 -0.7562246126666666 -0.21909460433333336
7021608 -0.764202436 -0.20261149600000003
7031612 -0.7714036506666666 -0.18573730200000002
7041616 -0.7776472769999999 -0.1678394976666667
7051620 -0.7848065496666666 -0.15078087633333334
7061624 -0.7905688483333333 -0.132811313
7071628 -0.7960332236666666 -0.11440393833333333
7081632 -0.8008715906666667 -0.09596662700000001
7091636 -0.804902355 -0.07713726166666668
7101640 -0.8082190553333334 -0.057892462
7111644 -0.8109742603333333 -0.03852735066666666
7121648 -0.813219229 -0.019189028
7131652 -0.8148227333333332 0.00034257533333333334
7141656 -0.8154893913333333 0.020076468333333333
7151660 -0.8157478966666667 0.03997091666666667
7161664 -0.8151504593333333 0.059724038
7171668 -0.8139775596666667 0.079622502
7181672 -0.8122145136666666 0.09949329266666666
7191676 -0.8092910249999999 0.11909360433333334
7201680 -0.8061262966666666 0.13897711033333335
7211684 -0.8020094236666667 0.158461814
7221688 -0.7975366116666667 0.177901432
7231692 -0.792087535 0.19712045766666664
7241696 -0.7860798039999999 0.21603476
7251700 -0.7795526583333334 0.23475129866666666
7261704 -0.7722252013333333 0.25315032433333334
7271708 -0.7642791866666666 0.2713935376666667
7281712 -0.7560471296666668 0.2891173756666667
7291716 -0.7467876276666666 0.30634664500000003
7301720 -0.7370972433333334 0.3232423266666667
7311724 -0.7268883389999999 0.33990490399999995
7321728 -0.7163351973333333 0.3560503326666667
7331732 -0.7052945496666666 0.371650547
7341736 -0.6937142213333334 0.3868645926666667
7351740 -0.6817275286666667 0.401583284
7361744 -0.6695359546666667 0.41585436466666664
7371748 -0.656525771 0.4291718203333333
7381752 -0.6437614956666665 0.4424898623333333
7391756 -0.6302916603333334 0.4551772376666667
7401760 -0.6166265206666667 0.4671615263333333
7411764 -0.6027558843333334 0.478697439
7421768 -0.5886829296666667 0.489586651
7431772 -0.5743849476666667 0.5001573166666666
