# HZ S RI R 50
3000000 0.14227562633333335 0.4781949916666666
3010004 0.14949920766666666 0.4717345636666666
3020008 0.15632255366666667 0.4650530216666667
3030012 0.16302924833333332 0.458279242
3040016 0.169423153 0.4515963296666667
3050020 0.175533389 0.44485938566666666
3060024 0.18151088066666668 0.43820159666666664
3070028 0.18732492666666667 0.43152202133333334
3080032 0.1928692213333333 0.42492906266666663
3090036 0.198258559 0.4183680616666667
3100040 0.20347075666666667 0.41179823899999995
3110044 0.208518113 0.40528615333333334
3120048 0.21334128066666666 0.39882530766666663
3130052 0.218058477 0.39236262433333335
3140056 0.22258466966666668 0.38595265166666665
3150060 0.22693189466666666 0.3796211483333334
3160064 0.231227835 0.373339305
3170068 0.235272477 0.3670234483333334
3180072 0.23920460533333335 0.3608199456666667
3190076 0.24305693799999997 0.3546123206666667
3200080 0.24682231233333332 0.3485081993333334
3210084 0.25041782833333337 0.34239258366666664
3220088 0.2537426153333333 0.3363928096666667
3230092 0.2570792633333333 0.330371231
3240096 0.260364016 0.3243798316666667
3250100 0.263476322 0.3185214103333333
3260104 0.2664469976666667 0.312685768
3270108 0.2693645456666667 0.306812823
3280112 0.2721957563333333 0.30114135166666667
3290116 0.274944961 0.29530469600000003
3300120 0.27748912566666667 0.28967459
3310124 0.279988418 0.28398328999999994
3320128 0.28242196633333333 0.278359443
3330132 0.284822146 0.272829483
3340136 0.287130634 0.26739194
3350140 0.2892026703333333 0.26185925800000004
3360144 0.2913429043333334 0.2563942376666667
3370148 0.293440064 0.2510424056666667
3380152 0.29531354699999995 0.2457205703333333
3390156 0.29717560633333334 0.24034743499999997
3400160 0.29899820699999996 0.2350668313333333
3410164 0.30079054833333335 0.229856253
3420168 0.3024873733333333 0.22472486900000002
3430172 0.3040366173333333 0.21953043333333333
3440176 0.30562822033333337 0.21438079566666665
3450180 0.30714396633333335 0.20929708066666666
3460184 0.30860353533333335 0.20431397866666665
3470188 0.30995894500000004 0.199312662
3480192 0.311289211 0.19429560533333334
3490196 0.31259561566666666 0.189339772
3500200 0.3138160206666667 0.18446724633333333
3510204 0.314903607 0.1796172163333333
3520208 0.31602337966666666 0.17472765333333332
3530212 0.3171698253333333 0.16992079233333335
3540216 0.31814054633333333 0.16518233233333332
3550220 0.319116036 0.16044633099999997
3560224 0.32003873600000005 0.1556667833333333
3570228 0.32099020466666667 0.150964404
3580232 0.3217919866666667 0.146360601
3590236 0.32253012033333334 0.141713227
3600240 0.32327247666666664 0.137083868
3610244 0.32401775299999996 0.132507513
3620248 0.3246634503333333 0.12800126266666667
3630252 0.3252804183333333 0.12348484733333333
3640256 0.32588143133333336 0.11894110066666667
3650260 0.32644551 0.114467298
3660264 0.3269598286666667 0.110036341
3670268 0.3274068336666667 0.105616547
3680272 0.3278583586666666 0.101193505
3690276 0.3282734056666667 0.09682248533333333
3700280 0.32865636533333337 0.092490119
3710284 0.32894186200000003 0.08814214400000002
3720288 0.3292601606666667 0.08382214366666667
3730292 0.3295337856666667 0.07954360033333334
3740296 0.3298020463333333 0.07527186233333333
3750300 0.3300053276666666 0.071014757
3760304 0.33016084633333337 0.066796216
3770308 0.33032828566666667 0.06256593733333334
3780312 0.33042283866666666 0.058402029
3790316 0.3304966886666667 0.05423300933333333
3800320 0.330553015 0.050080934
3810324 0.33058493333333333 0.04593772933333334
3820328 0.33060098699999996 0.041821183000000005
3830332 0.3305422266666667 0.037713344
3840336 0.3304760156666667 0.03359960633333334
3850340 0.33043155066666663 0.02951767466666667
3860344 0.33028309533333333 0.025489476666666667
3870348 0.3301243486666667 0.021441568000000005
3880352 0.32998595633333333 0.017383433
3890356 0.3297625083333333 0.013381511
3900360 0.329526484 0.009373115666666666
3910364 0.32926850533333335 0.005376700000000001
3920368 0.328997304 0.001392613
3930372 0.328695794 -0.0025500383333333333
3940376 0.32833444066666667 -0.006528253666666667
3950380 0.3279696306666667 -0.010472821666666667
3960384 0.32763362933333334 -0.014408815333333333
3970388 0.3271696766666667 -0.01832236533333333
3980392 0.32673204933333333 -0.022237213000000002
3990396 0.32629813766666665 -0.026152965333333333
4000400 0.32579953466666667 -0.030058040666666664
4010404 0.325041195 -0.033943416
4020408 0.32473658499999997 -0.03781131566666667
4030412 0.32418529199999996 -0.041660176
4040416 0.32355981066666667 -0.04553865666666667
4050420 0.3229578336666667 -0.04938608866666667
4060424 0.3222968083333333 -0.053260453000000006
4070428 0.32161776200000003 -0.057071779999999996
4080432 0.32100052633333337 -0.06091692666666667
4090436 0.3202304243333333 -0.06473225366666667
4100440 0.3194802003333333 -0.06857070800000001
4110444 0.318755269 -0.072391304
4120448 0.31794742766666667 -0.07619262733333333
4130452 0.3171122573333333 -0.079981568
4140456 0.3162667356666667 -0.08381898966666666
4150460 0.315410366 -0.08761323266666667
4160464 0.31450219966666665 -0.09140550600000001
4170468 0.3135779896666666 -0.09518021566666668
4180472 0.31263094166666666 -0.09899190766666667
4190476 0.31164189166666667 -0.10276457633333334
4200480 0.3106441993333333 -0.10655045
4210484 0.3095963103333333 -0.11032117666666667
4220488 0.30854976166666664 -0.11412340666666666
4230492 0.307483246 -0.11791457233333331
4240496 0.30636810266666664 -0.12167150266666667
4250500 0.30519056333333333 -0.12544240066666668
4260504 0.30404711766666664 -0.12924069666666668
4270508 0.3028650086666667 -0.13300858966666668
4280512 0.30159647266666667 -0.13676138233333332
4290516 0.3003512423333334 -0.1405631403333333
4300520 0.299039652 -0.14433376499999997
4310524 0.29777042066666665 -0.148105929
4320528 0.29642903800000003 -0.15187916666666668
4330532 0.2950024603333334 -0.155652225
4340536 0.29363758366666665 -0.159474179
4350540 0.29220441 -0.1632375023333333
4360544 0.2907436886666667 -0.16700469433333334
4370548 0.289215843 -0.17081037166666668
4380552 0.28771472933333336 -0.17463276800000002
4390556 0.2861609063333333 -0.178409229
4400560 0.284567495 -0.18219710866666664
4410564 0.28291311866666663 -0.18601058433333337
4420568 0.2812483906666667 -0.189824785
4430572 0.27958506333333333 -0.193620915
4440576 0.2778305806666667 -0.19745823233333334
4450580 0.27603395799999997 -0.20126610499999997
4460584 0.274243037 -0.20507944599999997
4470588 0.27241654200000004 -0.20890926833333334
4480592 0.27052183933333335 -0.21276430799999999
4490596 0.26860997066666664 -0.2166044513333333
4500600 0.266651412 -0.220441704
4510604 0.26458992566666667 -0.22427443133333336
4520608 0.262586524 -0.22813898333333335
4530612 0.260519554 -0.232005914
4540616 0.2583917976666667 -0.23587546766666667
4550620 0.25621500599999997 -0.23975296833333334
4560624 0.25400197533333335 -0.24364762533333337
4570628 0.25174346566666667 -0.24750727400000003
4580632 0.24941994733333336 -0.251427263
4590636 0.24709972233333333 -0.25532260566666665
4600640 0.244715785 -0.25924664733333336
4610644 0.24225866299999999 -0.2631505926666667
4620648 0.23977241400000002 -0.26708066466666663
4630652 0.23721015933333334 -0.27100923633333335
4640656 0.234641875 -0.27496222633333334
4650660 0.23196278 -0.278879404
4660664 0.22927380600000002 -0.2828639843333334
4670668 0.22655614733333332 -0.286816726
4680672 0.223685786 -0.29077965
4690676 0.22084675733333334 -0.29478424766666667
4700680 0.21795353800000003 -0.2987629076666667
4710684 0.214913577 -0.30269454933333334
4720688 0.211866781 -0.30673609166666665
4730692 0.20878485333333333 -0.310753395
4740696 0.20565520733333334 -0.314763178
4750700 0.202373594 -0.31875205033333337
4760704 0.19906047466666665 -0.32278508933333333
4770708 0.195719247 -0.3268547853333333
4780712 0.19228384866666667 -0.33087471100000004
4790716 0.18875299866666664 -0.3348967233333333
4800720 0.18513321866666665 -0.338989784
4810724 0.18152228 -0.3430580893333333
4820728 0.17780662066666666 -0.34709582733333333
4830732 0.17393532366666667 -0.35113692300000005
4840736 0.17005868733333332 -0.35525336833333326
4850740 0.166082998 -0.3593336243333334
4860744 0.16201696766666668 -0.3634027343333333
4870748 0.15783361566666668 -0.3674575786666667
4880752 0.15362880633333334 -0.37156584866666664
4890756 0.149325485 -0.3756436306666666
4900760 0.14488483466666666 -0.37973404933333327
4910764 0.14036136866666668 -0.38382111999999996
4920768 0.13574146733333334 -0.38786401333333337
4930772 0.13098181766666667 -0.391904811
4940776 0.12623764599999998 -0.396091193
4950780 0.12129691266666666 -0.400093148
4960784 0.116232492 -0.404159019
4970788 0.111072699 -0.4081887703333333
4980792 0.10584056866666665 -0.41223172366666666
4990796 0.100426957 -0.41627302766666663
5000800 0.09493026633333333 -0.42032544833333335
5010804 0.08934383366666665 -0.42436989166666667
5020808 0.083658293 -0.42844533900000004
5030812 0.07774698199999999 -0.43222009133333333
5040816 0.07170689833333334 -0.436154008
5050820 0.06549365566666666 -0.44004925066666667
5060824 0.05931068466666667 -0.44406777633333333
5070828 0.052891916000000004 -0.4478908576666667
5080832 0.046332593 -0.451704353
5090836 0.03954698433333333 -0.45547525099999997
5100840 0.032676804999999996 -0.459262699
5110844 0.025680372000000003 -0.4629866976666666
5120848 0.018486645666666666 -0.466592302
5130852 0.011157735666666667 -0.47027257066666667
5140856 0.00364975 -0.47381909699999997
5150860 -0.0040423713333333335 -0.47735406933333335
5160864 -0.011931667 -0.48083682866666666
5170868 -0.01995509233333333 -0.484215518
5180872 -0.02814420566666667 -0.4875653686666667
5190876 -0.03658529233333333 -0.4906850756666667
5200880 -0.04524925733333333 -0.4938566783333333
5210884 -0.05403704533333333 -0.496978154
5220888 -0.06302708166666667 -0.4998906653333333
5230892 -0.07220191999999999 -0.502727608
5240896 -0.08164002733333332 -0.5054753026666666
5250900 -0.09135282533333333 -0.5080133476666666
5260904 -0.10117297600000001 -0.5105846923333334
5270908 -0.11117151633333333 -0.5130306083333332
5280912 -0.12141151000000001 -0.5151361623333334
5290916 -0.131985739 -0.5170861083333332
5300920 -0.14275955166666668 -0.5190021393333334
5310924 -0.15366715666666667 -0.5205778876666667
5320928 -0.16487212466666668 -0.521998167
5330932 -0.17640214633333332 -0.5232596396666667
5340936 -0.18806680033333334 -0.5245070856666666
5350940 -0.19995191733333337 -0.5253317753333334
5360944 -0.21216881266666668 -0.525772671
5370948 -0.22462509566666666 -0.526152313
5380952 -0.23719938133333338 -0.5263312063333334
5390956 -0.25005928633333335 -0.5259220203333334
5400960 -0.26328410733333335 -0.5253464976666666
5410964 -0.276670078 -0.5244853296666666
5420968 -0.29020493233333333 -0.5233106213333333
5430972 -0.30405549233333334 -0.5215793053333333
5440976 -0.31820063800000004 -0.5196495253333334
5450980 -0.33235967166666663 -0.5172331333333333
5460984 -0.34687780366666665 -0.5143738386666666
5470988 -0.36166770266666665 -0.51111118
5480992 -0.37655372400000003 -0.507487754
5490996 -0.39147031299999996 -0.5031151373333334
5501000 -0.406829407 -0.4983108043333333
5511004 -0.4222687086666667 -0.49297810566666667
5521008 -0.43779820199999997 -0.48718611433333336
5531012 -0.45334117600000007 -0.48064472266666664
5541016 -0.46911785 -0.47356166433333335
5551020 -0.48496965566666667 -0.4658895733333333
5561024 -0.5007080633333333 -0.45753503833333337
5571028 -0.516625007 -0.44842989233333336
5581032 -0.532580296 -0.4387754996666667
5591036 -0.5481829246666666 -0.4282132486666666
5601040 -0.5639933546666667 -0.4170829059999999
5611044 -0.5795438886666666 -0.40520547833333337
5621048 -0.5950989923333334 -0.39242669933333335
5631052 -0.6101711790000001 -0.3788989583333333
5641056 -0.625191927 -0.36467815433333334
5651060 -0.6396348873333333 -0.349484384
5661064 -0.6536862056666667 -0.333560924
5671068 -0.667603513 -0.316976557
5681072 -0.6808796126666666 -0.2995297413333333
5691076 -0.6938193443333333 -0.28137643166666665
5701080 -0.7061664266666666 -0.26239226266666665
5711084 -0.7174709836666667 -0.2426830183333333
5721088 -0.7284492056666667 -0.22209237499999998
5731092 -0.738820672 -0.20087835666666667
5741096 -0.7479098439999999 -0.17903834566666665
5751100 -0.7567210993333333 -0.15661048366666666
5761104 -0.7643029886666666 -0.1335369
5771108 -0.7709159456666667 -0.10995914566666666
5781112 -0.7765633663333333 -0.08594213166666666
5791116 -0.7813078960000001 -0.061416642
5801120 -0.7848261793333333 -0.036577778666666665
5811124 -0.7870670756666667 -0.011449303333333334
5821128 -0.7884681226666667 0.013862364666666667
5831132 -0.7884400883333332 0.03939252000000001
5841136 -0.7874156236666666 0.06490536000000001
5851140 -0.7849739786666666 0.09063961633333333
5861144 -0.7817152740000001 0.11597668633333334
5871148 -0.7769879893333332 0.14131912633333332
5881152 -0.7712130943333332 0.16643246033333334
5891156 -0.7641770440000001 0.1912291
5901160 -0.7559853593333333 0.21552465366666665
5911164 -0.7470294833333334 0.23951224966666665
5921168 -0.7367821929999999 0.2628529173333333
5931172 -0.7253402866666666 0.28576258833333334
5941176 -0.7131772836666667 0.30785874533333335
5951180 -0.7000606656666667 0.329361548
5961184 -0.6860877873333333 0.3499700526666667
5971188 -0.6711125176666667 0.36978944133333336
5981192 -0.6555764276666667 0.38880135600000004
5991196 -0.6392751733333334 0.40694087733333334
6001200 -0.6223660510000001 0.42428220333333333
6011204 -0.604960521 0.44063400233333333
6021208 -0.5871126053333333 0.45592022933333337
6031212 -0.568398853 0.47008684266666667
6041216 -0.5500962933333332 0.48377303266666666
6051220 -0.5311346650000001 0.49632122100000003
6061224 -0.511849463 0.5079120793333334
6071228 -0.4925025896666666 0.5183834433333333
6081232 -0.472988079 0.5282638869999999
6091236 -0.45337074 0.5370186766666667
6101240 -0.4339152176666667 0.5449046493333333
6111244 -0.414294173 0.5520265896666666
6121248 -0.394818912 0.558283965
6131252 -0.375320981 0.5636047323333333
6141256 -0.3561719556666667 0.5681662163333333
6151260 -0.33722860600000004 0.5720855593333333
6161264 -0.3183253406666667 0.5752814613333332
6171268 -0.2997540533333333 0.5776858926666667
6181272 -0.28146345433333336 0.5795413056666666
6191276 -0.2633807856666666 0.5806672176666666
6201280 -0.24562692166666666 0.581246098
6211284 -0.228186235 0.5811911823333333
6221288 -0.2111269533333333 0.5806078316666666
6231292 -0.19423613433333334 0.5795126159999999
6241296 -0.177833418 0.5779607893333333
6251300 -0.16188140733333334 0.5758823353333333
6261304 -0.146164561 0.573470056
6271308 -0.13081148266666667 0.5707104803333333
6281312 -0.11579766400000001 0.567466438
6291316 -0.10129685433333334 0.563975811
6301320 -0.08710179733333334 0.5599513846666667
6311324 -0.07318785033333333 0.5556528966666666
6321328 -0.05973516933333334 0.551287174
6331332 -0.04666487133333333 0.5466726816666666
6341336 -0.033862644 0.5417292316666666
6351340 -0.021467078333333334 0.5365562243333333
6361344 -0.009453372 0.531160891
6371348 0.002389254 0.5257674656666667
6381352 0.013619543 0.5196535189999999
6391356 0.024675039333333332 0.5140629213333333
6401360 0.03531383466666666 0.5079568423333334
6411364 0.04562045133333333 0.501728038
6421368 0.05578693766666667 0.4953785933333333
6431372 0.065525862 0.48900774133333336
6441376 0.074837019 0.482559115
6451380 0.08413299166666667 0.475955685
6461384 0.093060908 0.4693436223333333
6471388 0.10163718466666667 0.4625325003333333
6481392 0.109977645 0.4557604393333334
6491396 0.11806742333333335 0.4488781293333333
6501400 0.12587633733333334 0.44182816166666666
6511404 0.13338920966666665 0.43500053899999996
6521408 0.14067046866666666 0.42794106400000004
6531412 0.14773752299999998 0.4208449226666667
6541416 0.15456398833333332 0.41375194
6551420 0.16128987066666667 0.4065868160000001
6561424 0.167439699 0.3995303213333334
6571428 0.17379736399999998 0.3922594486666667
6581432 0.17965954066666667 0.3850713673333333
6591436 0.18539580733333336 0.3779026566666667
6601440 0.190975368 0.3706461193333333
6611444 0.19644267866666668 0.36331211533333335
6621448 0.20150414100000003 0.3562309543333333
6631452 0.206464544 0.34891702733333335
6641456 0.21127371966666667 0.3414985933333334
6651460 0.215956271 0.33428692800000004
6661464 0.22038888933333334 0.3270044426666667
6671468 0.22463287899999998 0.31961249299999994
6681472 0.228724092 0.31236385333333333
6691476 0.23272165633333333 0.305045615
6701480 0.23648910199999998 0.29766103633333335
6711484 0.24021398033333333 0.29029789533333333
6721488 0.243638282 0.28294848400000006
6731492 0.24689269533333333 0.2755150693333333
6741496 0.25013730933333334 0.2681352993333333
6751500 0.2531628013333333 0.260720273
6761504 0.256047388 0.25324558233333333
6771508 0.2587372163333334 0.245732799
6781512 0.26143995933333336 0.23824681366666667
6791516 0.2638520003333333 0.23070429266666667
6801520 0.26611006266666665 0.223086342
6811524 0.2682569523333333 0.21543363733333332
6821528 0.27016271166666667 0.207769642
6831532 0.27194323133333337 0.200000614
6841536 0.273612986 0.19224563733333333
6851540 0.2751371363333333 0.18442657599999998
6861544 0.27641199033333336 0.17647968233333333
6871548 0.27760593100000003 0.16857812833333333
6881552 0.2785619396666667 0.16048532733333334
6891556 0.27922078933333333 0.15230526
6901560 0.279897382 0.144133871
6911564 0.2803192236666667 0.13580441499999998
6921568 0.28023639333333333 0.12735695133333333
6931572 0.2802231313333334 0.11874865000000001
6941576 0.27995993700000005 0.11004876333333334
6951580 0.279110481 0.10131048899999999
6961584 0.2782919406666667 0.09227390333333334
6971588 0.27709923200000003 0.083044956
6981592 0.27534899133333335 0.07397481566666667
6991596 0.2734321353333333 0.06427755966666666
7001600 0.27093486000000006 0.05460088700000001
7011604 0.26797545933333333 0.04478322466666667
7021608 0.2642019393333333 0.03485214566666667
7031612 0.260172705 0.024494435
7041616 0.2554596863333333 0.014559762999999998
7051620 0.24966272733333336 0.003591261666666667
7061624 0.2431259256666667 -0.007369313333333333
7071628 0.23581375166666665 -0.017837604333333337
7081632 0.22675375133333334 -0.02828954733333333
7091636 0.21657994866666666 -0.039912904
7101640 0.205301056 -0.05008587466666667
7111644 0.19165490033333332 -0.06038010233333333
7121648 0.17641173799999998 -0.07031949833333334
7131652 0.15916826366666667 -0.078993904
7141656 0.13972740900000002 -0.08619979266666666
7151660 0.117512194 -0.09126620733333334
7161664 0.09326214066666667 -0.093830814
7171668 0.06805107766666667 -0.092401527
7181672 0.03908099566666667 -0.08736488466666666
7191676 0.010216247999999999 -0.07673554833333333
7201680 -0.016161797333333335 -0.06076398733333333
7211684 -0.04386523266666667 -0.036853187
7221688 -0.06622032833333334 -0.007708013
7231692 -0.081159475 0.024804587000000003
7241696 -0.090036844 0.06437804800000001
7251700 -0.09037817733333332 0.10409147033333332
7261704 -0.08256579933333333 0.13979591433333335
7271708 -0.06613550066666667 0.17523970700000002
7281712 -0.04521424066666666 0.203975002
7291716 -0.022219619666666666 0.22605067
7301720 0.005713248333333334 0.24348971266666664
7311724 0.03267805533333334 0.2550967236666667
7321728 0.05682273200000001 0.2622692386666667
7331732 0.08343534633333333 0.26462348333333335
7341736 0.10662421066666666 0.264178117
7351740 0.12709561500000002 0.26216913266666664
7361744 0.14649119 0.256924699
7371748 0.16392656666666666 0.250906726
7381752 0.17908365033333332 0.244787082
7391756 0.19286991166666667 0.236566762
7401760 0.20515784633333334 0.22847974766666668
7411764 0.21640075766666667 0.22045072899999998
7421768 0.226182307 0.21202820066666664
7431772 0.23485077899999998 0.203362008
7441776 0.24284731366666665 0.19495875133333332
7451780 0.24983052900000002 0.18670645866666669
7461784 0.25607292833333334 0.17840694366666665
