# HZ S RI R 50
3000000 -0.5720006823333333 0.577763776
3010004 -0.5559763510000001 0.585175832
3020008 -0.540180107 0.592901071
3030012 -0.524329126 0.600001951
3040016 -0.5084923903333333 0.6066449086666666
3050020 -0.49285893633333333 0.612865627
3060024 -0.47706586133333334 0.6183962226666667
3070028 -0.46139104166666667 0.6235019963333333
3080032 -0.44575527333333337 0.6281633176666667
3090036 -0.4303637443333333 0.6323902206666666
3100040 -0.4150072136666667 0.6361361343333333
3110044 -0.3996886513333333 0.6392957766666667
3120048 -0.384572317 0.642099778
3130052 -0.3697584073333333 0.6445977886666667
3140056 -0.3550303576666667 0.646642069
3150060 -0.34036510200000003 0.6480771700000001
3160064 -0.32593032699999996 0.649532497
3170068 -0.31172071900000003 0.650439918
3180072 -0.29769234866666666 0.6510858136666666
3190076 -0.2838544353333334 0.6513359150000001
3200080 -0.27020625266666665 0.6512643893333334
3210084 -0.256822864 0.6511716446666667
3220088 -0.24364880733333336 0.6504461763333333
3230092 -0.23056804166666667 0.6495263976666666
3240096 -0.21777600033333333 0.6483952203333333
3250100 -0.20523115 0.6470111806666667
3260104 -0.19293941566666664 0.645467023
3270108 -0.18084093466666665 0.6435569923333332
3280112 -0.16886110133333332 0.6414838233333333
3290116 -0.15721103533333333 0.6394099396666667
3300120 -0.145845011 0.6369344193333334
3310124 -0.13456146433333335 0.6342602766666666
3320128 -0.12351425466666666 0.63157173
3330132 -0.11278425133333332 0.6287212173333333
3340136 -0.102266642 0.6255238850000001
3350140 -0.09194030866666665 0.6222051183333334
3360144 -0.08169845466666666 0.6187781493333333
3370148 -0.071738114 0.6154987213333334
3380152 -0.062054073999999994 0.6120077766666667
3390156 -0.052513728333333336 0.6081288856666667
3400160 -0.043092881666666666 0.6044726573333333
3410164 -0.034057514000000004 0.600645145
3420168 -0.025196357000000003 0.5966110626666666
3430172 -0.016351463333333333 0.5925136803333334
3440176 -0.007750602 0.588570615
3450180 0.0005511683333333334 0.5843699373333333
3460184 0.008646734666666666 0.5802027583333333
3470188 0.016730452333333336 0.575734536
3480192 0.024540359999999997 0.571472724
3490196 0.03215792533333333 0.5670386156666667
3500200 0.03960759166666667 0.5625050466666667
3510204 0.046966445999999995 0.5580065846666667
3520208 0.054227777666666664 0.5534817776666666
3530212 0.06109236666666667 0.548990528
3540216 0.06782525033333334 0.544290483
3550220 0.074574935 0.5396621426666667
3560224 0.08115791266666668 0.5350840093333332
3570228 0.08744700266666666 0.530401687
3580232 0.09373696399999999 0.5256453553333333
3590236 0.09983043133333334 0.5210631093333333
3600240 0.10568846266666666 0.5162947773333334
3610244 0.11148545366666666 0.5115477443333333
3620248 0.11726875366666667 0.506793638
3630252 0.122816302 0.502065758
3640256 0.128181522 0.49739020066666667
3650260 0.13346510633333333 0.4925982356666667
3660264 0.13865090433333335 0.48781288666666667
3670268 0.14374318233333333 0.48316767833333335
3680272 0.14862616366666667 0.478374094
3690276 0.15354636300000002 0.4736083846666667
3700280 0.15825208533333335 0.468886852
3710284 0.16279881666666665 0.464205086
3720288 0.16725877933333333 0.45950214066666667
3730292 0.17176686700000002 0.45476858800000003
3740296 0.17603666566666668 0.4500759243333334
3750300 0.180195739 0.4453894096666667
3760304 0.18430560799999998 0.4406929613333333
3770308 0.18831826733333334 0.43607440599999997
3780312 0.192207237 0.4314558306666667
3790316 0.19603459033333334 0.4268131653333333
3800320 0.199769795 0.4221740463333334
3810324 0.2034698226666667 0.417594592
3820328 0.20699977366666666 0.4130458336666667
3830332 0.21048491733333333 0.408419023
3840336 0.213960866 0.4039067726666667
3850340 0.21721457933333332 0.39936891199999996
3860344 0.220493893 0.39491487566666666
3870348 0.22361770266666667 0.39042581133333326
3880352 0.2267048753333333 0.38585679733333333
3890356 0.22982882433333332 0.38148211433333334
3900360 0.232737695 0.3770572443333333
3910364 0.2355780553333333 0.37261341000000003
3920368 0.23848847566666667 0.36823826033333334
3930372 0.24118315666666668 0.3639026186666667
3940376 0.24386778466666667 0.35952142866666664
3950380 0.24651451400000002 0.35520400599999996
3960384 0.24910003933333336 0.35088559
3970388 0.2515906593333333 0.34660794333333333
3980392 0.254012843 0.34235037366666665
3990396 0.2563984396666667 0.3380657036666667
4000400 0.25877628699999994 0.33384060833333334
4010404 0.26081161699999994 0.3294012846666667
4020408 0.26329566033333335 0.325481842
4030412 0.26545149100000004 0.32131736466666666
4040416 0.26754868033333334 0.31716474899999997
4050420 0.269674301 0.31304522333333334
4060424 0.27168360333333336 0.30898028633333335
4070428 0.27362231433333334 0.3048803113333333
4080432 0.27552180499999995 0.3007849553333333
4090436 0.27747002233333334 0.2967694103333333
4100440 0.2793058056666667 0.2927877503333333
4110444 0.2810920573333333 0.288809955
4120448 0.2828496993333333 0.28478653233333334
4130452 0.2845710516666667 0.28083833066666664
4140456 0.28625702866666664 0.2769089146666667
4150460 0.28780380899999997 0.27304542066666665
4160464 0.28938097766666665 0.2691142656666667
4170468 0.29098346866666663 0.26522791366666665
4180472 0.29246447466666664 0.26142636933333335
4190476 0.293920189 0.257571638
4200480 0.295386404 0.2537330783333333
4210484 0.29679659999999997 0.24996816600000002
4220488 0.29812822733333333 0.246194288
4230492 0.29939477633333333 0.24240883700000002
4240496 0.30071938033333334 0.23863273866666668
4250500 0.302011013 0.23495313033333334
4260504 0.30320379133333336 0.23126923533333332
4270508 0.304403196 0.22756831333333336
4280512 0.30559164266666666 0.22391034633333332
4290516 0.30668856699999997 0.22023872033333336
4300520 0.307822754 0.21663913633333332
4310524 0.30888303133333334 0.21302984166666664
4320528 0.30991098266666667 0.20944609733333333
4330532 0.3109398583333334 0.20583764733333332
4340536 0.31193057733333335 0.20229609766666667
4350540 0.31285460800000003 0.19873095066666666
4360544 0.3138246536666667 0.19522370366666666
4370548 0.314699163 0.19168509033333336
4380552 0.31558427233333336 0.18819693733333334
4390556 0.3164197703333333 0.184735462
4400560 0.3172044156666667 0.18126903000000003
4410564 0.31800428033333333 0.17778898766666665
4420568 0.318806122 0.174371928
4430572 0.3195606966666667 0.17098413933333334
4440576 0.3202613693333333 0.167583878
4450580 0.3209902646666667 0.16416736933333334
4460584 0.3216470283333333 0.16082894766666667
4470588 0.32228229433333333 0.157443613
4480592 0.32295805233333336 0.15405647466666667
4490596 0.3235946596666667 0.15077381833333334
4500600 0.32414660866666667 0.14746397233333333
4510604 0.3247071403333333 0.14412222833333332
4520608 0.32524689033333337 0.140822763
4530612 0.3257623316666667 0.13755088566666665
4540616 0.3262952866666667 0.13430394233333334
4550620 0.32674414900000004 0.13105968133333334
4560624 0.32724611933333336 0.12780719
4570628 0.3276762663333333 0.12459054566666666
4580632 0.3281306723333333 0.121361221
4590636 0.3285214303333333 0.11817278233333334
4600640 0.3289286196666667 0.11501424766666667
4610644 0.329280853 0.11184764400000001
4620648 0.329607437 0.10864149033333333
4630652 0.329957942 0.10548469166666667
4640656 0.3302864233333333 0.10234207666666667
4650660 0.33057407533333333 0.09923442233333334
4660664 0.330858956 0.09607589266666666
4670668 0.3311208683333333 0.09295798366666667
4680672 0.33135001866666663 0.08986738333333333
4690676 0.331597706 0.08677116533333333
4700680 0.3318074243333334 0.08368583766666667
4710684 0.33201521633333336 0.08060957233333332
4720688 0.3322116236666666 0.07758377766666667
4730692 0.3323264816666667 0.07452024033333333
4740696 0.332463503 0.07148251433333333
4750700 0.3326235613333333 0.06847445666666667
4760704 0.3327253463333333 0.06547501433333335
4770708 0.3328284123333333 0.06245236466666667
4780712 0.332901756 0.059430442666666666
4790716 0.3330058953333333 0.05642966033333333
4800720 0.3330242536666666 0.053482423
4810724 0.33306774499999997 0.05046702533333333
4820728 0.33308173199999996 0.04748312266666666
4830732 0.33308105666666665 0.044512118999999996
4840736 0.333090762 0.041553999
4850740 0.33306790399999997 0.03858069966666666
4860744 0.333032916 0.035644928666666666
4870748 0.3329882526666667 0.032730901
4880752 0.33291366699999997 0.029809554
4890756 0.332847327 0.026887578333333332
4900760 0.33273546899999995 0.023964986333333337
4910764 0.332656672 0.021098286666666664
4920768 0.3324894406666667 0.018214123
4930772 0.33238245066666666 0.015308020666666667
4940776 0.3322576286666667 0.012435957333333332
4950780 0.33209304 0.009576762
4960784 0.3318864506666667 0.006699654333333333
4970788 0.33170511333333336 0.003826985
4980792 0.3315186003333333 0.0009650166666666666
4990796 0.3313115836666667 -0.0018777186666666668
5000800 0.3310872316666667 -0.004728896333333333
5010804 0.330846558 -0.007590041666666666
5020808 0.3305817446666667 -0.010396487666666667
5030812 0.330282301 -0.013244544999999998
5040816 0.330011775 -0.016056540999999997
5050820 0.32971650366666666 -0.018865390333333332
5060824 0.32940278466666667 -0.0216948
5070828 0.329116275 -0.024537336333333336
5080832 0.328756253 -0.027335766
5090836 0.32842621200000005 -0.03012053866666667
5100840 0.32809688666666664 -0.03290832933333333
5110844 0.32765825600000004 -0.035732155333333335
5120848 0.32730256533333335 -0.038532072
5130852 0.326925506 -0.04128835833333333
5140856 0.32647975300000004 -0.044097598666666675
5150860 0.32608761399999997 -0.04688889633333334
5160864 0.32566174833333333 -0.04965147
5170868 0.3251782956666667 -0.052412409666666666
5180872 0.32469186200000005 -0.05520652866666667
5190876 0.32428143433333334 -0.057977982000000004
5200880 0.3237561483333333 -0.06072587166666666
5210884 0.32327887400000005 -0.063489777
5220888 0.3227651916666667 -0.066290992
5230892 0.32225374366666665 -0.06902945033333334
5240896 0.32164390866666664 -0.07175429400000001
5250900 0.32109595366666666 -0.07451589633333333
5260904 0.3205409846666667 -0.07729279466666666
5270908 0.320009917 -0.08001518266666667
5280912 0.319394807 -0.08276641366666666
5290916 0.3187486036666667 -0.08553732933333331
5300920 0.318196058 -0.08827699466666666
5310924 0.31753154600000005 -0.09099452933333334
5320928 0.31687047100000004 -0.09375320833333334
5330932 0.31622239966666665 -0.09650637233333333
5340936 0.315558314 -0.09922254566666666
5350940 0.314860364 -0.101961014
5360944 0.3141548536666667 -0.10470302666666666
5370948 0.313453744 -0.10746571933333333
5380952 0.31275389566666667 -0.11019141733333333
5390956 0.311977933 -0.11290284733333333
5400960 0.311189761 -0.11566417400000001
5410964 0.310416907 -0.11838904500000001
5420968 0.309683462 -0.12111783
5430972 0.3088242113333333 -0.12382051599999999
5440976 0.308041622 -0.1265966443333333
5450980 0.307240377 -0.129335597
5460984 0.30638216933333334 -0.1320392393333333
5470988 0.3055179216666667 -0.13479613266666668
5480992 0.30465748933333336 -0.13753652566666666
5490996 0.3038173413333334 -0.14026154566666668
5501000 0.30289845666666665 -0.14299160766666666
5511004 0.30191761266666667 -0.14572184766666665
5521008 0.301060855 -0.14848383766666665
5531012 0.30009170366666665 -0.15120167033333332
5541016 0.2991119723333333 -0.15395638366666664
5551020 0.2981592416666667 -0.15671514466666667
5561024 0.2971796096666666 -0.15946485566666666
5571028 0.29615037666666666 -0.16217309233333332
5581032 0.29513976000000003 -0.16495696199999998
5591036 0.29406650866666667 -0.16767971199999998
5601040 0.29305485866666664 -0.17042614033333334
5611044 0.2919528386666666 -0.173184643
5621048 0.2908581593333333 -0.175955529
5631052 0.289799382 -0.17871594899999999
5641056 0.28860879933333333 -0.18141522033333332
5651060 0.28749688433333337 -0.18418056233333335
5661064 0.28634048533333334 -0.18698617333333334
5671068 0.28516509133333334 -0.18974054333333332
5681072 0.28399813166666665 -0.19248806933333332
5691076 0.282757908 -0.19527149199999996
5701080 0.2815204563333333 -0.19804586966666662
5711084 0.28026683133333335 -0.200810338
5721088 0.27901061366666663 -0.20358688633333333
5731092 0.27771821599999996 -0.206361408
5741096 0.27644241833333333 -0.20918503866666668
5751100 0.27511721866666666 -0.21194971066666668
5761104 0.27370717133333333 -0.21469771366666668
5771108 0.272378554 -0.217543766
5781112 0.270999521 -0.22033351666666667
5791116 0.2696454523333333 -0.22314815233333332
5801120 0.2681972086666667 -0.22592874866666668
5811124 0.2667434313333333 -0.228766759
5821128 0.2653054496666667 -0.23160691533333333
5831132 0.263817787 -0.23436710233333335
5841136 0.26229393500000003 -0.2371969323333333
5851140 0.26077036066666665 -0.24005041533333335
5861144 0.25923280933333337 -0.242847999
5871148 0.25765022633333334 -0.24566666766666667
5881152 0.25606696833333337 -0.24851980800000004
5891156 0.2544099293333333 -0.2513745923333333
5901160 0.25277237133333336 -0.25418166333333336
5911164 0.2510997953333333 -0.25701666866666667
5921168 0.24938386200000004 -0.25988348333333333
5931172 0.24771494666666669 -0.26280565066666667
5941176 0.24596632066666665 -0.2655970953333333
5951180 0.24414008866666667 -0.26844122033333334
5961184 0.242383659 -0.271379739
5971188 0.24058747300000002 -0.2742318013333333
5981192 0.23876423166666663 -0.27709960933333333
5991196 0.23685695233333334 -0.27998811
6001200 0.23495765033333335 -0.2829090656666667
6011204 0.23306693633333334 -0.28578792999999997
6021208 0.23107035466666667 -0.2886592646666667
6031212 0.2289513546666667 -0.29154189433333333
6041216 0.22710544333333335 -0.2944872376666667
6051220 0.22506092966666666 -0.2974105476666667
6061224 0.22297870133333333 -0.30031424733333334
6071228 0.22089619933333335 -0.303269257
6081232 0.218768572 -0.30619577566666667
6091236 0.216585944 -0.309096396
6101240 0.214408954 -0.3120749493333333
6111244 0.21215942533333335 -0.31497405
6121248 0.20985992266666664 -0.31791452566666667
6131252 0.20761914533333334 -0.32092689466666663
6141256 0.20527710033333335 -0.32384307166666665
6151260 0.20294677733333333 -0.32680694233333335
6161264 0.20051042733333335 -0.329748819
6171268 0.19804580500000002 -0.33276876833333335
6181272 0.19563562666666667 -0.33574556299999997
6191276 0.19312860099999998 -0.3386907576666667
6201280 0.19052531333333333 -0.3416700066666667
6211284 0.18792975966666667 -0.34462625799999996
6221288 0.18534175566666666 -0.347652594
6231292 0.1827251166666667 -0.35064622733333334
6241296 0.17999328166666664 -0.353615244
6251300 0.177216167 -0.356658568
6261304 0.17446438966666666 -0.359683583
6271308 0.17166035366666665 -0.36266512700000003
6281312 0.16873807733333335 -0.36563013
6291316 0.16580888633333332 -0.368665556
6301320 0.16281310233333332 -0.3716742196666667
6311324 0.15983675433333333 -0.374708563
6321328 0.15679137899999998 -0.3776979443333333
6331332 0.153634414 -0.38072836400000004
6341336 0.15053986 -0.38379043333333335
6351340 0.14734337733333333 -0.38678655033333326
6361344 0.14414697366666665 -0.3898761866666667
6371348 0.14078703066666667 -0.3928406336666667
6381352 0.13742441433333333 -0.3959028623333333
6391356 0.13407166833333334 -0.3989334406666667
6401360 0.13060264266666669 -0.4019174276666666
6411364 0.127031227 -0.4049625696666666
6421368 0.123496098 -0.40800725433333335
6431372 0.119914539 -0.4109835126666666
6441376 0.11622046200000001 -0.41399196766666674
6451380 0.11246200166666666 -0.41704849400000005
6461384 0.10864121233333335 -0.4201056063333333
6471388 0.10481130333333333 -0.4230932393333333
6481392 0.10089797266666667 -0.42607911433333334
6491396 0.09683528533333334 -0.4290445843333333
6501400 0.09278127066666668 -0.432110568
6511404 0.08870286966666667 -0.43506948166666665
6521408 0.084484555 -0.43806370099999997
6531412 0.08021716033333333 -0.4410637323333333
6541416 0.07586962233333333 -0.44397700800000006
6551420 0.07149411966666666 -0.4469528993333334
6561424 0.06703169166666667 -0.449891895
6571428 0.062504166 -0.45289752899999997
6581432 0.05787465233333333 -0.4557700353333333
6591436 0.053172295333333335 -0.45867910966666664
6601440 0.048393621666666664 -0.4615474243333333
6611444 0.04353163866666667 -0.46447677433333334
6621448 0.03862746933333333 -0.46725539366666663
6631452 0.033611592 -0.470113794
6641456 0.02848632 -0.472924799
6651460 0.02333859166666667 -0.475819985
6661464 0.018087807 -0.47861235333333335
6671468 0.012739897666666666 -0.48132051033333334
6681472 0.007229620333333332 -0.48407004266666664
6691476 0.001691183 -0.4868360656666666
6701480 -0.0038826526666666666 -0.48950436700000005
6711484 -0.009585747666666667 -0.49214821066666664
6721488 -0.015454901333333333 -0.4947079616666667
6731492 -0.021447179333333333 -0.49730576066666665
6741496 -0.02740834333333333 -0.4999016423333333
6751500 -0.033535072 -0.5023870466666667
6761504 -0.039755700666666664 -0.5049225686666666
6771508 -0.04602733766666667 -0.5072691836666667
6781512 -0.052559049000000004 -0.509662926
6791516 -0.059114161 -0.5119973023333334
6801520 -0.06575531766666666 -0.51433603
6811524 -0.07248200466666667 -0.5164595443333333
6821528 -0.07937468866666665 -0.5186506113333333
6831532 -0.08634860833333334 -0.5207832853333333
6841536 -0.09346826899999999 -0.5228138563333333
6851540 -0.10065494966666667 -0.524813513
6861544 -0.107975011 -0.5267541210000001
6871548 -0.11539680266666667 -0.5285179813333334
6881552 -0.123043942 -0.530335188
6891556 -0.13071396933333335 -0.532005608
6901560 -0.13857776933333332 -0.5335708263333333
6911564 -0.146466911 -0.5350883606666667
6921568 -0.154612725 -0.5364426773333334
6931572 -0.16282510266666664 -0.5377519923333334
6941576 -0.17117038333333334 -0.5390871166666665
6951580 -0.1796064026666667 -0.5401486156666667
6961584 -0.18824874366666666 -0.5411648156666667
6971588 -0.19698325800000002 -0.5420385799999999
6981592 -0.20581792333333335 -0.5427853666666667
6991596 -0.214897305 -0.543331663
7001600 -0.22410560666666668 -0.543835481
7011604 -0.23333165066666664 -0.5443001789999999
7021608 -0.242812112 -0.5445329546666667
7031612 -0.25237979466666666 -0.5444507993333333
7041616 -0.26216368866666667 -0.544539829
7051620 -0.2719406483333333 -0.5444382826666666
7061624 -0.2818573913333334 -0.5437789359999999
7071628 -0.2920057973333334 -0.5431295433333333
7081632 -0.3021110793333333 -0.542381803
7091636 -0.312460492 -0.5414099893333334
7101640 -0.3229515653333333 -0.5400598843333333
7111644 -0.3335812093333333 -0.5387990476666666
7121648 -0.344245712 -0.5370692213333333
7131652 -0.3550460536666667 -0.5351441499999999
7141656 -0.36605112733333334 -0.5330382186666666
7151660 -0.37712391233333326 -0.5307611426666666
7161664 -0.38823419833333334 -0.5282596346666666
7171668 -0.399524599 -0.525252223
7181672 -0.4109638133333333 -0.5221287010000001
7191676 -0.42253557833333333 -0.518792788
7201680 -0.4339998266666667 -0.515005529
7211684 -0.44566268733333336 -0.5108757613333333
7221688 -0.45756948000000003 -0.5065476296666667
7231692 -0.46940124033333336 -0.5019343893333333
7241696 -0.48121062933333336 -0.4969369573333333
7251700 -0.4931718706666666 -0.4916017053333333
7261704 -0.505270481 -0.4858033259999999
7271708 -0.5173886813333333 -0.4799488586666667
7281712 -0.5293414393333333 -0.4735724823333333
7291716 -0.5414043466666666 -0.46666151300000003
7301720 -0.553556482 -0.4595306316666667
7311724 -0.5655900636666668 -0.45199121999999997
7321728 -0.5774105986666668 -0.44405156366666665
7331732 -0.5895076793333334 -0.4357045593333333
7341736 -0.6014692583333333 -0.4270668823333333
7351740 -0.6131226816666667 -0.41783855366666667
7361744 -0.624707699 -0.408158322
7371748 -0.636492153 -0.39813899966666666
7381752 -0.648010234 -0.3879914386666667
7391756 -0.6590230066666667 -0.3768340743333334
7401760 -0.670140326 -0.365484188
7411764 -0.6813801923333335 -0.3537953
7421768 -0.692029496 -0.3416380683333333
7431772 -0.7024879256666666 -0.328960667
7441776 -0.7128767570000001 -0.31573837
