# HZ S RI R 50
3000000 -0.7366703153333333 -0.190962886
3010004 -0.7543188930000001 -0.148995067
3020008 -0.7677847739999999 -0.104122072
3030012 -0.7779414653333334 -0.057914298333333336
3040016 -0.7839929063333333 -0.01016174
3050020 -0.7853907546666666 0.037894934666666664
3060024 -0.7832366033333332 0.086375408
3070028 -0.7764024336666667 0.13467059033333334
3080032 -0.76565516 0.18210424466666666
3090036 -0.7507739263333333 0.2280697873333333
3100040 -0.7312810023333333 0.2726177176666667
3110044 -0.7096386153333333 0.31299453
3120048 -0.6843443313333334 0.35359484933333335
3130052 -0.6561692553333334 0.39019702866666667
3140056 -0.6258206763333333 0.4236233333333333
3150060 -0.5934419036666667 0.4537915986666667
3160064 -0.559380273 0.48069179066666673
3170068 -0.52449435 0.502571523
3180072 -0.4890601536666666 0.5244782766666667
3190076 -0.45318285633333333 0.5415736436666667
3200080 -0.4172242976666667 0.5556049743333333
3210084 -0.38172945366666666 0.5668826899999999
3220088 -0.3467722833333333 0.5753114026666667
3230092 -0.311815838 0.5811927713333334
3240096 -0.27888031799999996 0.5850672323333334
3250100 -0.246425678 0.5869446793333334
3260104 -0.2152068216666667 0.586623569
3270108 -0.185031727 0.584991793
3280112 -0.15637669966666667 0.5816223423333334
3290116 -0.1285516866666667 0.5772619643333333
3300120 -0.10203895966666665 0.5710255506666666
3310124 -0.07688446366666667 0.5641928313333333
3320128 -0.052944927333333336 0.5565535623333333
3330132 -0.030297852666666666 0.5479894876666666
3340136 -0.008200970333333333 0.5388536653333332
3350140 0.011429102333333331 0.5291157363333333
3360144 0.031075984333333334 0.5191128056666666
3370148 0.049274165333333335 0.508710464
3380152 0.066532135 0.49788338933333326
3390156 0.082741611 0.4867656726666667
3400160 0.09812274833333334 0.47559279233333335
3410164 0.11259641233333334 0.4643153746666666
3420168 0.12643522033333332 0.4527870316666666
3430172 0.13936139633333333 0.4413153826666667
3440176 0.151372532 0.4296545683333333
3450180 0.16288823366666666 0.41808184966666667
3460184 0.173717767 0.406500091
3470188 0.18393782766666666 0.39502753833333326
3480192 0.19345040633333332 0.3835948703333334
3490196 0.20245496433333332 0.37214488766666665
3500200 0.21100532533333335 0.3607766233333333
3510204 0.21893724766666667 0.3495353856666667
3520208 0.22640261066666667 0.33843451733333335
3530212 0.23355973733333332 0.3274485173333333
3540216 0.24008705200000002 0.31639110033333334
3550220 0.24624221 0.30550635833333334
3560224 0.2520935536666667 0.29478068166666666
3570228 0.257614225 0.2841510573333334
3580232 0.26283343666666664 0.273690512
3590236 0.26754786566666666 0.2633060116666666
3600240 0.2720314563333333 0.252941112
3610244 0.2762927313333334 0.24278475333333335
3620248 0.2801681263333334 0.23275079333333334
3630252 0.283817162 0.22280174500000002
3640256 0.28720160333333333 0.21293172733333332
3650260 0.2903644143333333 0.20317490400000002
3660264 0.2933075326666667 0.19358742766666667
3670268 0.29604508500000004 0.18409863133333335
3680272 0.29849455766666666 0.17461667933333333
3690276 0.3008148176666667 0.16532325233333334
3700280 0.3029483556666666 0.15610754000000002
3710284 0.304798325 0.14692363133333333
3720288 0.306555649 0.13787533366666668
3730292 0.30813625466666666 0.12888872133333334
3740296 0.309514324 0.12003573299999999
3750300 0.31074652066666664 0.11125954766666668
3760304 0.3117978673333333 0.10248310599999999
3770308 0.31274350466666667 0.09383415933333333
3780312 0.3135315476666667 0.08525465166666667
3790316 0.3141459523333333 0.076733455
3800320 0.31464322400000005 0.06828747433333333
3810324 0.31499497099999996 0.05987245233333333
3820328 0.3152509133333334 0.05158864466666666
3830332 0.315368225 0.043328319
3840336 0.3152621386666667 0.035065701
3850340 0.315203657 0.026898199333333334
3860344 0.3149149116666667 0.018782117
3870348 0.3145193256666667 0.010706008333333334
3880352 0.31402532266666666 0.002686115333333334
3890356 0.313404113 -0.0053080060000000005
3900360 0.3126970726666667 -0.013265100000000002
3910364 0.31180995699999997 -0.021158787666666665
3920368 0.310817391 -0.02906415766666667
3930372 0.309740116 -0.03691855833333333
3940376 0.3085496323333333 -0.04474175466666667
3950380 0.3072405853333333 -0.05253654333333333
3960384 0.30579558 -0.06031482533333333
3970388 0.30426844933333336 -0.06809602166666667
3980392 0.30260780433333334 -0.07583099366666667
3990396 0.300849875 -0.08357886733333335
4000400 0.298996667 -0.091288996
4010404 0.29707737733333334 -0.09905404599999999
4020408 0.2948225736666667 -0.10669328033333335
4030412 0.292561432 -0.11438618333333332
4040416 0.2902112803333333 -0.12205573166666667
4050420 0.28766040033333334 -0.12974380933333332
4060424 0.28507409499999997 -0.137465641
4070428 0.28233310566666664 -0.14512547366666667
4080432 0.27943060799999997 -0.15280015766666666
4090436 0.276345243 -0.160494834
4100440 0.27318199466666665 -0.16818589466666667
4110444 0.269867301 -0.1759072193333333
4120448 0.2663913073333333 -0.18361022566666665
4130452 0.262741476 -0.19131783133333333
4140456 0.2589507696666667 -0.19905234900000002
4150460 0.2549948593333333 -0.20678879833333333
4160464 0.25088646 -0.2145412316666667
4170468 0.24662342166666665 -0.22234418966666666
4180472 0.24213247466666665 -0.23013185466666666
4190476 0.23750354333333332 -0.23792645833333334
4200480 0.23261276900000002 -0.24573952466666668
4210484 0.2275711096666667 -0.2535927396666667
4220488 0.22230311733333333 -0.26142180966666667
4230492 0.21682558966666665 -0.26925147566666663
4240496 0.211106062 -0.277113865
4250500 0.20515550666666668 -0.28502806033333333
4260504 0.19896541033333334 -0.2928845683333334
4270508 0.19254502666666665 -0.30078944566666665
4280512 0.18582501033333332 -0.30869883299999995
4290516 0.17883149799999998 -0.31660167366666664
4300520 0.17161049466666667 -0.324527065
4310524 0.164017111 -0.332462112
4320528 0.15612474566666668 -0.3403158686666667
4330532 0.14791514466666666 -0.34817788
4340536 0.13932921499999998 -0.35604803766666665
4350540 0.13043171133333334 -0.36384905399999995
4360544 0.12118132166666666 -0.3716744386666666
4370548 0.11147392566666665 -0.37937781200000004
4380552 0.10137582833333335 -0.38707733166666664
4390556 0.09087583666666667 -0.3947108386666667
4400560 0.079862848 -0.402188162
4410564 0.06848511833333333 -0.40966257466666667
4420568 0.056558043999999995 -0.41690742966666666
4430572 0.044124357333333336 -0.42402619133333336
4440576 0.03114410033333333 -0.43110741166666666
4450580 0.017646124666666665 -0.437855681
4460584 0.0035912860000000004 -0.4443755946666667
4470588 -0.011127679 -0.4507783953333333
4480592 -0.02642504533333333 -0.4567641116666667
4490596 -0.042325263 -0.4625464776666666
4500600 -0.05899243299999999 -0.4677987396666667
4510604 -0.07635923766666668 -0.47281886133333334
4520608 -0.09425923733333334 -0.47731977699999995
4530612 -0.11300744866666666 -0.48119306533333334
4540616 -0.13256825966666666 -0.4845253726666667
4550620 -0.15278457599999998 -0.48730498566666663
4560624 -0.17371847733333334 -0.489123563
4570628 -0.19541765733333336 -0.49018435666666665
4580632 -0.21809908233333333 -0.4904396833333333
4590636 -0.24127457500000002 -0.48961561933333336
4600640 -0.265226553 -0.487731914
4610644 -0.29002864166666664 -0.48460066333333335
4620648 -0.31533958500000003 -0.48006236533333335
4630652 -0.3413301606666666 -0.4741806783333333
4640656 -0.36769493433333333 -0.466515253
4650660 -0.3947564563333333 -0.45727008566666666
4660664 -0.4219925503333333 -0.446305692
4670668 -0.44949032833333336 -0.433317691
4680672 -0.47706143033333337 -0.4181042613333333
4690676 -0.5045975646666666 -0.4009159406666667
4700680 -0.5314360066666667 -0.38116505733333333
4710684 -0.5581034223333333 -0.3593152466666667
4720688 -0.5837969183333334 -0.334987372
4730692 -0.6085621713333333 -0.30803491666666666
4740696 -0.6319872736666666 -0.27905496966666665
4750700 -0.653517842 -0.247352645
4760704 -0.6732719739999999 -0.213375777
4770708 -0.6907157700000001 -0.17762704166666665
4780712 -0.7052239773333334 -0.139646729
4790716 -0.7177465356666667 -0.10003319366666667
4800720 -0.7265521686666667 -0.05915233733333333
4810724 -0.7323160173333333 -0.017070757333333332
4820728 -0.7345845103333333 0.02564511833333333
4830732 -0.7334268493333332 0.06860758866666666
4840736 -0.728645444 0.11137325066666666
4850740 -0.720327099 0.15382617733333334
4860744 -0.7083933349999999 0.19509849466666665
4870748 -0.6934814850000001 0.23525196299999998
4880752 -0.6756168406666666 0.273754279
4890756 -0.6544943053333333 0.310049862
4900760 -0.6311294636666668 0.34436085799999994
4910764 -0.6054778296666666 0.37611536166666665
4920768 -0.5779606896666667 0.4051954446666666
4930772 -0.5489034056666667 0.43159606066666667
4940776 -0.5185196203333332 0.4552871783333334
4950780 -0.48745716633333336 0.47616789733333337
4960784 -0.4557590083333334 0.49437569566666667
4970788 -0.423703025 0.5097637773333333
4980792 -0.39161165566666667 0.5227956176666667
4990796 -0.3598650096666667 0.5333227713333334
5000800 -0.32823161266666667 0.5415244503333333
5010804 -0.2971711753333333 0.547425906
5020808 -0.2665866513333333 0.5508988896666667
5030812 -0.23737207033333332 0.5537872713333333
5040816 -0.20878062166666667 0.5543572703333334
5050820 -0.18114451066666667 0.553362886
5060824 -0.15450112533333335 0.5511144993333333
5070828 -0.12893219766666666 0.547432979
5080832 -0.10433208166666667 0.542920331
5090836 -0.080874103 0.5373300713333333
5100840 -0.058423577666666664 0.530850033
5110844 -0.03698085366666667 0.5237512790000001
5120848 -0.016610478333333335 0.5159346459999999
5130852 0.002824975 0.5075574319999999
5140856 0.02123197833333333 0.4988445043333333
5150860 0.03871788566666667 0.489635587
5160864 0.055311466 0.47997626666666665
5170868 0.07109372566666666 0.4701110223333333
5180872 0.08607303333333333 0.4600737886666666
5190876 0.10022741066666667 0.44983788333333335
5200880 0.11352878566666665 0.439456413
5210884 0.12616151066666667 0.42890499033333335
5220888 0.13815098 0.41833306366666667
5230892 0.14941459866666665 0.407656143
5240896 0.16022457666666667 0.3970178166666667
5250900 0.17031739666666668 0.3863213656666667
5260904 0.17987199133333331 0.37569152333333333
5270908 0.18877590700000002 0.36504891533333333
5280912 0.19730038466666666 0.3544642826666667
5290916 0.2053395556666667 0.34384536700000007
5300920 0.21292111766666666 0.3333988686666667
5310924 0.220093007 0.323024303
5320928 0.22675541533333332 0.31269445
5330932 0.23313123 0.302422712
5340936 0.23904000733333333 0.2922056613333333
5350940 0.24468077200000002 0.28208997866666663
5360944 0.249967113 0.2720874946666667
5370948 0.2548834183333333 0.262203733
5380952 0.25954731300000006 0.25241398833333334
5390956 0.26386169600000003 0.24264852699999997
5400960 0.2679389016666667 0.232987851
5410964 0.27178720633333336 0.22347685199999998
5420968 0.2753246723333333 0.214046369
5430972 0.27865806200000004 0.20472163966666668
5440976 0.281764358 0.19544256233333335
5450980 0.284609089 0.18626621866666668
5460984 0.2872996033333333 0.17719195299999999
5470988 0.28975681466666664 0.1682175846666667
5480992 0.29201962566666667 0.15933194733333333
5490996 0.2940817473333333 0.15049858866666666
5501000 0.2959847943333333 0.14176061766666667
5511004 0.2977442243333333 0.13310036566666666
5521008 0.2993119656666667 0.12452781966666666
5531012 0.3006906013333333 0.11598315333333332
5541016 0.3019404513333333 0.107539989
5551020 0.3030199903333333 0.09917771566666667
5561024 0.30400602000000004 0.09088735799999999
5571028 0.30477212866666664 0.08265398466666667
5581032 0.3054321013333334 0.074458855
5591036 0.3060083786666667 0.066327408
5601040 0.30645272166666665 0.058213463666666666
5611044 0.30672257133333336 0.05021299533333332
5621048 0.3068474133333334 0.04227085666666667
5631052 0.30687489133333334 0.03433609766666667
5641056 0.3067840236666666 0.026453082666666666
5651060 0.30658203333333334 0.018608524
5661064 0.306240072 0.010821758
5671068 0.30579565966666666 0.003059515666666667
5681072 0.3052558996666667 -0.004675010666666667
5691076 0.30452467 -0.012363000666666665
5701080 0.3037626146666667 -0.020012367
5711084 0.30286095566666665 -0.02764362166666667
5721088 0.3018172083333333 -0.03523169833333333
5731092 0.3006953796666667 -0.042779899
5741096 0.2994611063333334 -0.05031124133333333
5751100 0.2980797293333333 -0.05784572433333333
5761104 0.296606541 -0.06535454833333333
5771108 0.295042326 -0.07284554333333333
5781112 0.29338058833333336 -0.08031925066666668
5791116 0.29157188533333334 -0.08778628966666667
5801120 0.28964006933333336 -0.09519084033333335
5811124 0.2875774403333333 -0.102646895
5821128 0.28543612333333335 -0.11007750533333334
5831132 0.283168405 -0.11749958
5841136 0.28075433766666663 -0.12488123266666666
5851140 0.27819765599999996 -0.132285148
5861144 0.27552777533333334 -0.139711425
5871148 0.27277259066666665 -0.14713038
5881152 0.269830674 -0.15450444333333332
5891156 0.26673030866666664 -0.16189401866666667
5901160 0.2635629176666667 -0.16934224466666667
5911164 0.2601836126666666 -0.17674138666666664
5921168 0.2567034066666667 -0.18416439466666668
5931172 0.2530560593333333 -0.19160424166666665
5941176 0.249258414 -0.199034512
5951180 0.24532298733333333 -0.20648116866666666
5961184 0.24113999333333333 -0.21393062200000001
5971188 0.2368549653333333 -0.22138165933333334
5981192 0.23238179066666667 -0.22887770799999999
5991196 0.22769572833333332 -0.236309722
6001200 0.22286131966666667 -0.24378650366666665
6011204 0.21778766800000002 -0.25130724899999995
6021208 0.21250393966666667 -0.258789162
6031212 0.20699304833333332 -0.2662648856666667
6041216 0.2014508296666667 -0.273836126
6051220 0.195503349 -0.2813435593333333
6061224 0.1893845203333333 -0.28890063366666663
6071228 0.18296996233333332 -0.29636353233333335
6081232 0.17628669733333333 -0.3038189806666667
6091236 0.16940152633333336 -0.3113675913333333
6101240 0.162168145 -0.3188522956666667
6111244 0.15471057066666669 -0.3262540796666667
6121248 0.14690937099999998 -0.333709389
6131252 0.13872983066666666 -0.34109441433333326
6141256 0.13035026166666666 -0.34852210666666666
6151260 0.12162243833333335 -0.3557779589999999
6161264 0.11242000733333335 -0.36303104966666666
6171268 0.102931174 -0.37033986066666663
6181272 0.093065428 -0.3774732846666667
6191276 0.08278267333333333 -0.3845128713333333
6201280 0.07208437000000001 -0.39145195466666666
6211284 0.060929566666666664 -0.39831318433333335
6221288 0.049382230666666665 -0.4050102633333334
6231292 0.03723300133333333 -0.41148218500000006
6241296 0.024620613333333336 -0.41789369800000004
6251300 0.011578933 -0.42411974066666663
6261304 -0.002015323333333333 -0.43000306699999996
6271308 -0.016192641 -0.43567908799999994
6281312 -0.030966224333333334 -0.44107899033333337
6291316 -0.04626453666666666 -0.4461213453333333
6301320 -0.062209318333333326 -0.4507975976666667
6311324 -0.07880524033333335 -0.4551310536666667
6321328 -0.09595824000000001 -0.45885834066666664
6331332 -0.11375756533333332 -0.462119212
6341336 -0.13231405599999999 -0.4647835196666667
6351340 -0.15152796633333335 -0.46675203233333334
6361344 -0.17132052766666664 -0.4680905143333334
6371348 -0.1918164343333333 -0.46865503999999997
6381352 -0.213015447 -0.46829762033333333
6391356 -0.23480906600000004 -0.46709465
6401360 -0.25716549166666663 -0.46475348866666666
6411364 -0.280228635 -0.4611988466666667
6421368 -0.30380264900000004 -0.456446012
6431372 -0.3278475006666667 -0.450525562
6441376 -0.35230796500000006 -0.442962865
6451380 -0.377199153 -0.433909863
6461384 -0.4022828143333333 -0.42318021266666667
6471388 -0.4274568756666666 -0.41078467199999996
6481392 -0.4527231653333334 -0.396569888
6491396 -0.477659911 -0.38021379699999996
6501400 -0.5024949710000001 -0.3620289566666666
6511404 -0.5266406933333333 -0.34176563233333335
6521408 -0.5500783126666666 -0.3192688623333333
6531412 -0.572814107 -0.29479741066666665
6541416 -0.594160517 -0.2682573793333333
6551420 -0.6137891016666667 -0.239468351
6561424 -0.6321223176666667 -0.20874304600000002
6571428 -0.6481943923333334 -0.17619054499999998
6581432 -0.6623018580000001 -0.14199914033333333
6591436 -0.6738976640000001 -0.10618774333333332
6601440 -0.6827674306666666 -0.06907473766666666
6611444 -0.6890585223333333 -0.031096955666666665
6621448 -0.6921482883333333 0.007698875333333333
6631452 -0.6922419863333333 0.04700324066666667
6641456 -0.6895286239999999 0.08633034666666667
6651460 -0.683397432 0.125237033
6661464 -0.6742190716666667 0.16335605566666667
6671468 -0.6621815363333333 0.200696523
6681472 -0.6474149426666668 0.23668955266666666
6691476 -0.6299706696666667 0.2710250516666666
6701480 -0.6101446153333333 0.3038082916666667
6711484 -0.5880529883333333 0.33440600833333334
6721488 -0.564302683 0.36308264733333334
6731492 -0.5386861366666666 0.38915068900000005
6741496 -0.511846006 0.41295657566666666
6751500 -0.48408605666666665 0.43453471866666665
6761504 -0.4555738966666667 0.45343097066666666
6771508 -0.4264284573333333 0.46971065800000006
6781512 -0.3970199623333333 0.48397767566666666
6791516 -0.36761630566666664 0.49599437900000004
6801520 -0.3383678696666667 0.505792876
6811524 -0.309280038 0.5135019223333334
6821528 -0.28071566466666664 0.519327263
6831532 -0.25272971400000005 0.5234173136666667
6841536 -0.22544305033333334 0.5257093509999999
6851540 -0.198767031 0.526590208
6861544 -0.17302626866666668 0.5261714456666667
6871548 -0.14823093499999998 0.5243633586666667
6881552 -0.124180399 0.5214055379999999
6891556 -0.10100748633333334 0.5175703963333333
6901560 -0.07894588033333333 0.512692511
6911564 -0.05772989966666666 0.5070186853333333
6921568 -0.03737915566666667 0.5006963213333333
6931572 -0.017982463 0.4937359686666667
6941576 0.000475933 0.48624201633333336
6951580 0.018091530666666664 0.4782144923333333
6961584 0.03497258566666667 0.4697759053333333
6971588 0.05089876166666666 0.4610405663333333
6981592 0.06596009666666668 0.45192756233333337
6991596 0.08041881266666666 0.44256573899999996
7001600 0.09412088733333333 0.4331158003333333
7011604 0.10709262633333333 0.4234802326666667
7021608 0.119394407 0.4136677386666667
7031612 0.13104133833333334 0.40372446166666665
7041616 0.14197593433333333 0.39359873500000003
7051620 0.15251562 0.38376535
7061624 0.16238500666666666 0.373615384
7071628 0.17176231733333336 0.363514682
7081632 0.1806407423333333 0.353497545
7091636 0.18897224966666668 0.343412459
7101640 0.19691964966666667 0.33339185533333326
7111644 0.20440260066666668 0.3234076003333333
7121648 0.21146970966666667 0.3134907883333333
7131652 0.21811296533333333 0.30360846700000005
7141656 0.224403421 0.29373065633333334
7151660 0.23038832833333334 0.2839951516666667
7161664 0.236023287 0.27440021433333334
7171668 0.24117902400000002 0.264727831
7181672 0.24621943599999999 0.25518261400000003
7191676 0.250872602 0.24574236100000002
7201680 0.2552084723333333 0.23638911533333337
7211684 0.25933737566666665 0.2270743696666667
7221688 0.263168027 0.21784401966666667
7231692 0.26674384866666667 0.2086767903333333
7241696 0.27008541433333333 0.199669396
7251700 0.2732506793333333 0.19065854466666668
7261704 0.2762184936666667 0.18180242166666669
7271708 0.27893307800000006 0.17297767100000003
7281712 0.2814638913333333 0.16423565133333332
7291716 0.28380147633333336 0.155551111
7301720 0.28593830266666664 0.14695323999999998
7311724 0.28791182233333334 0.1384593696666667
7321728 0.28964075466666667 0.12998154233333334
7331732 0.29129890599999997 0.12155742666666665
7341736 0.29271697 0.11323299499999999
7351740 0.29400735100000003 0.10498633966666666
7361744 0.29518106600000005 0.09678923366666668
7371748 0.29615636666666667 0.08864397266666667
7381752 0.296993762 0.080563563
7391756 0.2977548043333333 0.07253889233333333
7401760 0.29831168033333333 0.06456478933333333
7411764 0.298726708 0.05665689833333334
