# HZ S RI R 50
21007200 0.008211214 0.66305387
21017204 0.021280747 0.6606429020000001
21027208 0.03424725533333334 0.6581734613333334
21037212 0.046175722 0.655908783
21047216 0.059038686 0.6524507203333333
21057220 0.07184292866666668 0.6491172313333333
21067224 0.08349154366666667 0.6461689473333333
21077228 0.09625267733333333 0.6418413126666668
21087232 0.10856091966666666 0.6377521753333334
21097236 0.12027074633333333 0.63368092
21107240 0.132593632 0.6287532646666666
21117244 0.144601042 0.6237432556666667
21127248 0.15595325333333335 0.6189010143333333
21137252 0.167640264 0.613449514
21147256 0.17926185833333333 0.6077554030000001
21157260 0.1903101753333333 0.6018790799999999
21167264 0.20148192833333334 0.595472455
21177268 0.21252943566666668 0.5890718696666667
21187272 0.223036875 0.5821935933333333
21197276 0.23371162533333334 0.5753114026666667
21207280 0.2441236623333333 0.5679739713333333
21217284 0.25426892433333337 0.561177492
21227288 0.26449166733333335 0.5532408556666667
21237292 0.274214059 0.5447700423333334
21247296 0.28395586199999995 0.5371316469999999
21257300 0.29306778299999997 0.5284324883333333
21267304 0.3022999566666667 0.5195401113333333
21277308 0.31129138666666667 0.5111629763333333
21287312 0.3198820253333334 0.5019209783333333
21297316 0.32841846366666666 0.4930661223333333
21307320 0.336427957 0.4838977156666666
21317324 0.34417307366666666 0.4738324183333333
21327328 0.35197659333333337 0.46436327699999996
21337332 0.3591466346666667 0.45481121566666666
21347336 0.36630195400000004 0.4443204303333333
21357340 0.37306437899999995 0.4340212743333334
21367344 0.3794166843333333 0.4240125813333333
21377348 0.38557499666666667 0.4130483466666666
21387352 0.39093970233333336 0.402205646
21397356 0.39676931499999996 0.3917467396666667
21407360 0.4021709363333334 0.381340504
21417364 0.40646061333333333 0.3698027533333333
21427368 0.4108990826666667 0.3586824136666667
21437372 0.41547689799999993 0.3480855523333333
21447376 0.41851278166666667 0.3364177543333334
