# HZ S RI R 50
3000000 -0.02619436433333333 0.8981998959999999
3010004 -0.009301634333333334 0.8980426393333333
3020008 0.007282111000000001 0.8982313473333333
3030012 0.023586149666666667 0.8977428276666667
3040016 0.03996372866666666 0.8973772126666667
3050020 0.056404231666666665 0.8965509533333332
3060024 0.07275994366666666 0.8953679003333334
3070028 0.08893278999999998 0.8939916493333332
3080032 0.10519421333333334 0.8921963373333334
3090036 0.12135831033333333 0.8903391163333333
3100040 0.137378226 0.888184746
3110044 0.1534567973333333 0.8853325046666667
3120048 0.169660583 0.8823598423333333
3130052 0.18558739633333332 0.8791893323333332
3140056 0.20135857666666665 0.8758486113333332
3150060 0.21700090666666663 0.8723837336666665
3160064 0.23284020033333333 0.8683190546666667
3170068 0.24849720333333333 0.8642380040000001
3180072 0.2639999886666667 0.8597946366666666
3190076 0.2793189586666667 0.8546479146666667
3200080 0.2948067783333333 0.849681596
3210084 0.3099708159999999 0.8446308373333333
3220088 0.325182547 0.8391411303333335
3230092 0.34002731233333333 0.8331023653333333
3240096 0.35484572266666664 0.827020943
3250100 0.3697199723333333 0.8206307493333335
3260104 0.3842297893333333 0.8139647843333333
3270108 0.3987574376666667 0.8070548773333334
3280112 0.4132222333333333 0.7999735076666666
3290116 0.42755844200000004 0.792731802
3300120 0.44154667866666664 0.7850687306666667
3310124 0.4555004536666667 0.7773660619999999
3320128 0.4693789976666667 0.7691791853333333
3330132 0.4831182356666666 0.7608059843333335
3340136 0.4965193866666667 0.752259493
3350140 0.5097526113333334 0.7433571419999999
3360144 0.5229731203333333 0.7342648306666666
3370148 0.5357603430000001 0.7251011133333334
3380152 0.548528095 0.7157078383333334
3390156 0.5613445243333334 0.7060462633333332
3400160 0.5738381943333334 0.696166019
3410164 0.5861694016666666 0.6862515806666667
3420168 0.5981189806666666 0.675935924
3430172 0.610322237 0.6653476953333334
3440176 0.6220165093333333 0.6546936433333334
3450180 0.633333584 0.6437140903333333
3460184 0.6446584263333333 0.6325923403333333
3470188 0.6559315123333334 0.6213191746666666
3480192 0.6668254536666667 0.6101448733333333
3490196 0.6774293583333334 0.5983859103333333
3500200 0.6879298686666666 0.58639727
3510204 0.6982994673333334 0.5744943816666667
3520208 0.7083643873333333 0.5623861156666666
3530212 0.7181750736666667 0.5499703883333332
3540216 0.7280247406666667 0.5374760826666667
3550220 0.7375340856666667 0.524845779
3560224 0.746495684 0.5120639800000001
3570228 0.7551657356666667 0.49912471566666666
3580232 0.764046848 0.4859160583333333
3590236 0.7726808186666666 0.4727372726666666
3600240 0.78093946 0.45948895799999995
3610244 0.7888046306666666 0.44580911566666664
3620248 0.796587606 0.43209422633333333
3630252 0.8041151763333333 0.418340832
3640256 0.8113965790000001 0.40454754233333334
3650260 0.8184511663333334 0.3902886806666667
3660264 0.825383226 0.376183212
3670268 0.8318392036666666 0.36194689099999994
3680272 0.83798333 0.34761397033333336
3690276 0.8441002170000002 0.3331041536666667
3700280 0.849926134 0.318641325
3710284 0.8553374013333334 0.30405860166666665
3720288 0.8605535623333335 0.289303134
3730292 0.8656484086666666 0.274451941
3740296 0.870458722 0.25973701466666665
3750300 0.8750577766666666 0.2447698663333333
3760304 0.8791652719999999 0.22953622033333332
3770308 0.8831990559999999 0.214474827
3780312 0.8868706026666667 0.19943505533333336
3790316 0.8902535636666666 0.1842437583333333
3800320 0.8934707840000001 0.16893587033333332
3810324 0.896464606 0.15365583166666666
3820328 0.8991175490000001 0.138328612
3830332 0.901573618 0.12287889933333333
3840336 0.903850297 0.10749728966666666
3850340 0.9056493243333333 0.09206912166666666
3860344 0.9071643749999999 0.07660714566666667
3870348 0.9085573156666666 0.06105962766666667
3880352 0.909728726 0.045432703
3890356 0.9105068446666666 0.029981068333333333
3900360 0.9110566576666667 0.014461290000000002
3910364 0.9111329516666666 -0.001099336
3920368 0.9111428263333333 -0.016564441333333332
3930372 0.9109878143333333 -0.032090818
3940376 0.9101530113333333 -0.047670561666666667
3950380 0.9094946583333333 -0.06318303666666668
3960384 0.9084949889999999 -0.07859269533333334
3970388 0.907021483 -0.09387337166666666
3980392 0.9054002763333333 -0.10946062233333333
3990396 0.9037381213333333 -0.12507562800000002
4000400 0.9013324580000001 -0.14027338233333334
4010404 0.8989085156666666 -0.15554903966666667
4020408 0.8964523276666667 -0.17082647966666667
4030412 0.8934949236666667 -0.18616736433333334
4040416 0.890479803 -0.201288129
4050420 0.887008965 -0.21633867933333337
4060424 0.883212368 -0.23142786833333331
4070428 0.8793201446666666 -0.2464634973333333
4080432 0.8751811586666666 -0.26126683733333333
4090436 0.8705954356666666 -0.2760563793333333
4100440 0.8658191563333334 -0.2908744913333333
4110444 0.8608545063333333 -0.30551733566666667
4120448 0.8556563059999999 -0.31990839066666665
4130452 0.8502105476666667 -0.3343272606666667
4140456 0.8442860243333333 -0.348685841
4150460 0.8381659786666668 -0.36303771533333334
4160464 0.8320744833333333 -0.3770213823333333
4170468 0.825505952 -0.3908983963333334
4180472 0.8190178870000001 -0.40500681566666663
4190476 0.812223355 -0.4191376666666667
4200480 0.8050146106666666 -0.43276396433333336
4210484 0.797563235 -0.44612824900000003
4220488 0.7898618976666666 -0.4595238466666667
4230492 0.7820104953333334 -0.472862174
4240496 0.7740023533333332 -0.4860785106666667
4250500 0.7656517623333333 -0.49901961300000003
4260504 0.7570492426666666 -0.511764149
4270508 0.748333891 -0.5244081816666667
4280512 0.7394433619999999 -0.5369891326666666
4290516 0.7302689156666666 -0.5496420063333333
4300520 0.720798373 -0.5616846283333333
4310524 0.7111264866666667 -0.573733707
4320528 0.7012210286666667 -0.5855860509999999
4330532 0.6913579106666666 -0.5974542896666667
4340536 0.681118985 -0.6091014943333334
4350540 0.6706292829999999 -0.620364209
4360544 0.6602081656666666 -0.631678323
4370548 0.6493824126666667 -0.6426409286666667
4380552 0.638204813 -0.6533495783333333
4390556 0.6272750699999999 -0.6639634369999999
4400560 0.61593467 -0.6745198173333332
4410564 0.6044128736666666 -0.6848803760000001
4420568 0.5926361083333332 -0.6949868003333334
4430572 0.5807744463333333 -0.7048121689999999
4440576 0.5687516730000001 -0.7142958243333334
4450580 0.556513985 -0.7238891523333333
4460584 0.5443265243333333 -0.733261486
4470588 0.5317655800000001 -0.7420099179999999
4480592 0.518927733 -0.7508114773333334
4490596 0.506190022 -0.7593948043333333
4500600 0.49322910133333336 -0.7676530083333333
4510604 0.47964020566666665 -0.7761020856666666
4520608 0.46589455 -0.7842863200000001
4530612 0.45186646766666666 -0.7923373583333334
4540616 0.437899113 -0.8000678023333333
4550620 0.42369625000000005 -0.807406644
4560624 0.4093147816666667 -0.8146139583333333
4570628 0.39500430233333333 -0.8215089839999999
4580632 0.38039042566666664 -0.8280889989999999
4590636 0.36576522433333336 -0.8345735473333334
4600640 0.3509521883333333 -0.8407527606666667
4610644 0.336007277 -0.8465159136666666
4620648 0.32098404566666666 -0.8520804246666667
4630652 0.30586069833333335 -0.8574346899999999
4640656 0.29077964033333337 -0.862534265
4650660 0.27550004899999997 -0.8672926423333333
4660664 0.26017847666666666 -0.8716362316666667
4670668 0.24461572366666665 -0.8759426870000001
4680672 0.22916536533333332 -0.8800513943333333
4690676 0.213647306 -0.8836419383333333
4700680 0.19810493766666668 -0.8870357476666667
4710684 0.18238614966666666 -0.8901532093333332
4720688 0.16655132166666667 -0.893065691
4730692 0.150811841 -0.8956343133333333
4740696 0.135032142 -0.8978573879999999
4750700 0.11914080133333334 -0.899830977
4760704 0.10323014600000001 -0.901511073
4770708 0.08733904866666668 -0.9028579986666667
4780712 0.07127642133333334 -0.904073576
4790716 0.055414195 -0.9049695926666667
4800720 0.03953616466666666 -0.905484875
4810724 0.02347301066666667 -0.9056539933333333
4820728 0.007483194000000001 -0.9056675036666667
4830732 -0.008501350666666666 -0.905371487
4840736 -0.024544457000000002 -0.9048442643333333
4850740 -0.04043460633333333 -0.9039443930000001
4860744 -0.05637462433333334 -0.9027758440000001
4870748 -0.07224403833333333 -0.901372671
4880752 -0.088192654 -0.899480065
4890756 -0.104092501 -0.8974546593333333
4900760 -0.11988807233333333 -0.895210564
4910764 -0.13551094100000002 -0.8926595646666667
4920768 -0.151225393 -0.8896033963333333
4930772 -0.16702669366666667 -0.886435032
4940776 -0.18269178733333333 -0.8832372230000001
4950780 -0.19811702266666664 -0.8794960976666667
4960784 -0.213573838 -0.8754196759999999
4970788 -0.22905360166666666 -0.8712542653333332
4980792 -0.24429848766666665 -0.8666018446666666
4990796 -0.25944096833333335 -0.8616841833333333
5000800 -0.27471472799999996 -0.8565844496666667
5010804 -0.28966867933333335 -0.8512305816666667
5020808 -0.30480203 -0.8459071716666666
5030812 -0.3194520573333333 -0.8397377333333332
5040816 -0.33416792766666664 -0.8334632316666667
5050820 -0.3487675386666667 -0.8271974526666668
5060824 -0.3632350066666667 -0.8202304840000001
5070828 -0.377726237 -0.813438316
5080832 -0.39194792533333334 -0.8063276806666666
5090836 -0.4060019156666666 -0.7986561853333334
5100840 -0.4200267096666666 -0.7909299333333334
5110844 -0.433824559 -0.7829662163333334
5120848 -0.4474608996666667 -0.7746701636666667
5130852 -0.46097453466666666 -0.7661667663333334
5140856 -0.4744163753333333 -0.7574151953333333
5150860 -0.48767096800000004 -0.748548031
5160864 -0.5007148186666667 -0.7393617033333332
5170868 -0.5135564206666666 -0.7298326890000001
5180872 -0.5262200040000001 -0.7201715110000001
5190876 -0.538832903 -0.710319499
5200880 -0.5511726140000001 -0.7002601426666667
5210884 -0.5631848373333334 -0.6898120043333332
5220888 -0.5752781033333333 -0.6792959569999999
5230892 -0.587039451 -0.668445309
5240896 -0.5986022753333333 -0.657459398
5250900 -0.6099926433333334 -0.6462092403333334
5260904 -0.6211693286666667 -0.6348366339999999
5270908 -0.6321578423333333 -0.6232057213333334
5280912 -0.642994523 -0.6113975843333334
5290916 -0.6535428763333333 -0.599394103
5300920 -0.6638575396666667 -0.5872028073333334
5310924 -0.6739209493333332 -0.5748702286666667
5320928 -0.6838124789999999 -0.562360088
5330932 -0.693591853 -0.5496790213333334
5340936 -0.7030529773333334 -0.5367049970000001
5350940 -0.7121862769999999 -0.523547431
5360944 -0.7211005486666666 -0.5103869240000001
5370948 -0.7298176486666667 -0.49692153933333333
5380952 -0.7382482293333333 -0.483305931
5390956 -0.7464868626666666 -0.4695409736666667
5400960 -0.7543911336666667 -0.45570452033333336
5410964 -0.7621448436666668 -0.4417191346666667
5420968 -0.769658963 -0.427486877
5430972 -0.7767806646666667 -0.4131569963333333
5440976 -0.7837509713333334 -0.39886867
5450980 -0.790318648 -0.38423680266666665
5460984 -0.7968714636666667 -0.3694884776666667
5470988 -0.8030442399999999 -0.3547680676666667
5480992 -0.8089807430000001 -0.33980137133333327
5490996 -0.8144753180000001 -0.32476748033333336
5501000 -0.8198296226666667 -0.30959974733333334
5511004 -0.8248627183333334 -0.29442012300000003
5521008 -0.8295565643333335 -0.2790318326666666
5531012 -0.8342640996666667 -0.26368880266666667
5541016 -0.8384342786666666 -0.24826987566666667
5551020 -0.8422775466666667 -0.232635821
5561024 -0.8458489973333334 -0.21704979733333332
5571028 -0.849326074 -0.20132540166666665
5581032 -0.8524067799999999 -0.185653463
5591036 -0.854997297 -0.16979307933333335
5601040 -0.8575741053333333 -0.153862084
5611044 -0.859809796 -0.13797990966666665
5621048 -0.8616972563333333 -0.12203048433333334
5631052 -0.8631736440000001 -0.10591882233333333
5641056 -0.864623467 -0.08989759033333333
5651060 -0.8657007416666667 -0.07382285333333334
5661064 -0.86630855 -0.05783301333333333
5671068 -0.866776844 -0.04161212833333334
5681072 -0.8669383723333333 -0.025483061
5691076 -0.8667877913333334 -0.009399277333333332
5701080 -0.8661963543333333 0.006689561666666667
5711084 -0.8654901783333333 0.022858139
5721088 -0.8644114336666666 0.03899300733333333
5731092 -0.863112529 0.055047775
5741096 -0.8613877296666667 0.071133497
5751100 -0.8594047826666666 0.087123727
5761104 -0.8571979203333333 0.10312924066666668
5771108 -0.8546112976666667 0.11909433933333331
5781112 -0.8515853286666667 0.13506848633333332
5791116 -0.848548631 0.15097496433333332
5801120 -0.8450627523333334 0.16669446733333335
5811124 -0.8412903943333333 0.18248377733333332
5821128 -0.8371959926666667 0.19815491133333332
5831132 -0.8328714766666666 0.21386594066666667
5841136 -0.8282660046666667 0.22937677300000003
5851140 -0.8232868510000001 0.2448049286666667
5861144 -0.818003138 0.260229379
5871148 -0.8125659230000001 0.2755176326666667
5881152 -0.806759914 0.2907243373333333
5891156 -0.8006018200000001 0.30582897866666664
5901160 -0.7942714493333334 0.320776671
5911164 -0.7875643373333333 0.33570381000000005
5921168 -0.7806223433333334 0.35043275366666665
5931172 -0.773334563 0.36509113499999996
5941176 -0.7658461929999999 0.3796013493333334
5951180 -0.7580980460000001 0.3939309616666667
5961184 -0.7499597269999999 0.4080757003333333
5971188 -0.7416360379999999 0.4223122796666667
5981192 -0.733092487 0.436180413
5991196 -0.7241287230000001 0.449928115
6001200 -0.7149029176666666 0.46359304566666665
6011204 -0.7054610450000002 0.4769375126666667
6021208 -0.6957652963333333 0.490203778
6031212 -0.685388247 0.503220737
6041216 -0.6757597726666668 0.516411046
6051220 -0.6652761896666667 0.5290758806666667
6061224 -0.6545539896666667 0.5417244036666666
6071228 -0.643613001 0.5540842810000001
6081232 -0.6324403086666667 0.566231807
6091236 -0.620949447 0.5781729023333333
6101240 -0.6092365583333333 0.5899314680000001
6111244 -0.5971906583333334 0.6014209389999999
6121248 -0.5849689243333334 0.6125639476666667
6131252 -0.5726343393333333 0.6237754423333334
6141256 -0.5600164333333333 0.6344731053333333
6151260 -0.5471194186666666 0.6451818546666667
6161264 -0.5339669983333334 0.6554003753333334
6171268 -0.5206848976666667 0.6656049886666667
6181272 -0.5072478650000001 0.6756061516666666
6191276 -0.493412167 0.685061594
6201280 -0.4794807136666666 0.694405337
6211284 -0.4653333126666666 0.7035635513333333
6221288 -0.45101686333333335 0.7123019296666667
6231292 -0.4365558923333333 0.7209549943333333
6241296 -0.42172599800000005 0.7290917833333334
6251300 -0.40686012299999996 0.7370313603333334
6261304 -0.39173482833333334 0.7448493243333334
6271308 -0.3764639793333333 0.7521785496666666
6281312 -0.36114641 0.7593481936666665
6291316 -0.345396171 0.7660737433333332
6301320 -0.3296063143333334 0.7725659606666667
6311324 -0.313623478 0.7787599563333333
6321328 -0.29767445733333336 0.7846048873333333
6331332 -0.28138992166666665 0.7900484603333333
6341336 -0.265024801 0.7953613203333334
6351340 -0.24844981233333333 0.8001982173333334
6361344 -0.231784503 0.804780384
6371348 -0.215019743 0.8089971543333334
6381352 -0.19823400700000002 0.8129538096666667
6391356 -0.18113789966666669 0.8164523043333333
6401360 -0.164025297 0.8195526003333334
6411364 -0.14685820000000002 0.8223588863333333
6421368 -0.12948140533333333 0.8250016569999999
6431372 -0.11207468300000001 0.8270262873333333
6441376 -0.09451924 0.828812679
6451380 -0.07681840899999999 0.8303001723333333
6461384 -0.05919624766666667 0.8312277393333334
6471388 -0.04143720733333333 0.831737399
6481392 -0.023610191333333336 0.8319964206666667
6491396 -0.005657617333333333 0.8320227063333334
6501400 0.012359488 0.8314597206666666
6511404 0.030455695333333328 0.8306295873333333
6521408 0.048424624 0.8291906516666666
6531412 0.06650347533333333 0.8274863563333335
6541416 0.08461089933333334 0.8251752853333333
6551420 0.102914341 0.8225548066666667
6561424 0.120996058 0.8193894426666667
6571428 0.1391918063333333 0.8160942793333333
6581432 0.157380233 0.8121712406666667
6591436 0.17549339933333333 0.8076080283333334
6601440 0.19368699666666667 0.802957992
6611444 0.211886103 0.7977068226666666
6621448 0.230041062 0.7918917140000001
6631452 0.24803815799999998 0.785685579
6641456 0.26605359733333334 0.7789377966666667
6651460 0.28398635 0.7715084946666667
6661464 0.301977227 0.7638566493333333
6671468 0.31979482366666667 0.7555223903333332
6681472 0.3372784153333333 0.7466992336666666
6691476 0.35491847000000004 0.7373430926666668
6701480 0.3724621733333333 0.7274818820000001
6711484 0.3896908563333334 0.7171392839999999
6721488 0.4068828326666667 0.7060068246666665
6731492 0.42384873833333336 0.6944587630000001
6741496 0.44071251166666664 0.6823878686666666
6751500 0.4571947653333333 0.6695460476666666
6761504 0.4736109476666666 0.656167726
6771508 0.48979420466666673 0.6420951686666667
6781512 0.5056103466666667 0.6275236209999999
6791516 0.5211030843333333 0.6121752659999999
6801520 0.536261956 0.5960518716666666
6811524 0.5512422326666667 0.5792994496666667
6821528 0.5657127103333334 0.5620268780000001
6831532 0.579835117 0.5438281096666666
6841536 0.5934699376666667 0.5248253346666667
6851540 0.6066941023333334 0.5051453113333334
6861544 0.6190959613333334 0.48459146433333333
6871548 0.6311303176666667 0.46329580733333336
6881552 0.6424338616666667 0.44109929600000003
6891556 0.6529113253333333 0.4181009433333333
6901560 0.6625508866666666 0.39436647300000005
6911564 0.6715052326666667 0.36936127133333335
6921568 0.6793869533333333 0.34359048799999997
6931572 0.6862965823333335 0.3170840543333333
6941576 0.6917881566666667 0.2894100446666667
6951580 0.696329355 0.26090948766666666
6961584 0.6991357803333335 0.231459275
6971588 0.7005167006666667 0.20091036466666667
6981592 0.6999789673333333 0.16955337933333334
6991596 0.6974196036666668 0.13748316933333335
7001600 0.6926044223333333 0.10459181433333332
7011604 0.6856639386666666 0.07082943633333333
7021608 0.6756338876666668 0.036945382666666665
7031612 0.6626674533333333 0.00232401
7041616 0.6470569573333333 -0.03318659833333334
7051620 0.6276944676666667 -0.06729767433333333
7061624 0.603923023 -0.10141326966666668
7071628 0.5766445596666667 -0.1344876833333333
7081632 0.5447749296666666 -0.16553209733333332
7091636 0.5082096453333333 -0.19516932933333334
7101640 0.4672130446666667 -0.22126055266666667
7111644 0.42211127300000006 -0.24300163
7121648 0.37179224699999996 -0.2606649893333333
7131652 0.317887137 -0.27213676766666667
7141656 0.26194496933333333 -0.27596530333333336
7151660 0.20277339233333333 -0.272470395
7161664 0.142336791 -0.26005697266666666
7171668 0.08444698899999999 -0.23812484733333336
7181672 0.028544575333333336 -0.20677277433333333
7191676 -0.023528842333333338 -0.16634399700000002
7201680 -0.06745311633333334 -0.11812746766666667
7211684 -0.10411101066666667 -0.06262748066666667
7221688 -0.13158171866666665 -0.0014047570000000002
7231692 -0.148092394 0.06181251033333333
7241696 -0.15469491966666668 0.12647726133333334
7251700 -0.15125592033333332 0.19085104266666666
7261704 -0.13787419133333334 0.251716544
7271708 -0.11684446066666666 0.3081745603333333
7281712 -0.08838564933333333 0.35972151133333335
7291716 -0.054677472666666664 0.4053125083333333
7301720 -0.01661299266666667 0.445359399
7311724 0.024327686 0.4775091013333333
7321728 0.066477937 0.5041291513333334
7331732 0.11077759666666666 0.5254967213333334
7341736 0.15430357566666666 0.5403612653333333
7351740 0.1972667823333333 0.5514448286666667
7361744 0.23982796566666667 0.5573681793333334
7371748 0.280701836 0.5595173833333332
7381752 0.32019394633333337 0.5583171843333333
7391756 0.3581661383333334 0.5538211663333333
7401760 0.39408098633333327 0.546924412
7411764 0.4282009903333333 0.5378060143333333
7421768 0.46051534999999993 0.5263843533333333
7431772 0.491119544 0.5135976673333333
7441776 0.5198075573333333 0.49922928199999994
7451780 0.5467509229999999 0.4836768806666667
7461784 0.572325627 0.4670417306666667
7471788 0.5957241456666668 0.4497443136666666
