# HZ S RI R 50
14004400 0.42008564866666664 0.260599335
14014404 0.41704269266666666 0.23795882366666668
14024408 0.411954999 0.215528786
14034412 0.4053836863333333 0.19305555
14044416 0.396980077 0.171188727
14054420 0.3864186406666666 0.14997023333333334
14064424 0.374535938 0.12926358000000002
14074428 0.36063554866666664 0.109950418
14084432 0.34501439333333334 0.09148492433333333
14094436 0.3276061416666667 0.07450137533333334
14104440 0.30796453366666665 0.05920943133333334
14114444 0.28561663666666665 0.04424553366666667
14124448 0.2634978986666667 0.033228157333333334
14134452 0.24013678733333332 0.02427969066666667
14144456 0.21586679933333333 0.017602478
14154460 0.191000308 0.014202879666666668
14164464 0.16577737533333334 0.013090291666666665
14174468 0.14046695833333334 0.014818543333333331
14184472 0.11564597733333333 0.019730157666666668
14194476 0.09096120533333334 0.027180521
14204480 0.06794997533333334 0.03756855666666667
14214484 0.04607499266666667 0.050695752000000004
14224488 0.025488846333333332 0.066280981
14234492 0.00748204 0.08399898299999999
14244496 -0.008668356666666667 0.10451834666666666
14254500 -0.02209143 0.12563312066666668
14264504 -0.032878513 0.14833174666666668
14274508 -0.041018138333333336 0.17243234300000002
14284512 -0.04659685733333333 0.197336783
14294516 -0.04890638966666666 0.22184222433333334
14304520 -0.04893989266666667 0.24710181833333333
14314524 -0.045835772 0.27176535133333335
14324528 -0.040498741000000005 0.29565341266666667
14334532 -0.03272028266666666 0.31918003133333334
14344536 -0.022683632 0.340947648
