# HZ S RI R 50
3500200 0.6879298686666666 0.58639727
3510204 0.6982994673333334 0.5744943816666667
3520208 0.7083643873333333 0.5623861156666666
3530212 0.7181750736666667 0.5499703883333332
3540216 0.7280247406666667 0.5374760826666667
3550220 0.7375340856666667 0.524845779
3560224 0.746495684 0.5120639800000001
3570228 0.7551657356666667 0.49912471566666666
3580232 0.764046848 0.4859160583333333
3590236 0.7726808186666666 0.4727372726666666
3600240 0.78093946 0.45948895799999995
3610244 0.7888046306666666 0.44580911566666664
3620248 0.796587606 0.43209422633333333
3630252 0.8041151763333333 0.418340832
3640256 0.8113965790000001 0.40454754233333334
3650260 0.8184511663333334 0.3902886806666667
3660264 0.825383226 0.376183212
3670268 0.8318392036666666 0.36194689099999994
3680272 0.83798333 0.34761397033333336
3690276 0.8441002170000002 0.3331041536666667
3700280 0.849926134 0.318641325
3710284 0.8553374013333334 0.30405860166666665
3720288 0.8605535623333335 0.289303134
3730292 0.8656484086666666 0.274451941
3740296 0.870458722 0.25973701466666665
3750300 0.8750577766666666 0.2447698663333333
3760304 0.8791652719999999 0.22953622033333332
3770308 0.8831990559999999 0.214474827
3780312 0.8868706026666667 0.19943505533333336
3790316 0.8902535636666666 0.1842437583333333
3800320 0.8934707840000001 0.16893587033333332
3810324 0.896464606 0.15365583166666666
3820328 0.8991175490000001 0.138328612
3830332 0.901573618 0.12287889933333333
3840336 0.903850297 0.10749728966666666
3850340 0.9056493243333333 0.09206912166666666
3860344 0.9071643749999999 0.07660714566666667
3870348 0.9085573156666666 0.06105962766666667
3880352 0.909728726 0.045432703
3890356 0.9105068446666666 0.029981068333333333
3900360 0.9110566576666667 0.014461290000000002
3910364 0.9111329516666666 -0.001099336
3920368 0.9111428263333333 -0.016564441333333332
3930372 0.9109878143333333 -0.032090818
3940376 0.9101530113333333 -0.047670561666666667
3950380 0.9094946583333333 -0.06318303666666668
3960384 0.9084949889999999 -0.07859269533333334
3970388 0.907021483 -0.09387337166666666
3980392 0.9054002763333333 -0.10946062233333333
3990396 0.9037381213333333 -0.12507562800000002
