# HZ S RI R 50
28010000 -0.7589078746666668 0.14297785833333332
28020004 -0.75801454 0.145495976
28030008 -0.7570004263333333 0.14811042433333335
28040012 -0.7560737726666668 0.15080227966666668
28050016 -0.7551789879999999 0.15343080933333333
28060020 -0.754001558 0.15591678533333334
28070024 -0.7531237006666666 0.15859895933333332
28080028 -0.7521031100000001 0.16121730233333334
28090032 -0.7509919206666668 0.1636866676666667
28100036 -0.7499675153333333 0.16638542733333334
28110040 -0.748915871 0.16897356500000002
28120044 -0.7479371033333333 0.17153793066666667
28130048 -0.7468800743333333 0.17429968699999998
28140052 -0.7458379663333333 0.17656285066666666
28150056 -0.7444857953333334 0.17895948400000003
28160060 -0.7434533436666667 0.18172201533333335
28170064 -0.7423750563333332 0.18428430466666668
28180068 -0.7411652206666667 0.18687252233333332
28190072 -0.7398904759999999 0.18937767066666666
28200076 -0.7385908166666667 0.19185265399999998
28210080 -0.7376050153333334 0.194556574
28220084 -0.7362413803333334 0.19708507766666664
28230088 -0.7350920040000001 0.19970467166666664
28240092 -0.7339665096666668 0.20232655633333332
28250096 -0.7326926393333334 0.20483295133333335
28260100 -0.731306672 0.20728562799999997
28270104 -0.7297326126666667 0.21005513266666664
28280108 -0.7283952433333333 0.21258009466666664
28290112 -0.7275832293333334 0.21492697800000002
28300116 -0.726310432 0.21740647133333332
28310120 -0.7249252003333334 0.2199659496666667
28320124 -0.7237486240000001 0.22259142
28330128 -0.7224800983333334 0.225133603
28340132 -0.7211146356666668 0.22759304966666669
28350136 -0.7197421589999999 0.23018886166666666
28360140 -0.71857514 0.23272345966666666
28370144 -0.717192749 0.23521056766666668
28380148 -0.715867261 0.23777474966666667
28390152 -0.7145845890000001 0.24037819100000002
28400156 -0.712861061 0.24279303833333335
28410160 -0.7116690076666666 0.245331506
28420164 -0.710401058 0.247911369
28430168 -0.7087553143333333 0.2501544903333333
28440172 -0.707389295 0.2528344393333333
28450176 -0.7059421936666667 0.2554163933333334
28460180 -0.7045480410000001 0.2577845656666667
28470184 -0.7031573253333333 0.260393838
28480188 -0.7016071676666668 0.2630045513333333
28490192 -0.7001632056666667 0.2655029096666666
28500196 -0.6986290416666666 0.26796264433333333
28510200 -0.6969060499999999 0.270449539
28520204 -0.6956169803333333 0.27289081633333334
28530208 -0.6941326456666665 0.2753127613333333
28540212 -0.6924477416666667 0.277826935
28550216 -0.6910262506666666 0.28041702500000004
28560220 -0.6895540356666667 0.28278178966666667
28570224 -0.6878202556666667 0.2853860756666667
28580228 -0.6863604786666667 0.287788133
28590232 -0.684869826 0.29026192433333337
28600236 -0.683162272 0.29280322799999997
28610240 -0.681544145 0.294997404
28620244 -0.6800457043333333 0.29769681866666664
28630248 -0.6783637403333334 0.3002167346666667
28640252 -0.6765966416666668 0.3026119173333333
28650256 -0.6746247213333333 0.30494711766666666
28660260 -0.6729461156666666 0.30729286866666666
28670264 -0.6713597973333333 0.30974767633333333
28680268 -0.6694981656666666 0.3120658796666667
28690272 -0.6678891776666668 0.3144560256666667
28700276 -0.6660817063333333 0.31676804
28710280 -0.6643716890000001 0.31923887133333334
28720284 -0.6626630623333333 0.321734806
28730288 -0.660992344 0.32407797366666663
28740292 -0.6590835253333333 0.326310585
28750296 -0.6571880776666666 0.3287543556666667
28760300 -0.6555040083333333 0.3311167856666667
28770304 -0.6537320416666667 0.3334922593333333
28780308 -0.6518094536666666 0.33587300800000003
28790312 -0.6500864823333333 0.33816540233333336
28800316 -0.6482106646666668 0.3404512006666667
28810320 -0.6463204026666666 0.3428139786666667
28820324 -0.6444593073333333 0.34525399399999995
28830328 -0.642600755 0.34758624433333335
28840332 -0.640695552 0.349874526
28850336 -0.6387681166666667 0.3522558013333333
28860340 -0.636849443 0.35453277833333335
28870344 -0.6349668503333333 0.35685515399999995
28880348 -0.6329802273333334 0.35922913733333334
28890352 -0.6312070886666666 0.3616026636666667
28900356 -0.629225552 0.3638379473333333
28910360 -0.627346158 0.3662487463333333
28920364 -0.6252859433333334 0.36852984599999994
28930368 -0.6235188643333333 0.3709184126666667
28940372 -0.621460557 0.37326470033333337
28950376 -0.6194776093333333 0.37548089
28960380 -0.617392222 0.3777134516666667
28970384 -0.615311086 0.37998074299999995
28980388 -0.6132764023333334 0.3824022013333333
28990392 -0.6113165416666667 0.384593924
29000396 -0.609227697 0.38680862366666674
29010400 -0.6071515479999999 0.38911384333333326
29020404 -0.6051309303333333 0.39140260200000004
29030408 -0.6029883423333334 0.3937449453333333
29040412 -0.6009511546666667 0.3959489463333333
29050416 -0.5987831156666666 0.3981038133333333
29060420 -0.5965916313333334 0.40039071433333334
29070424 -0.5946931443333333 0.402308355
29080428 -0.5926954946666666 0.4045532646666667
29090432 -0.5905131496666667 0.40678031233333334
29100436 -0.5882638889999999 0.40910422799999996
29110440 -0.5861296653333333 0.41130711633333333
29120444 -0.5839627186666667 0.4135986563333333
29130448 -0.5816449326666667 0.41554937733333336
29140452 -0.579585135 0.41766928633333333
29150456 -0.5773288806666667 0.41974397500000005
29160460 -0.5750065446666667 0.4220450519999999
29170464 -0.572894951 0.424296856
29180468 -0.5708586969999999 0.4266488353333333
29190472 -0.568142414 0.42855984966666666
29200476 -0.5660252766666667 0.43079652366666665
29210480 -0.5637551746666668 0.43271637933333335
29220484 -0.5613387426666666 0.434892257
29230488 -0.5592860380000001 0.4373238383333333
29240492 -0.5570390820000001 0.4395433663333333
29250496 -0.5543141366666666 0.441176663
29260500 -0.5521559319999999 0.4435903726666666
29270504 -0.5499873160000001 0.44565693533333334
29280508 -0.5475981433333333 0.447905014
29290512 -0.5451134443333333 0.4498229323333333
29300516 -0.5429674586666667 0.45186162
29310520 -0.5402236183333333 0.45401154
29320524 -0.5379540123333334 0.455625057
29330528 -0.5352947513333334 0.4579885203333333
29340532 -0.5328205423333333 0.4600080053333333
29350536 -0.5303020676666667 0.46192660933333335
29360540 -0.5279504456666667 0.46370242
29370544 -0.5253995856666666 0.46607750633333334
29380548 -0.5227754316666667 0.467823873
29390552 -0.5203695893333333 0.46957315
29400556 -0.517666499 0.4717348913333333
29410560 -0.515141686 0.473677655
29420564 -0.5127916533333333 0.4754655063333333
29430568 -0.5101908246666667 0.4773500663333334
29440572 -0.5074974296666667 0.47947595533333337
29450576 -0.5050459106666666 0.481263002
29460580 -0.5024959246666666 0.48309948066666664
29470584 -0.4998609423333333 0.4850264686666666
29480588 -0.49728710433333334 0.48701855566666663
29490592 -0.4946704706666667 0.4888495703333333
29500596 -0.49199902999999995 0.49065423
29510600 -0.48947146533333336 0.49260100733333334
29520604 -0.48649020966666673 0.49451081933333335
29530608 -0.48405500266666673 0.49623280766666666
29540612 -0.48128862199999994 0.4981339673333333
29550616 -0.478539874 0.49993757400000005
29560620 -0.4758594133333333 0.5019781786666667
29570624 -0.47320281500000005 0.5037390389999999
29580628 -0.4704765083333333 0.5055443443333334
29590632 -0.46771126 0.5074305333333333
29600636 -0.465046555 0.5091270206666666
29610640 -0.462278108 0.510909776
29620644 -0.4594556093333333 0.5126693053333332
29630648 -0.456546098 0.5142973066666666
29640652 -0.4541504283333333 0.5160920423333333
29650656 -0.451100538 0.5177570383333333
29660660 -0.4483709333333333 0.519618531
29670664 -0.44586928666666664 0.5212740303333333
29680668 -0.4429567753333333 0.5230128963333334
29690672 -0.4402363103333333 0.5248254736666667
