# HZ S RI R 50
21007200 0.16446285933333332 -0.8729038436666666
21017204 0.162220488 -0.8740390539999999
21027208 0.15981940933333333 -0.8749064803333333
21037212 0.1573617953333333 -0.8758951026666667
21047216 0.1551410156666667 -0.8769931396666667
21057220 0.15275615466666667 -0.8779072563333333
21067224 0.1503234853333333 -0.878817797
21077228 0.14797559366666668 -0.879925867
21087232 0.14577718566666667 -0.8806597986666667
21097236 0.143321281 -0.881535828
21107240 0.140967513 -0.8825912873333334
21117244 0.13874718533333333 -0.8835166096666667
21127248 0.136389067 -0.8843443990000001
21137252 0.13387538466666668 -0.885169685
21147256 0.131760061 -0.8861943283333332
21157260 0.12943230066666667 -0.8868790466666666
21167264 0.1268976576666667 -0.8876195153333333
21177268 0.12479079766666666 -0.8885514336666667
21187272 0.12207628033333333 -0.88905255
21197276 0.11997638633333334 -0.88972038
21207280 0.11773038666666667 -0.890877187
21217284 0.11565114300000001 -0.8913393616666667
21227288 0.11329479800000002 -0.8924024303333334
21237292 0.11083863166666667 -0.8930307626666666
21247296 0.10855978466666667 -0.8938593863333333
21257300 0.106379827 -0.8945751590000001
21267304 0.10407625633333334 -0.8951764106666666
21277308 0.10173675933333333 -0.8955952326666666
21287312 0.09936175733333334 -0.896365265
21297316 0.09732916700000001 -0.8970096506666666
21307320 0.09494127566666666 -0.8976850113333333
21317324 0.092674367 -0.8984060883333332
21327328 0.09055880966666667 -0.8990043203333333
21337332 0.08835500733333333 -0.899565498
21347336 0.08599981166666666 -0.8999837436666667
21357340 0.08366581833333332 -0.9008092883333333
21367344 0.08152804533333334 -0.9013610483333334
21377348 0.07931974533333333 -0.901942134
21387352 0.07706401 -0.9024208986666666
21397356 0.07484588533333332 -0.9029838246666667
21407360 0.07237342266666666 -0.9035155176666668
21417364 0.07034792499999999 -0.904233376
21427368 0.06829449766666668 -0.9044428266666666
21437372 0.06594839466666667 -0.9050619803333332
21447376 0.06354925033333333 -0.9054756959999999
