# HZ S RI R 50
7001600 0.919939061 -0.33312885933333336
7011604 0.919522643 -0.33415490400000003
7021608 0.9190998673333333 -0.3353969353333333
7031612 0.9186379313333334 -0.33659136333333334
7041616 0.9174429176666666 -0.33756450833333335
7051620 0.9178624946666667 -0.3388741613333333
7061624 0.9173107546666666 -0.3399297396666667
7071628 0.9170254866666667 -0.341174831
7081632 0.9164824086666666 -0.3421931763333333
7091636 0.9160096443333332 -0.3433706463333333
7101640 0.9154728850000001 -0.3445882203333334
7111644 0.915115138 -0.34571852266666664
7121648 0.9147148726666666 -0.3468257186666667
7131652 0.914272209 -0.348139604
7141656 0.9138189353333334 -0.34918969866666666
7151660 0.9134027563333333 -0.3502380253333333
7161664 0.9129327136666667 -0.3514789443333333
7171668 0.9124466576666667 -0.35269454133333333
7181672 0.9120161533333334 -0.35371602566666666
7191676 0.911506633 -0.3549147246666666
7201680 0.91118902 -0.35616205100000004
7211684 0.9107464946666667 -0.35725093900000005
7221688 0.9102132716666667 -0.3582535783333333
7231692 0.9097455143333333 -0.35947033766666664
7241696 0.9092193246666667 -0.36056506666666666
7251700 0.9087715946666667 -0.3617409663333333
7261704 0.9082986113333334 -0.3628427486666666
7271708 0.9076084890000001 -0.36401896666666667
7281712 0.9075215656666668 -0.36523435499999996
7291716 0.9069747926666666 -0.36625824366666665
