# HZ S RI R 50
3000000 0.3486876986666667 0.057625925999999994
3010004 0.3491023976666667 0.05680884133333333
3020008 0.3489106593333333 0.056185142333333334
3030012 0.3489351176666666 0.055466917666666664
3040016 0.34896646933333325 0.054736684
3050020 0.34891867633333334 0.054015636666666665
3060024 0.34883707766666666 0.053315535
3070028 0.348966549 0.052561259666666665
3080032 0.3489341736666667 0.05187228433333333
3090036 0.34892426933333337 0.05113800999999999
3100040 0.3489320673333333 0.05041823766666667
3110044 0.34890200666666665 0.04974394566666667
3120048 0.3488908013333334 0.049017064
3130052 0.3489042023333333 0.04830079933333334
3140056 0.348900904 0.047600473
3150060 0.34891995766666667 0.04691115866666667
3160064 0.348890702 0.04620600766666667
3170068 0.3489053346666667 0.045490206666666665
3180072 0.3488958776666667 0.044825070999999994
3190076 0.3488523166666666 0.04412154100000001
3200080 0.348860532 0.043416414666666674
3210084 0.34886080033333333 0.042746645666666666
3220088 0.34882446133333334 0.04206812166666666
3230092 0.348838816 0.041384780333333336
3240096 0.34873930599999997 0.040700038333333334
3250100 0.34881821266666674 0.040039941333333336
3260104 0.3488093513333333 0.03938052433333333
3270108 0.34875140600000004 0.03869977966666666
3280112 0.3487513463333333 0.038045969000000006
3290116 0.3487206696666667 0.037395527000000005
3300120 0.34866936 0.03673699366666667
3310124 0.3486962516666667 0.036073101333333336
3320128 0.348642965 0.035438891666666666
3330132 0.34862026566666665 0.034779709
3340136 0.3485844036666667 0.034131029
3350140 0.3485990563333334 0.03353321333333333
3360144 0.3485637803333333 0.03284647433333333
3370148 0.348567426 0.032194039333333334
3380152 0.34855841566666673 0.031556214
3390156 0.34850550733333335 0.030954322999999995
3400160 0.3484751483333333 0.030307681
3410164 0.3484418786666667 0.02967067433333333
3420168 0.3484382826666667 0.029041395333333334
3430172 0.3484437763333333 0.028432818
3440176 0.34839305300000006 0.027795168
3450180 0.3484035333333333 0.027225815333333334
3460184 0.34839933133333334 0.026523544333333333
3470188 0.34831353033333334 0.02593833766666666
3480192 0.34828371766666666 0.025278445
3490196 0.34827436 0.024683211
3500200 0.34820599366666666 0.024080573666666664
3510204 0.348025759 0.023345182333333336
3520208 0.3480488556666666 0.02259505666666667
3530212 0.34813028566666665 0.022239706999999997
3540216 0.348103871 0.021630630999999997
3550220 0.34806259500000003 0.02099849233333333
3560224 0.34805189566666667 0.020417091666666665
3570228 0.347974201 0.019832277666666665
3580232 0.347955356 0.019206143666666665
3590236 0.34794573 0.018612122000000002
3600240 0.34789954633333336 0.018019428333333334
3610244 0.347826451 0.017403448000000002
3620248 0.347804288 0.016810253666666667
3630252 0.34777033366666665 0.016225627333333333
3640256 0.34773649766666664 0.015653533
3650260 0.3477194506666666 0.015040962666666666
3660264 0.34764861100000005 0.014465839333333334
3670268 0.34762358666666665 0.013887776
3680272 0.34758209199999995 0.013279311
3690276 0.347564131 0.012700581333333334
3700280 0.34752802066666666 0.012145215000000001
3710284 0.3474679093333333 0.011558383666666667
3720288 0.34747630366666665 0.011062663333333334
3730292 0.347420732 0.010398639
3740296 0.347372681 0.009829660666666667
3750300 0.34735440199999995 0.009239131666666666
3760304 0.347367684 0.008681322333333333
3770308 0.347250392 0.008112386333333334
3780312 0.34721096366666665 0.007551522000000001
3790316 0.3471607966666667 0.006980132
3800320 0.34712238133333334 0.006417536333333334
3810324 0.3470966616666667 0.005838657333333333
3820328 0.34701021533333326 0.005281303
3830332 0.346981873 0.004719834666666666
3840336 0.34693600733333335 0.004156002999999999
3850340 0.34688589966666666 0.003588730666666667
3860344 0.34685738899999996 0.0030324453333333335
3870348 0.34679301600000007 0.002473186
3880352 0.34674338499999996 0.00191089
3890356 0.3467545113333333 0.0013420546666666668
3900360 0.34665524966666666 0.0008086863333333333
3910364 0.3466193673333333 0.00023614399999999998
3920368 0.34660082066666664 -0.00030654633333333336
3930372 0.3464978633333333 -0.000838258
3940376 0.3464709323333333 -0.0014030099999999999
3950380 0.3464430173333333 -0.0019688826666666667
3960384 0.34637716399999996 -0.002487874666666667
3970388 0.3463190493333334 -0.0030535019999999996
3980392 0.34626736266666674 -0.0036048200000000003
3990396 0.34621911266666666 -0.00414343
4000400 0.3462010423333333 -0.004691562333333334
4010404 0.345957915 -0.0052543036666666655
4020408 0.34609365433333333 -0.005796957000000001
4030412 0.34604760966666664 -0.0063025753333333335
4040416 0.34596677600000003 -0.006858792999999999
4050420 0.34593154000000004 -0.007416023333333334
4060424 0.34590186700000003 -0.007934274
4070428 0.3458082873333333 -0.008423438333333333
4080432 0.34578207133333333 -0.008992135
4090436 0.3457098803333334 -0.009534563666666667
4100440 0.3456554213333333 -0.010027383666666667
4110444 0.3456325533333333 -0.010584550333333333
4120448 0.34555855399999996 -0.011112120333333331
4130452 0.3455297646666667 -0.011628860999999999
4140456 0.3454816936666667 -0.012132861666666666
4150460 0.34537006433333334 -0.012666990000000001
4160464 0.3453108966666667 -0.013184924
4170468 0.34525315966666664 -0.013694705333333335
4180472 0.34517419366666663 -0.014169283
4190476 0.34515761333333334 -0.014728731666666666
4200480 0.3450288773333334 -0.015227927666666667
4210484 0.34502365166666665 -0.015731712666666665
4220488 0.34493048 -0.016270370333333336
4230492 0.34488224 -0.016773373
4240496 0.3448404173333333 -0.017257269333333332
4250500 0.3447290856666667 -0.017765946666666668
4260504 0.3447164893333334 -0.018322677333333332
4270508 0.34468236566666666 -0.018774767666666668
4280512 0.34461126699999994 -0.019282372666666665
4290516 0.3445783656666667 -0.019811709
4300520 0.34451633666666664 -0.02032307933333333
4310524 0.3444144626666666 -0.020817205333333335
4320528 0.34436352066666664 -0.021310903000000003
4330532 0.34432559199999996 -0.021829671999999998
4340536 0.34423372166666666 -0.02231789866666667
4350540 0.34418344500000003 -0.022829924333333335
4360544 0.34411161133333334 -0.023328545000000003
4370548 0.34404563899999996 -0.023812442666666666
4380552 0.34397026866666663 -0.024319942
4390556 0.34390138600000003 -0.02482216433333333
4400560 0.3438527883333333 -0.025307130666666667
4410564 0.3437938093333333 -0.02582122466666667
4420568 0.34373774133333335 -0.026311267666666666
4430572 0.3436883886666666 -0.026796204333333334
4440576 0.34359623 -0.027310305666666663
4450580 0.3435320456666667 -0.027802571666666668
4460584 0.3434794046666667 -0.028291871333333333
4470588 0.34343482033333333 -0.028764079666666664
4480592 0.3433477186666667 -0.029276238666666666
4490596 0.3432655633333333 -0.02974457233333333
4500600 0.34323449933333333 -0.030270393000000003
4510604 0.3431332013333333 -0.030720079333333334
4520608 0.343076994 -0.031195396666666667
4530612 0.342995465 -0.03168608
4540616 0.34292985 -0.03219417
4550620 0.3428348003333334 -0.032657725
4560624 0.3428135413333333 -0.033177986666666666
4570628 0.34275549666666666 -0.033623239666666666
4580632 0.34267621233333334 -0.034088357
4590636 0.3425974846666666 -0.03459145
4600640 0.34254916500000004 -0.03508372
4610644 0.3424610496666667 -0.03556166366666667
4620648 0.34238857 -0.036040467666666666
4630652 0.3423231443333334 -0.036513608
4640656 0.34226346 -0.036979446666666665
4650660 0.3421386183333334 -0.03747005666666667
4660664 0.3420672513333334 -0.037957894
4670668 0.342000882 -0.038412111666666665
4680672 0.34193605199999993 -0.03888555966666667
4690676 0.3418720263333333 -0.03936048833333333
4700680 0.34176097299999997 -0.03983784
4710684 0.3416882356666667 -0.040288638333333335
4720688 0.3416077593333333 -0.04079847133333333
4730692 0.3415773313333334 -0.041271865
4740696 0.34147910266666665 -0.041703628
4750700 0.34141060733333334 -0.042182369666666664
4760704 0.3413514096666667 -0.042666717
4770708 0.34125423433333335 -0.043138138666666666
4780712 0.341204196 -0.04359574733333333
4790716 0.34114461133333335 -0.04407558466666667
4800720 0.34104605533333326 -0.044521258333333334
4810724 0.34097284099999997 -0.045007826333333334
4820728 0.34085930400000003 -0.04545143133333333
4830732 0.3408275843333333 -0.04593229666666667
4840736 0.3407894773333333 -0.046409381
4850740 0.34068924233333336 -0.04684828733333333
4860744 0.340578407 -0.047296552666666665
4870748 0.340527803 -0.047798729333333324
4880752 0.3404769303333333 -0.048248164333333336
4890756 0.34037870166666667 -0.048722558666666665
4900760 0.3402931593333333 -0.049185172666666666
4910764 0.340218981 -0.049622609000000005
4920768 0.3401399356666666 -0.050067752666666666
4930772 0.34004448833333334 -0.05055565866666667
4940776 0.3399683336666666 -0.050972982
4950780 0.33995741566666665 -0.05146675333333334
4960784 0.33989299300000003 -0.05189086266666667
4970788 0.3397497733333333 -0.05231710866666667
4980792 0.3396876853333333 -0.052799035
4990796 0.33958922799999997 -0.053260918666666664
5000800 0.3395391206666667 -0.053693118000000005
5010804 0.3394554653333333 -0.05415081766666666
5020808 0.33924215999999996 -0.054635758
5030812 0.33930276833333334 -0.05506024266666667
5040816 0.339223931 -0.055512065666666666
5050820 0.3391346336666667 -0.05595712733333333
5060824 0.3390559753333333 -0.056429824333333344
5070828 0.3390116296666667 -0.056877860333333335
5080832 0.33890755966666664 -0.05731471533333333
5090836 0.3388367296666667 -0.05775892233333333
5100840 0.3387323816666667 -0.05822557933333333
5110844 0.33869696666666665 -0.05868887766666667
5120848 0.33861200033333333 -0.05912381766666667
5130852 0.3384894133333334 -0.059554582
5140856 0.33844569333333335 -0.06002607199999999
5150860 0.33836769066666667 -0.060471081333333336
5160864 0.3382636106666667 -0.06089981033333334
5170868 0.338181833 -0.06136176466666667
5180872 0.33813464666666665 -0.06180856133333334
5190876 0.33802691133333335 -0.06222787466666666
5200880 0.33791402 -0.06266956533333333
5210884 0.3378276923333334 -0.06312774866666666
5220888 0.33776570366666664 -0.06356722633333334
5230892 0.33769370133333326 -0.06401131566666667
5240896 0.33755919366666665 -0.06443737433333332
5250900 0.3374943533333334 -0.06488712133333334
5260904 0.33742183466666664 -0.06530143566666666
5270908 0.337347706 -0.06576850766666666
5280912 0.33724438166666665 -0.06620506466666666
5290916 0.33720075099999997 -0.06662653366666667
5300920 0.33709268766666667 -0.06707720500000001
5310924 0.337017725 -0.06755979133333333
5320928 0.3369388383333334 -0.06795657433333334
5330932 0.33683149 -0.06837086633333334
5340936 0.3367545106666667 -0.06884501366666666
5350940 0.336671243 -0.06926496566666666
5360944 0.3365638456666667 -0.06967130533333334
5370948 0.33647476633333334 -0.07011372566666667
5380952 0.3363971213333334 -0.07053813566666667
5390956 0.3362871903333334 -0.07094566533333334
5400960 0.33619806166666666 -0.07140715666666667
5410964 0.336101075 -0.07183702033333333
5420968 0.3360318643333333 -0.07224951433333333
5430972 0.33593141033333335 -0.072674483
5440976 0.3358280163333333 -0.07314002800000001
5450980 0.3357502123333333 -0.07354074733333334
5460984 0.33565727866666667 -0.073951669
5470988 0.3355079886666667 -0.07439621533333333
5480992 0.33547118299999995 -0.074838062
5490996 0.3353698153333333 -0.07522925233333334
5501000 0.3352660433333334 -0.07567186399999999
5511004 0.33519971400000004 -0.07611623166666666
5521008 0.3351181746666667 -0.07649857533333333
5531012 0.335028956 -0.07695933666666667
5541016 0.334944427 -0.07739563533333334
5551020 0.33484759966666666 -0.07779747
5561024 0.334737867 -0.07823337633333333
5571028 0.3346670666666667 -0.07866958
5581032 0.33460158133333334 -0.07909072666666667
5591036 0.334465861 -0.07949357466666668
5601040 0.3343853253333333 -0.079933951
5611044 0.3343139786666667 -0.08036475600000001
5621048 0.334173083 -0.08075226566666667
5631052 0.334078133 -0.08120057466666666
5641056 0.334021936 -0.08163748666666666
5651060 0.33392010133333333 -0.082028697
5661064 0.33380876966666667 -0.08244733266666666
5671068 0.3337414266666667 -0.08291299633333334
5681072 0.33364910866666664 -0.08332452933333334
5691076 0.3335433303333333 -0.08373991133333332
5701080 0.33342277000000003 -0.08416662600000001
5711084 0.3333761496666667 -0.08458672733333333
5721088 0.3332901593333333 -0.085013618
5731092 0.3331727883333333 -0.08544445033333332
5741096 0.33308186133333334 -0.085859048
5751100 0.33297196033333337 -0.08625721666666668
5761104 0.33286438366666665 -0.086686276
5771108 0.33275586333333335 -0.08710024999999999
5781112 0.332718998 -0.08753937
5791116 0.332578639 -0.08793262633333333
5801120 0.33246436700000004 -0.08837781833333332
5811124 0.33238816233333335 -0.08878970633333333
5821128 0.33229806033333337 -0.08917781466666667
5831132 0.3321746286666667 -0.08959603333333332
5841136 0.33208335466666666 -0.09002418066666666
5851140 0.3319888113333333 -0.09042606033333334
5861144 0.33188165233333333 -0.09084909633333334
5871148 0.33178270866666665 -0.09127830966666667
5881152 0.33173578966666667 -0.09168497733333332
5891156 0.33158631133333333 -0.09207277533333334
5901160 0.33147947 -0.09252099200000001
5911164 0.331423382 -0.09294705333333332
5921168 0.33130110333333335 -0.09332845866666667
5931172 0.331184397 -0.093742644
5941176 0.3310660223333333 -0.09417165566666667
5951180 0.331004242 -0.09455225133333334
5961184 0.3308801553333333 -0.09496613599999999
5971188 0.3307692606666666 -0.095397989
5981192 0.33070826533333336 -0.09580776099999999
5991196 0.33057625100000004 -0.09620300933333333
6001200 0.33045599833333333 -0.09663470833333333
6011204 0.3303946553333333 -0.097026882
6021208 0.33025004466666663 -0.09742756433333333
6031212 0.330049227 -0.097823995
6041216 0.33008451266666666 -0.09824302766666666
6051220 0.329943051 -0.09862694166666668
6061224 0.3298894663333333 -0.09906936466666667
6071228 0.32977307833333336 -0.09946310766666666
6081232 0.3296509286666667 -0.09985973433333334
6091236 0.32951051000000003 -0.10026394833333334
6101240 0.32945001133333335 -0.10068261366666666
6111244 0.32934567366666667 -0.10108579966666666
6121248 0.32922120866666665 -0.10150306433333334
6131252 0.32913359000000003 -0.101925147
6141256 0.3290278613333333 -0.10230592866666666
6151260 0.328899801 -0.10270815866666667
6161264 0.328823338 -0.10314600666666666
6171268 0.32874131233333337 -0.10353945466666668
6181272 0.32861411599999996 -0.10393239533333333
6191276 0.32850802933333334 -0.10438846800000001
6201280 0.32840777466666665 -0.10477248333333333
6211284 0.3282680213333333 -0.10514507699999999
6221288 0.3281924723333333 -0.10558777800000001
6231292 0.3280863666666667 -0.10599598033333334
6241296 0.327988605 -0.10639455433333334
6251300 0.32789133 -0.10680219766666665
6261304 0.3277709483333333 -0.10722809766666667
6271308 0.3276674746666667 -0.10761653133333333
6281312 0.32757228600000005 -0.10802677
6291316 0.32746653766666667 -0.10840782766666668
6301320 0.32734640433333334 -0.108837068
6311324 0.3272528946666667 -0.10922782866666668
6321328 0.32717332233333335 -0.10965057733333333
6331332 0.32699783666666665 -0.110042917
6341336 0.32691902933333333 -0.11044425000000001
6351340 0.32682860900000005 -0.110855696
6361344 0.326680869 -0.11125810933333334
6371348 0.32658083266666665 -0.11165005466666666
6381352 0.3264787196666667 -0.11205027766666666
6391356 0.3263967136666666 -0.11245534333333333
6401360 0.3262629906666667 -0.112870256
6411364 0.3261348803333333 -0.11325359333333333
6421368 0.3260482453333333 -0.11366505666666667
6431372 0.32591129333333335 -0.11406441766666665
6441376 0.32582273133333334 -0.11444919800000002
6451380 0.3257105546666667 -0.11486825099999999
6461384 0.32554656266666665 -0.115252969
6471388 0.325477133 -0.11564725633333334
6481392 0.325385819 -0.11605431866666666
6491396 0.3252500993333333 -0.11645003666666666
6501400 0.3251363636666667 -0.11684751266666667
6511404 0.325044155 -0.11723713566666667
6521408 0.32493796933333335 -0.11766597133333334
6531412 0.3248110513333333 -0.11804315666666666
6541416 0.32469885533333337 -0.11842638999999999
6551420 0.32463112466666666 -0.11886720133333334
6561424 0.3245025476666667 -0.11924040566666666
6571428 0.3243469296666666 -0.11960528033333333
6581432 0.32426326466666666 -0.120044398
6591436 0.3241595526666667 -0.12043348433333334
6601440 0.32402339566666666 -0.12081875133333332
6611444 0.323925545 -0.121229172
6621448 0.32380394166666665 -0.12161662399999999
6631452 0.323692332 -0.122019286
6641456 0.3235541083333333 -0.12238830566666666
6651460 0.32343348833333335 -0.12279672199999998
6661464 0.3233402673333333 -0.12318357333333334
6671468 0.32321158066666666 -0.12357073266666667
6681472 0.32307846333333334 -0.12396173166666667
6691476 0.32303175333333334 -0.12438734600000001
6701480 0.32286930099999994 -0.12474773066666667
6711484 0.3227391936666667 -0.125148033
6721488 0.322633674 -0.125557671
6731492 0.32253776 -0.12592952966666668
6741496 0.3223876156666667 -0.12631912533333334
6751500 0.32227895666666667 -0.126738886
6761504 0.3221629263333334 -0.127120038
6771508 0.3220565816666667 -0.12751322
6781512 0.32193729266666665 -0.12791732933333336
6791516 0.3218305806666667 -0.12832402166666665
6801520 0.32169661899999996 -0.12869946166666665
6811524 0.3215404453333333 -0.12906562766666668
6821528 0.32143221299999997 -0.12950919566666666
6831532 0.3213424086666667 -0.12988656266666668
6841536 0.32120319166666667 -0.13025999566666668
6851540 0.32107227033333335 -0.1306731946666667
6861544 0.32097807533333333 -0.13105640333333332
6871548 0.3208705883333333 -0.13145242633333332
6881552 0.32075168666666665 -0.13186038033333333
6891556 0.32060047966666666 -0.13221567366666667
6901560 0.3204869826666667 -0.13261216866666667
6911564 0.32034329599999994 -0.13301622366666668
6921568 0.320220053 -0.13341401
6931572 0.3201236526666667 -0.13379676666666668
6941576 0.31996362400000006 -0.13419231766666664
6951580 0.31987757466666666 -0.13460651066666665
6961584 0.3197525936666667 -0.134991492
6971588 0.31962813933333334 -0.13538355133333335
6981592 0.3194972973333334 -0.13576492166666665
6991596 0.319395244 -0.13614940633333333
7001600 0.3192724683333333 -0.13652883933333335
7011604 0.319164296 -0.13694724466666666
7021608 0.3190151156666667 -0.137338072
7031612 0.319378247 -0.13822794466666666
7041616 0.3183368643333333 -0.13750648499999998
7051620 0.31861556566666666 -0.13841788966666668
7061624 0.31850743299999995 -0.138865148
7071628 0.3183478313333333 -0.13923865566666668
7081632 0.31824421900000005 -0.13967945699999998
7091636 0.3181006413333333 -0.140034472
7101640 0.318001012 -0.14041055233333333
7111644 0.31784952666666666 -0.14082425333333334
7121648 0.3177310326666667 -0.14119742333333332
7131652 0.31761181366666663 -0.14158300533333334
7141656 0.31746043799999996 -0.141979764
7151660 0.31733027100000005 -0.14238401733333336
7161664 0.3172441223333333 -0.142766431
7171668 0.31709018366666664 -0.143127794
7181672 0.316931814 -0.14352408533333333
7191676 0.316847106 -0.14392322800000001
7201680 0.3166996836666667 -0.144301355
7211684 0.31657728566666665 -0.14471050600000002
7221688 0.316443781 -0.14507086066666666
7231692 0.31630829 -0.14546302966666666
7241696 0.31618730266666667 -0.14583674066666666
7251700 0.31603543933333333 -0.146246786
7261704 0.3159312106666667 -0.146659876
7271708 0.3158210913333333 -0.14702667333333333
7281712 0.31565148666666665 -0.14737492766666668
7291716 0.31552582 -0.14780371366666667
7301720 0.31539403400000005 -0.14817305433333336
7311724 0.3152450816666666 -0.148566375
7321728 0.3151293 -0.14898471533333335
7331732 0.31501450133333336 -0.149338444
7341736 0.31486143699999997 -0.14970441666666667
7351740 0.31472410766666664 -0.15009516466666667
7361744 0.31457209566666666 -0.15050314866666667
7371748 0.3144988816666667 -0.15088477733333333
