# HZ S RI R 50
5250900 0.970045964 -0.14303012699999998
5260904 0.969809413 -0.14447790866666668
5270908 0.96948574 -0.1458499483333333
5280912 0.9693281253333333 -0.14712088833333334
5290916 0.9691349069999999 -0.14847118166666665
5300920 0.968855381 -0.14991715033333333
5310924 0.9685953656666667 -0.151224186
5320928 0.9683687683333333 -0.152471905
5330932 0.9680454336666667 -0.15389192133333332
5340936 0.967891872 -0.15535263200000002
5350940 0.9677725233333333 -0.15662592666666666
5360944 0.967488547 -0.15793028966666667
5370948 0.9673430323333333 -0.159463788
5380952 0.9672138493333334 -0.16070543699999998
5390956 0.9668051403333333 -0.16199894733333334
5400960 0.9666595259999999 -0.16345432899999998
5410964 0.9665852983333334 -0.164803202
5420968 0.966289361 -0.166110173
5430972 0.966034214 -0.16743376366666665
5440976 0.9658110936666667 -0.16885451466666668
