# HZ S RI R 50
28010000 -0.8433332243333332 -0.06913275766666667
28020004 -0.8432822226666667 -0.066893302
28030008 -0.8430516916666666 -0.06456255666666667
28040012 -0.8429733516666666 -0.06220615766666667
28050016 -0.8429000176666666 -0.06000527733333333
28060020 -0.842739284 -0.057676890333333335
28070024 -0.8426139756666666 -0.05525838466666667
28080028 -0.842520058 -0.052996249
28090032 -0.8423214949999999 -0.05069882533333333
28100036 -0.8421740333333333 -0.04833631833333333
28110040 -0.8421127596666667 -0.046092846666666666
28120044 -0.841841042 -0.04371881366666667
28130048 -0.8416363796666667 -0.041305973999999995
28140052 -0.8415852386666667 -0.03905484833333333
28150056 -0.8413401643333334 -0.036691365000000004
28160060 -0.8410511413333334 -0.034362306
28170064 -0.8410165113333333 -0.03195104466666667
28180068 -0.8406634526666666 -0.029661267666666668
28190072 -0.8403772709999999 -0.027337264333333333
28200076 -0.8401902713333333 -0.024933001666666666
28210080 -0.8400409223333334 -0.022608382666666666
28220084 -0.8396480676666668 -0.020284588666666666
28230088 -0.8394246696666667 -0.017866298
28240092 -0.8392597833333334 -0.015562579666666666
28250096 -0.838894844 -0.013169717
28260100 -0.8383669853333333 -0.010592800999999999
28270104 -0.8384522793333332 -0.008115698
28280108 -0.8381869993333333 -0.005855731
28290112 -0.8378235100000001 -0.0035297423333333334
28300116 -0.8374862473333332 -0.0009628646666666665
28310120 -0.8371277250000001 0.001353691
28320124 -0.836905539 0.0036168653333333335
28330128 -0.8364475370000001 0.006117795666666666
28340132 -0.8361208043333334 0.008468940333333334
28350136 -0.8355169293333334 0.010851547666666668
28360140 -0.8353103796666667 0.013289837666666665
28370144 -0.8350180783333334 0.01566014
28380148 -0.8346953589999999 0.018046929333333333
28390152 -0.8342482050000001 0.020419960666666664
28400156 -0.833933095 0.022756921333333333
28410160 -0.8335316380000001 0.025136627666666665
28420164 -0.832997759 0.027549274666666665
28430168 -0.8327345253333333 0.029911269
28440172 -0.8324137129999999 0.032350063
28450176 -0.831874748 0.03465125733333333
28460180 -0.8313744266666667 0.037181582
28470184 -0.8311287959999999 0.03948600433333333
28480188 -0.8304962316666668 0.04179428766666667
28490192 -0.8299911620000001 0.04438907
28500196 -0.8297181330000001 0.04673488533333334
28510200 -0.829283873 0.04908428966666667
28520204 -0.8288030623333333 0.051477971000000004
28530208 -0.828279277 0.05395424499999999
28540212 -0.8277825316666666 0.056299717666666665
28550216 -0.8272055586666666 0.05863298833333333
28560220 -0.826818546 0.061245568
28570224 -0.8261345623333334 0.06358504300000001
28580228 -0.8257063033333333 0.06592210133333333
28590232 -0.8250650166666667 0.06844119233333333
28600236 -0.8245417873333333 0.07089600966666666
28610240 -0.8239925106666668 0.07326262166666665
28620244 -0.82340618 0.07567390066666667
28630248 -0.8228913943333334 0.078268943
28640252 -0.8222090999999999 0.080573663
28650256 -0.8216400346666667 0.08297774166666666
28660260 -0.8210722010000001 0.08547794533333335
28670264 -0.8204424183333333 0.08783959866666667
28680268 -0.8198328613333334 0.09027133366666666
28690272 -0.819085121 0.09274759866666667
28700276 -0.818695088 0.09522316833333333
28710280 -0.8179338973333333 0.09760849666666667
28720284 -0.8171854816666667 0.10000695566666666
28730288 -0.8164746759999999 0.10251236966666666
28740292 -0.8159624336666668 0.10495737433333334
28750296 -0.8151429096666666 0.10727675266666668
28760300 -0.8144246933333333 0.10982386266666666
28770304 -0.813845257 0.11231989666666668
28780308 -0.8131157756666667 0.11460959433333333
28790312 -0.812268774 0.11708236733333333
28800316 -0.8116245269999999 0.11962295066666667
28810320 -0.8109224240000001 0.121914558
28820324 -0.8101013103333333 0.124454635
28830328 -0.8093188603333333 0.12705525766666667
28840332 -0.808759133 0.129407575
28850336 -0.8077404100000001 0.13175554566666667
28860340 -0.807029426 0.13439684600000001
28870344 -0.8063110313333333 0.13674918333333333
28880348 -0.8053973320000001 0.13912523799999998
28890352 -0.8045487403333333 0.14168536166666668
28900356 -0.8038294316666666 0.14412044966666668
28910360 -0.8029140236666666 0.14649201933333333
28920364 -0.8019878863333334 0.14912864066666667
28930368 -0.8012464046666666 0.15155386433333332
28940372 -0.8003414076666667 0.15398804366666666
28950376 -0.7994817493333333 0.15643252900000001
28960380 -0.7985526323333333 0.158895691
28970384 -0.79765145 0.1613184116666667
28980388 -0.7967244783333333 0.16379033533333334
28990392 -0.7959531543333332 0.16642220833333335
29000396 -0.794888914 0.168760881
29010400 -0.793960174 0.17120191433333334
29020404 -0.7931162716666665 0.17375124500000003
29030408 -0.792099575 0.1762157626666667
29040412 -0.7909885446666666 0.17862291666666666
29050416 -0.790178438 0.18114566299999998
29060420 -0.7892807126666667 0.18356740466666666
29070424 -0.788012266 0.18600624833333332
29080428 -0.7871878346666668 0.18858212733333332
29090432 -0.7861486476666667 0.19102296733333332
29100436 -0.7849687933333332 0.19345329199999997
29110440 -0.7840320469999998 0.195997546
29120444 -0.7830480933333334 0.198378528
29130448 -0.7818661926666666 0.20080648366666667
29140452 -0.7807285786666668 0.20343129833333337
29150456 -0.7795309026666667 0.20591761166666667
29160460 -0.778604706 0.20831759233333336
29170464 -0.7774739066666667 0.21084941433333335
29180468 -0.7764261563333333 0.21343922599999998
29190472 -0.7753211853333334 0.2156841806666667
29200476 -0.774026573 0.218204374
29210480 -0.773162166 0.22082200633333335
29220484 -0.7719218533333333 0.22311182833333332
29230488 -0.7705450256666667 0.22560666
29240492 -0.7695594826666666 0.22823238366666665
29250496 -0.7684194843333333 0.23064811033333332
29260500 -0.76697735 0.233015895
29270504 -0.7654829223333334 0.23525029933333333
29280508 -0.7646807233333334 0.23778459933333332
29290512 -0.763387243 0.24037047733333336
29300516 -0.7621774276666667 0.24282323333333333
29310520 -0.7607936263333334 0.2451745723333333
29320524 -0.7595184443333333 0.2477728723333333
29330528 -0.7581017413333333 0.25022500733333336
29340532 -0.756979088 0.25274127733333335
29350536 -0.7555620076666667 0.2552480103333333
29360540 -0.7542020876666666 0.2576710383333334
29370544 -0.7528328893333334 0.25997330733333335
29380548 -0.7515952983333333 0.2626211346666667
29390552 -0.7502549886666666 0.265037179
29400556 -0.7488227489999999 0.26744902133333337
29410560 -0.7474649946666667 0.26997256266666664
29420564 -0.745990018 0.27242745933333334
29430568 -0.7446137266666666 0.2748449046666667
29440572 -0.743183891 0.27737637333333337
29450576 -0.7417859633333334 0.27983311833333335
29460580 -0.7402926879999999 0.28221345933333336
29470584 -0.7387914656666666 0.28468651566666664
29480588 -0.7372173069999999 0.2871462203333333
29490592 -0.7358212073333333 0.28961490566666664
29500596 -0.7342854339999999 0.292010695
29510600 -0.7328211266666665 0.29453673966666666
29520604 -0.7313496869999999 0.296946019
29530608 -0.7296562393333333 0.299299389
29540612 -0.72809881 0.30186368033333333
29550616 -0.7266168196666666 0.30431971933333335
29560620 -0.7251875599999998 0.30662659800000003
29570624 -0.723461807 0.30922249966666665
29580628 -0.7218591173333334 0.31161597366666666
29590632 -0.7202193736666667 0.3139999113333333
29600636 -0.7186354993333334 0.31639624633333335
29610640 -0.7169408403333334 0.31892911599999996
29620644 -0.7152403986666668 0.32123519
29630648 -0.713522335 0.32368394733333333
29640652 -0.7118326823333333 0.3261642156666667
29650656 -0.7102474173333334 0.3285670376666667
29660660 -0.7085410753333333 0.3309186
29670664 -0.7065545323333332 0.3333722253333333
29680668 -0.704864482 0.335766057
29690672 -0.7031965056666666 0.33814542466666664
