# HZ S RI R 50
3000000 0.9722316663333334 0.10568984366666667
3010004 0.9723170800000002 0.104361569
3020008 0.972212275 0.10308897266666667
3030012 0.9722456933333333 0.10190054233333334
3040016 0.9726376533333333 0.10061629100000001
3050020 0.9731770953333333 0.09942757099999999
3060024 0.9727716246666667 0.09821115433333334
3070028 0.9734282693333333 0.09702269266666667
3080032 0.9732895293333333 0.09596088766666666
3090036 0.9733785786666668 0.09483574833333334
3100040 0.9737680556666666 0.09357777233333335
3110044 0.9741331933333334 0.09227340433333332
3120048 0.974214693 0.09112607933333333
3130052 0.9740161893333333 0.09009634966666667
3140056 0.9742325543333333 0.08890666066666668
3150060 0.9745868643333333 0.087780237
3160064 0.9745631216666667 0.08661588266666666
3170068 0.9746996563333333 0.08547242466666666
3180072 0.9750851589999999 0.08438658966666666
3190076 0.9748075206666668 0.08339566233333333
3200080 0.9752388796666667 0.08223911633333332
3210084 0.9755808113333334 0.08099031966666666
3220088 0.9758811193333333 0.07977188866666667
3230092 0.975600302 0.07878788033333334
3240096 0.9755319556666667 0.07757205766666668
3250100 0.9758401113333334 0.076649196
3260104 0.975804309 0.07552027933333333
3270108 0.9760575893333333 0.074243312
3280112 0.9761269489999999 0.07320891566666667
3290116 0.9765185116666667 0.07231275733333332
3300120 0.9765555063333333 0.0712084
3310124 0.9767565930000001 0.07013622933333333
3320128 0.976842145 0.06907548000000001
3330132 0.9767801563333333 0.06780019899999999
3340136 0.9768738946666667 0.06669051933333332
3350140 0.9773185053333333 0.06569813933333334
3360144 0.9773182669999999 0.06480035933333333
3370148 0.9770936763333333 0.06375247233333332
3380152 0.9773166976666666 0.06261920166666667
3390156 0.9776665373333332 0.06161965933333333
3400160 0.9775141679999999 0.060495907999999994
3410164 0.9777627786666666 0.059368998
3420168 0.977715135 0.05847982066666666
3430172 0.977808376 0.057412818
3440176 0.977842152 0.05629399433333334
3450180 0.9778878293333332 0.05524821566666666
3460184 0.9780803916666666 0.05427494233333333
3470188 0.9781850376666666 0.05330291533333333
3480192 0.9783179563333332 0.05222729466666667
3490196 0.978399237 0.05125618099999999
3500200 0.9783436656666668 0.05027082066666667
3510204 0.9784693323333333 0.04924405233333334
3520208 0.978767216 0.048258701999999994
3530212 0.9788629013333333 0.04735032966666667
3540216 0.9788568416666665 0.04623667133333333
3550220 0.9789763690000001 0.04510607566666666
3560224 0.979109029 0.044164335
3570228 0.9790326753333334 0.043234250333333335
3580232 0.979124904 0.04224578066666667
3590236 0.9793195923333333 0.041333297666666664
3600240 0.9793581366666667 0.040353161666666665
3610244 0.9792515636666668 0.039355605
3620248 0.979352772 0.03841813533333333
3630252 0.979399125 0.03758578866666667
3640256 0.9795506593333333 0.036493596999999996
3650260 0.979606231 0.03551360966666667
3660264 0.979653438 0.034466171
3670268 0.97958531 0.03359486033333333
3680272 0.9796205756666666 0.03262542933333333
3690276 0.979714612 0.03174890933333333
3700280 0.9795815546666665 0.030777157
3710284 0.97977078 0.029679546
3720288 0.9797593356666666 0.02883000466666667
3730292 0.9798104363333332 0.027992498
3740296 0.9797498783333333 0.027053023333333332
3750300 0.980075141 0.026111641666666668
3760304 0.9800254703333332 0.025176838000000003
3770308 0.9798745313333334 0.024193246666666668
3780312 0.9798785250000001 0.023355330666666663
3790316 0.9799585936666667 0.022416515333333335
3800320 0.979984264 0.021572838666666667
3810324 0.980130692 0.020460946666666667
3820328 0.980139236 0.019543676333333333
3830332 0.9802997706666666 0.018733297
3840336 0.9803804556666668 0.017792179666666668
3850340 0.980487744 0.01697649866666667
3860344 0.9805327056666666 0.016060393
3870348 0.9806109663333333 0.015193877333333335
3880352 0.980581681 0.014223191000000001
3890356 0.9806746643333333 0.013334429
3900360 0.9803889793333332 0.012470874
3910364 0.9805238446666666 0.011596320666666667
3920368 0.980641663 0.010732523666666667
3930372 0.9806332590000001 0.009882013
3940376 0.980609973 0.008905128666666666
3950380 0.9805099166666666 0.007945633666666667
3960384 0.980635683 0.007214132666666667
3970388 0.9804840483333334 0.006391658666666667
3980392 0.9804980953333334 0.005407320333333333
3990396 0.9806522329999999 0.004525896666666667
4000400 0.9804917176666667 0.0036846026666666667
4010404 0.9803204933333335 0.0027901116666666664
4020408 0.9803911646666666 0.002105349666666667
4030412 0.9807018243333333 0.0010752286666666667
4040416 0.9807018836666667 0.000306046
4050420 0.9807406463333334 -0.0005695776666666667
4060424 0.9806631603333332 -0.001363306
4070428 0.9807844756666667 -0.002271004666666667
4080432 0.9807868403333334 -0.0031263096666666666
4090436 0.9806078079999999 -0.003998880666666666
4100440 0.9807267983333334 -0.004900824333333332
4110444 0.9806443253333335 -0.005662219333333334
4120448 0.9805763760000001 -0.0065386663333333326
4130452 0.9806587893333334 -0.007354947333333334
4140456 0.9806712470000001 -0.008118191000000002
4150460 0.9805163343333333 -0.009006879
4160464 0.980404198 -0.009778479666666666
4170468 0.9802987376666666 -0.010565514333333333
4180472 0.980511725 -0.011440075666666666
4190476 0.9806716243333332 -0.012372497000000001
4200480 0.9806412456666668 -0.013218269
4210484 0.980582237 -0.014017575999999999
4220488 0.980505586 -0.01479402
4230492 0.980531454 -0.015590404333333335
4240496 0.980686784 -0.016472313666666665
4250500 0.9805327456666667 -0.017349014333333333
4260504 0.9800858893333334 -0.018145944333333334
4270508 0.9802969296666667 -0.018966315
4280512 0.980486671 -0.019717728666666667
4290516 0.9805213213333333 -0.020511628666666667
4300520 0.9803931513333334 -0.021317067999999998
4310524 0.9803265136666667 -0.022169813666666666
4320528 0.9803073406666667 -0.023014320666666668
4330532 0.980458895 -0.023734800666666667
4340536 0.9804252583333334 -0.02467382166666667
4350540 0.980219682 -0.025338745
4360544 0.9805225926666666 -0.026204169333333333
4370548 0.98052756 -0.027037869000000003
4380552 0.9802452919999999 -0.027821624
4390556 0.980312387 -0.028555590000000002
4400560 0.980218808 -0.029290631666666667
4410564 0.9802793856666666 -0.030179844
4420568 0.9803939663333333 -0.03099542466666667
4430572 0.980427921 -0.03176264733333333
4440576 0.980103155 -0.032651274333333334
4450580 0.9803603886666666 -0.033384645666666664
4460584 0.980528653 -0.03419138633333333
4470588 0.9801536006666667 -0.034941948
4480592 0.9801595013333334 -0.03582595033333333
4490596 0.9801883299999999 -0.03654217233333334
4500600 0.9800302786666668 -0.03725479566666667
4510604 0.9798512656666668 -0.038794309000000006
4520608 0.9799375733333333 -0.04022479566666667
4530612 0.9797499973333332 -0.041626279333333335
4540616 0.9796633323333334 -0.043142218333333336
4550620 0.9796597363333334 -0.044625307
4560624 0.9796269936666667 -0.045980879333333335
4570628 0.9795523880000001 -0.04749568166666667
4580632 0.9793956876666666 -0.04900679733333333
4590636 0.9794067343333334 -0.050464985
4600640 0.979231139 -0.051855869666666665
4610644 0.9792375766666668 -0.053345162333333335
4620648 0.9792433580000001 -0.05466257766666666
4630652 0.9790451923333333 -0.056144103333333334
4640656 0.978934149 -0.057678307000000005
4650660 0.9790207743333333 -0.059025211
4660664 0.9787808456666666 -0.060472682
4670668 0.9787501496666667 -0.06191472966666667
4680672 0.978812595 -0.063482066
4690676 0.9785434803333333 -0.06482316266666667
4700680 0.9783657593333333 -0.066256347
4710684 0.9783296786666665 -0.06772334133333334
4720688 0.9782553116666667 -0.06913292133333333
4730692 0.9781778653333334 -0.07054987533333333
4740696 0.9781653483333334 -0.07209670533333334
4750700 0.978026211 -0.07348381233333333
4760704 0.9777457713333333 -0.07485797500000001
4770708 0.9777470826666667 -0.076236293
4780712 0.9776156346666666 -0.07770769833333334
4790716 0.9776031973333333 -0.079124637
4800720 0.977292935 -0.080514759
4810724 0.9772603313333333 -0.08201706166666667
4820728 0.9771396913333333 -0.08335895366666667
4830732 0.9769537250000001 -0.08473103266666666
4840736 0.9767806133333333 -0.08621955166666666
4850740 0.9767837326666666 -0.08763134466666667
4860744 0.9765380619999999 -0.08895280233333332
4870748 0.9764415223333334 -0.09039017066666667
4880752 0.9763510626666667 -0.09187746066666665
4890756 0.9760385949999999 -0.093126394
4900760 0.9760554036666665 -0.094622423
4910764 0.9760114153333332 -0.09611943133333334
4920768 0.9758470056666667 -0.09740367533333334
4930772 0.9755897123333334 -0.098809995
4940776 0.9754684963333333 -0.10028131766666666
4950780 0.9751896860000001 -0.10161208599999999
4960784 0.9751076099999999 -0.10301577533333334
4970788 0.9749155640000001 -0.10447744033333334
4980792 0.9749043583333333 -0.10584293533333333
4990796 0.9747422933333333 -0.10717719533333332
5000800 0.9743075769999999 -0.10869023666666666
5010804 0.9742387333333333 -0.11001953966666667
5020808 0.9733559486666666 -0.11155902799999999
5030812 0.97409304 -0.11289411033333334
5040816 0.9739785393333333 -0.11427446933333334
5050820 0.9738275406666667 -0.11553569400000001
5060824 0.9736765823333333 -0.116940516
5070828 0.973461628 -0.118423946
5080832 0.9733226296666667 -0.11974300666666667
5090836 0.9731866123333334 -0.12110742433333334
5100840 0.9729090733333333 -0.12258082633333334
5110844 0.9727852346666667 -0.12389267266666666
5120848 0.972571254 -0.12526886166666665
5130852 0.9724109173333334 -0.12668153133333335
5140856 0.9721923076666666 -0.128084754
5150860 0.9720778266666666 -0.12939414366666666
5160864 0.9718314013333332 -0.130778402
5170868 0.9716591636666667 -0.132202213
5180872 0.97150443 -0.13354659066666666
5190876 0.9709853333333335 -0.13482852766666667
5200880 0.971000095 -0.13628387466666667
5210884 0.9708783033333334 -0.13771606
5220888 0.9705743193333333 -0.13891620466666668
5230892 0.9703633783333333 -0.14032721
5240896 0.9700313806666667 -0.14179032033333333
5250900 0.970045964 -0.14303012699999998
5260904 0.969809413 -0.14447790866666668
5270908 0.96948574 -0.1458499483333333
5280912 0.9693281253333333 -0.14712088833333334
5290916 0.9691349069999999 -0.14847118166666665
5300920 0.968855381 -0.14991715033333333
5310924 0.9685953656666667 -0.151224186
5320928 0.9683687683333333 -0.152471905
5330932 0.9680454336666667 -0.15389192133333332
5340936 0.967891872 -0.15535263200000002
5350940 0.9677725233333333 -0.15662592666666666
5360944 0.967488547 -0.15793028966666667
5370948 0.9673430323333333 -0.159463788
5380952 0.9672138493333334 -0.16070543699999998
5390956 0.9668051403333333 -0.16199894733333334
5400960 0.9666595259999999 -0.16345432899999998
5410964 0.9665852983333334 -0.164803202
5420968 0.966289361 -0.166110173
5430972 0.966034214 -0.16743376366666665
5440976 0.9658110936666667 -0.16885451466666668
5450980 0.965347032 -0.17006697766666667
5460984 0.9652287363333333 -0.17152756966666668
5470988 0.965191861 -0.172898089
5480992 0.964738687 -0.17409918233333332
5490996 0.9642389616666667 -0.17546621466666668
5501000 0.9644423523333333 -0.17690483733333331
5511004 0.9640753466666666 -0.178137193
5521008 0.9636369943333333 -0.17948569866666664
5531012 0.9636216956666667 -0.18087894233333332
5541016 0.963257392 -0.18213703266666667
5551020 0.9629924496666667 -0.18352736533333336
5561024 0.9628169139999999 -0.184877038
5571028 0.9624850349999999 -0.18609978766666668
5581032 0.9622818426666666 -0.1874645553333333
5591036 0.9620344040000001 -0.18890001366666667
5601040 0.961718897 -0.19016236066666667
5611044 0.9614766439999999 -0.19142012333333333
5621048 0.961109241 -0.19286179066666667
5631052 0.9610126016666668 -0.19407639899999998
5641056 0.960622549 -0.19541490066666667
5651060 0.9602860409999999 -0.19670454666666667
5661064 0.9600103496666668 -0.19811363033333332
5671068 0.9599111480000001 -0.19943922233333333
5681072 0.9593617516666667 -0.20065672199999998
5691076 0.9590964316666667 -0.20204550033333332
5701080 0.9590062696666667 -0.20336218666666664
5711084 0.9586382306666668 -0.20466507966666667
5721088 0.9582443236666666 -0.206000914
5731092 0.9580216606666666 -0.207353726
5741096 0.9576500653333334 -0.20851931966666667
5751100 0.9573347966666667 -0.20995427666666666
5761104 0.9571315246666666 -0.21126513700000002
5771108 0.9569528103333335 -0.21254436200000001
5781112 0.9564741846666666 -0.213776827
5791116 0.9561409753333333 -0.21518491233333334
5801120 0.9560378393333333 -0.21648676233333333
5811124 0.9556124013333335 -0.217691635
5821128 0.9552407860000001 -0.21906316766666667
5831132 0.954962949 -0.22041843333333336
5841136 0.9546931980000001 -0.22159932033333332
5851140 0.9543734389999999 -0.22300165900000002
5861144 0.954042097 -0.22432029733333333
5871148 0.9537830946666667 -0.22552816066666667
5881152 0.9534498653333334 -0.22687986500000001
5891156 0.95309484 -0.22826770433333332
5901160 0.9528751966666666 -0.22944150900000002
5911164 0.9524435003333332 -0.23069426433333332
5921168 0.952095131 -0.23214227966666667
5931172 0.9518169959999999 -0.233444338
5941176 0.9515854319999999 -0.23462292066666665
5951180 0.951155623 -0.23590992866666669
5961184 0.9510037303333334 -0.23739526166666666
5971188 0.9506485463333334 -0.23855637533333332
5981192 0.9501242836666668 -0.23978634666666668
5991196 0.949853897 -0.24120294533333334
6001200 0.949652791 -0.24241349099999998
6011204 0.9491630196666666 -0.24373817933333333
6021208 0.9487160046666666 -0.2450954466666667
6031212 0.9478324453333333 -0.24628842866666667
6041216 0.9479638136666667 -0.247522061
6051220 0.9476336836666667 -0.24874921633333336
6061224 0.9472454786666665 -0.25020078799999995
6071228 0.9469632703333333 -0.2514341276666667
6081232 0.9465635216666667 -0.25267204666666665
6091236 0.9460938176666667 -0.2539111573333333
6101240 0.945671598 -0.25518657766666664
6111244 0.9455462693333333 -0.25648287933333336
6121248 0.9451674423333333 -0.25786903499999997
6131252 0.944907407 -0.2591891986666667
6141256 0.9444465636666667 -0.26033728333333334
6151260 0.9440726636666668 -0.26160385199999997
6161264 0.943620185 -0.2628717423333334
6171268 0.9433686933333333 -0.2641769946666667
6181272 0.9429539046666666 -0.2654150126666667
6191276 0.942491313 -0.26667457833333336
6201280 0.942294339 -0.2679798996666667
6211284 0.9419252080000001 -0.2692748506666667
6221288 0.941616078 -0.27052622033333334
6231292 0.941007634 -0.27177528533333334
6241296 0.9407190876666668 -0.2730766633333333
6251300 0.9404073953333333 -0.274218291
6261304 0.939921955 -0.2755440673333333
6271308 0.9395023186666668 -0.276853293
6281312 0.9391909836666666 -0.27808659266666663
6291316 0.9387660226666666 -0.2792744833333333
6301320 0.9383378026666667 -0.2805314563333334
6311324 0.9380548200000001 -0.28187792466666667
6321328 0.9375756383333332 -0.283022354
6331332 0.937178016 -0.28433647766666664
6341336 0.9369601606666667 -0.28566469766666663
6351340 0.936531941 -0.2868257066666667
6361344 0.9359960553333333 -0.288095653
6371348 0.9357223710000001 -0.289471338
6381352 0.9352748590000001 -0.29055049033333336
6391356 0.9347793856666667 -0.2918974956666667
6401360 0.9344196123333334 -0.29316739266666664
6411364 0.933986028 -0.2943755786666667
6421368 0.9335478743333333 -0.295547048
6431372 0.933163027 -0.2969648443333333
6441376 0.9328314663333334 -0.2982113956666667
6451380 0.9323898353333333 -0.29939523333333334
6461384 0.9319095016666665 -0.30064538100000004
6471388 0.931596319 -0.30190649633333333
6481392 0.9310122129999999 -0.303062548
6491396 0.930900077 -0.30442818033333335
6501400 0.9303878546666667 -0.305617203
6511404 0.9297783376666667 -0.3067472276666667
6521408 0.9294688703333334 -0.3080877163333334
6531412 0.9290528693333333 -0.30942220466666664
6541416 0.9285787543333331 -0.31060989699999997
6551420 0.9281973840000001 -0.311790387
6561424 0.9277234673333333 -0.3130391636666667
6571428 0.9272233446666668 -0.3143343029999999
6581432 0.926887691 -0.31559612333333337
6591436 0.9264487226666667 -0.316762825
6601440 0.9259920516666665 -0.31805339466666666
6611444 0.9256153703333333 -0.31933264933333333
6621448 0.9250733853333334 -0.3204553823333333
6631452 0.9246102573333334 -0.3217780393333333
6641456 0.9241901243333334 -0.32300518966666664
6651460 0.9236741463333334 -0.324101319
6661464 0.9231817126666666 -0.3254452843333333
6671468 0.9228958883333332 -0.32671005533333336
6681472 0.9224174023333335 -0.327869137
6691476 0.921904266 -0.32911128799999995
6701480 0.921412905 -0.33037892966666665
6711484 0.920933942 -0.331511726
6721488 0.9205394186666668 -0.3328321476666667
6731492 0.9199461146666666 -0.3339882096666667
6741496 0.9196015793333333 -0.33516278866666666
6751500 0.9191497363333333 -0.336394598
6761504 0.9186390836666666 -0.3377183873333333
6771508 0.9183050789999999 -0.33897684999999994
6781512 0.9178126453333334 -0.34014049166666666
6791516 0.9172313216666667 -0.3413389723333333
6801520 0.9168858923333333 -0.342637519
6811524 0.9162983100000001 -0.3438070416666667
6821528 0.9158346453333334 -0.3450729446666667
6831532 0.9155071576666666 -0.3463590443333333
6841536 0.914902886 -0.34744041166666667
6851540 0.9143048326666667 -0.34863966700000004
6861544 0.913901488 -0.349985123
6871548 0.9134711623333334 -0.351123045
6881552 0.91301171 -0.3522789876666666
6891556 0.9123004476666666 -0.3535083733333333
6901560 0.9119831123333334 -0.354858031
6911564 0.9115670723333333 -0.356020391
6921568 0.9110771613333334 -0.35724860433333333
6931572 0.9107275606666666 -0.35850058
6941576 0.9100284576666665 -0.3596017756666667
6951580 0.9094899496666665 -0.36089630933333333
6961584 0.9091372886666668 -0.3621988096666667
6971588 0.9086031316666667 -0.3633329966666667
6981592 0.9081173936666667 -0.364488989
6991596 0.9075612226666667 -0.36569173133333327
7001600 0.9070687093333333 -0.3670325776666667
7011604 0.9064741733333334 -0.3681689996666666
7021608 0.9060881336666666 -0.369469941
7031612 0.9055107833333333 -0.37058228233333335
7041616 0.9042129119999999 -0.37154945733333333
7051620 0.904120664 -0.37294726566666664
7061624 0.9036913116666666 -0.3741766016666667
7071628 0.903091113 -0.37523573633333335
7081632 0.9025072256666666 -0.3764895396666667
7091636 0.9020455479999999 -0.3778300783333333
7101640 0.9015787840000001 -0.37896041066666664
7111644 0.9009919563333333 -0.3801374833333333
7121648 0.9003964263333334 -0.3813082079999999
7131652 0.8999190726666666 -0.38250360866666666
7141656 0.8992508053333332 -0.38374939566666666
7151660 0.8987931016666666 -0.385037015
7161664 0.8981993396666667 -0.38623350866666667
7171668 0.8977947430000001 -0.38737136133333333
7181672 0.897155007 -0.388567398
7191676 0.896530827 -0.389939616
7201680 0.8960963883333332 -0.3910986383333333
7211684 0.8954283596666667 -0.3922599853333333
7221688 0.8947761253333333 -0.39345972733333334
7231692 0.894283056 -0.3947576483333333
7241696 0.893704971 -0.395879845
7251700 0.8930090666666667 -0.39708119633333333
7261704 0.8923584223333334 -0.398339083
7271708 0.8919090829999999 -0.3995893893333333
7281712 0.8912452060000001 -0.4008722306666667
7291716 0.8906077940000001 -0.402079314
7301720 0.8900451063333333 -0.40330005700000005
7311724 0.8893644606666667 -0.404431969
7321728 0.8887943823333333 -0.40580521
7331732 0.8881370223333334 -0.4070218703333333
7341736 0.8875822426666667 -0.408277323
7351740 0.8867550293333334 -0.40944937866666664
7361744 0.8860794106666666 -0.41079225166666666
7371748 0.8855546116666666 -0.411993573
7381752 0.8846661249999999 -0.413327386
7391756 0.8840643166666666 -0.41464223466666666
7401760 0.8832693100000001 -0.41575078166666674
7411764 0.882463535 -0.417095343
7421768 0.8816884163333333 -0.41847404833333335
7431772 0.8810471889999999 -0.41982356699999995
7441776 0.8799916106666666 -0.42097246633333335
7451780 0.87911129 -0.4223991633333333
7461784 0.878228903 -0.4236614106666667
7471788 0.8768581153333334 -0.42481514833333334
7481792 0.8758900563333333 -0.42619264166666665
