# HZ S RI R 50
14004400 0.33049858600000004 -0.8200028540000001
14014404 0.3341696063333333 -0.8247109653333333
14024408 0.3371856113333333 -0.8298340240000001
14034412 0.3392757673333333 -0.8352548676666668
14044416 0.3404582936666667 -0.8407953183333333
14054420 0.341065377 -0.846349756
14064424 0.34088603666666667 -0.8516833583333333
14074428 0.33994087566666664 -0.8568731546666667
14084432 0.3387723763333333 -0.8618456523333333
14094436 0.33707180633333333 -0.8662921586666666
14104440 0.334978054 -0.8705078163333333
14114444 0.3325338463333333 -0.8740743796666667
14124448 0.330285897 -0.8779526153333332
14134452 0.32767193533333333 -0.8812616069999999
14144456 0.3249980906666667 -0.8842966556666667
14154460 0.32217734066666665 -0.8869235713333333
14164464 0.31931487733333336 -0.8894309996666667
14174468 0.31643986733333335 -0.8917618986666667
14184472 0.3138889573333333 -0.8936246236666667
14194476 0.31074107666666667 -0.8958926796666667
14204480 0.3079779546666666 -0.897663494
14214484 0.30522430933333333 -0.899209102
14224488 0.30240715533333334 -0.9005612133333334
14234492 0.29960542933333334 -0.9020229579999999
14244496 0.297001809 -0.9033994473333333
14254500 0.29444527633333334 -0.9047680100000001
14264504 0.29184469566666665 -0.9054505826666667
14274508 0.289097975 -0.9063846466666666
14284512 0.2865747906666667 -0.9074349603333333
14294516 0.2841840486666667 -0.9082249603333334
14304520 0.28165860966666667 -0.9089652296666667
14314524 0.2792562446666667 -0.9098639293333334
14324528 0.27683988233333334 -0.9106120466666666
14334532 0.2745594283333333 -0.9111301900000001
14344536 0.27205514933333336 -0.9116001326666666
