# HZ S RI R 50
3500200 0.9675476550000001 0.066057888
3510204 0.9678181806666667 0.065109921
3520208 0.9682087699999999 0.064357442
3530212 0.9682684143333332 0.063379519
3540216 0.9682634873333335 0.062234229
3550220 0.9687425493333333 0.061308877000000005
3560224 0.9686823686666667 0.06050292033333333
3570228 0.9688179493333333 0.05951880066666667
3580232 0.96904097 0.05863970499999999
3590236 0.9692312876666667 0.057882439333333334
3600240 0.9694159226666667 0.05686332266666667
3610244 0.9695999423333334 0.05589057133333333
3620248 0.9696553346666666 0.055173145
3630252 0.9696344533333333 0.05435309433333333
3640256 0.9698181553333334 0.053238291
3650260 0.9702074526666666 0.052309692
3660264 0.9701190593333333 0.05143409333333334
3670268 0.9699664713333332 0.05051614866666667
3680272 0.9703861076666667 0.049717922
3690276 0.9703873393333332 0.048920542000000004
3700280 0.9704806803333333 0.047937083
3710284 0.9707598489999999 0.046977236
3720288 0.9708558916666666 0.04621520133333334
3730292 0.9707206883333334 0.04543772200000001
3740296 0.971177598 0.04439458633333334
3750300 0.9713008006666666 0.043691836333333324
3760304 0.9713556566666667 0.042792774666666665
3770308 0.971360008 0.04169161866666667
3780312 0.9714764953333334 0.041057652666666666
3790316 0.971653958 0.040245308
3800320 0.9716640513333333 0.03934515733333333
3810324 0.9718900320000001 0.038351263999999996
3820328 0.9721527696666667 0.03762020033333333
3830332 0.97214367 0.036757262
3840336 0.9725137156666666 0.03585251433333333
3850340 0.9725218416666667 0.03514523666666667
3860344 0.9724963706666667 0.03437575933333333
3870348 0.972657899 0.033463869
3880352 0.9728757339999999 0.03250275066666667
3890356 0.9730486073333333 0.03175751233333333
3900360 0.9728936553333334 0.031028496
3910364 0.9729782543333334 0.03008019866666667
3920368 0.97319297 0.029397307
3930372 0.9733194510000001 0.028483434000000002
3940376 0.9732057056666666 0.027527859000000002
3950380 0.9734707673333333 0.026794872666666664
3960384 0.9734787146666667 0.026089602
3970388 0.9734179576666667 0.025253707666666667
3980392 0.9736435413333333 0.024370635
3990396 0.9737921753333333 0.023622175333333332
