# HZ S RI R 50
3000000 0.9555321930000001 0.11725102633333334
3010004 0.9556620320000001 0.11593524633333334
3020008 0.9562373956666667 0.11468448233333332
3030012 0.9563608370000001 0.11375294866666667
3040016 0.956719478 0.11270694933333332
3050020 0.9569410679999999 0.111490533
3060024 0.9573317170000001 0.11034006366666667
3070028 0.9577758906666668 0.10931416566666667
3080032 0.9578076006666666 0.10829853
3090036 0.9581609566666667 0.10716868433333333
3100040 0.9586215016666667 0.10608699666666666
3110044 0.9590720733333334 0.10506495566666667
3120048 0.958960752 0.10388861333333332
3130052 0.9592748086666667 0.10279398166666666
3140056 0.9597088296666666 0.10185183833333333
3150060 0.9599461753333333 0.10082244133333333
3160064 0.9602049986666666 0.09959235300000001
3170068 0.960567057 0.09864536933333334
3180072 0.9609718126666668 0.09765845566666666
3190076 0.9609488446666666 0.09662036566666667
3200080 0.9613634146666667 0.09549100466666667
3210084 0.961781621 0.09452010433333334
3220088 0.9617610376666667 0.09351779033333334
3230092 0.9619770646666667 0.092427266
3240096 0.9623269043333332 0.091483399
3250100 0.962472419 0.09050733600000001
3260104 0.962629497 0.08936149633333335
3270108 0.962962985 0.08827005066666667
3280112 0.9631470639999998 0.08735014233333332
3290116 0.9633087516666666 0.086428508
3300120 0.9637226066666665 0.085367605
3310124 0.9639989136666666 0.08451537533333332
3320128 0.9641017316666667 0.083501324
3330132 0.9641696613333334 0.08230333766666666
3340136 0.9645208123333333 0.08128685766666667
3350140 0.9648126363333334 0.08048155633333333
3360144 0.9648711283333333 0.07947429
3370148 0.965190808 0.07841762433333332
3380152 0.9656502803333334 0.07758699866666667
3390156 0.9654928246666667 0.07665436466666666
3400160 0.9656312266666666 0.075438152
3410164 0.9659933446666665 0.07452224433333333
3420168 0.966152231 0.07369018333333333
3430172 0.9662660756666668 0.07260516766666666
3440176 0.9666106103333334 0.07157906166666667
3450180 0.966681957 0.07076895733333333
3460184 0.9668419956666666 0.06986679366666666
3470188 0.967110018 0.06883112599999999
3480192 0.967350324 0.067937091
3490196 0.9675300720000001 0.06704287733333333
3500200 0.9675476550000001 0.066057888
3510204 0.9678181806666667 0.065109921
3520208 0.9682087699999999 0.064357442
3530212 0.9682684143333332 0.063379519
3540216 0.9682634873333335 0.062234229
3550220 0.9687425493333333 0.061308877000000005
3560224 0.9686823686666667 0.06050292033333333
3570228 0.9688179493333333 0.05951880066666667
3580232 0.96904097 0.05863970499999999
3590236 0.9692312876666667 0.057882439333333334
3600240 0.9694159226666667 0.05686332266666667
3610244 0.9695999423333334 0.05589057133333333
3620248 0.9696553346666666 0.055173145
3630252 0.9696344533333333 0.05435309433333333
3640256 0.9698181553333334 0.053238291
3650260 0.9702074526666666 0.052309692
3660264 0.9701190593333333 0.05143409333333334
3670268 0.9699664713333332 0.05051614866666667
3680272 0.9703861076666667 0.049717922
3690276 0.9703873393333332 0.048920542000000004
3700280 0.9704806803333333 0.047937083
3710284 0.9707598489999999 0.046977236
3720288 0.9708558916666666 0.04621520133333334
3730292 0.9707206883333334 0.04543772200000001
3740296 0.971177598 0.04439458633333334
3750300 0.9713008006666666 0.043691836333333324
3760304 0.9713556566666667 0.042792774666666665
3770308 0.971360008 0.04169161866666667
3780312 0.9714764953333334 0.041057652666666666
3790316 0.971653958 0.040245308
3800320 0.9716640513333333 0.03934515733333333
3810324 0.9718900320000001 0.038351263999999996
3820328 0.9721527696666667 0.03762020033333333
3830332 0.97214367 0.036757262
3840336 0.9725137156666666 0.03585251433333333
3850340 0.9725218416666667 0.03514523666666667
3860344 0.9724963706666667 0.03437575933333333
3870348 0.972657899 0.033463869
3880352 0.9728757339999999 0.03250275066666667
3890356 0.9730486073333333 0.03175751233333333
3900360 0.9728936553333334 0.031028496
3910364 0.9729782543333334 0.03008019866666667
3920368 0.97319297 0.029397307
3930372 0.9733194510000001 0.028483434000000002
3940376 0.9732057056666666 0.027527859000000002
3950380 0.9734707673333333 0.026794872666666664
3960384 0.9734787146666667 0.026089602
3970388 0.9734179576666667 0.025253707666666667
3980392 0.9736435413333333 0.024370635
3990396 0.9737921753333333 0.023622175333333332
4000400 0.9738542036666668 0.02274018333333333
4010404 0.9736907283333333 0.021790744
4020408 0.9739359023333334 0.02118971733333333
4030412 0.9743115306666668 0.020129230333333335
4040416 0.9743215443333333 0.01934545433333333
4050420 0.9745125570000001 0.018669487666666665
4060424 0.9745711486666666 0.017961591
4070428 0.9745110273333334 0.017029445666666667
4080432 0.9746359386666666 0.016205480666666664
4090436 0.9747405053333332 0.015420161
4100440 0.9748095073333333 0.014617113666666667
4110444 0.9747429886666668 0.013854667000000001
4120448 0.9748636086666665 0.013081536
4130452 0.9748452303333334 0.012377599333333334
4140456 0.9748723706666667 0.011531398
4150460 0.9748630719999999 0.010750391
4160464 0.9748819473333333 0.01002383
4170468 0.9748336276666666 0.009285156666666666
4180472 0.9751898446666667 0.008429894333333333
4190476 0.9753362933333333 0.007689273999999999
4200480 0.9753820896666666 0.006812620333333332
4210484 0.9754460653333333 0.006079514000000001
4220488 0.9754623173333333 0.005373591666666667
4230492 0.9752630196666666 0.004692077333333333
4240496 0.975531638 0.0037626263333333334
4250500 0.975506862 0.0030064773333333336
4260504 0.9754980006666667 0.0022360383333333337
4270508 0.975561877 0.0015937833333333335
4280512 0.9756000836666666 0.0008068616666666667
4290516 0.975959361 0.00011487266666666668
4300520 0.9756758213333333 -0.0006181136666666666
4310524 0.9759037693333333 -0.0015140190000000001
4320528 0.9758258063333333 -0.0022375093333333335
4330532 0.9758771856666667 -0.0029334663333333336
4340536 0.9760249853333334 -0.0038209753333333335
4350540 0.976050039 -0.004420063666666667
4360544 0.9761768383333332 -0.005244176666666666
4370548 0.9761664269999999 -0.006017311333333334
4380552 0.976127247 -0.006788962666666666
4390556 0.9761021333333334 -0.007402058333333334
4400560 0.9761074980000001 -0.008105480666666666
4410564 0.9761982959999999 -0.008991396
4420568 0.9764460126666666 -0.009739872000000002
4430572 0.9764676886666667 -0.010464350333333332
4440576 0.9761678776666667 -0.011273866
4450580 0.976442933 -0.011949461333333333
4460584 0.9765356183333332 -0.012593234
4470588 0.976389567 -0.013351278000000001
4480592 0.9763861893333333 -0.014214293333333334
4490596 0.976455629 -0.014854365000000001
4500600 0.9764160313333333 -0.015584041666666666
4510604 0.9762445493333334 -0.016968594666666666
4520608 0.976299127 -0.018346096333333336
4530612 0.9764309723333334 -0.019782144666666668
4540616 0.9765340486666666 -0.02137125566666666
4550620 0.9764219323333333 -0.022626799333333333
4560624 0.9763272406666667 -0.02399525566666667
4570628 0.9764064550000001 -0.02536752
4580632 0.9764004153333333 -0.026791798333333335
4590636 0.9764744639999999 -0.028275658666666665
4600640 0.9764856496666666 -0.02964043666666667
4610644 0.9764932993333334 -0.031003645333333333
4620648 0.9762756626666667 -0.03234303966666666
4630652 0.9764413040000001 -0.033844975
4640656 0.9765004116666667 -0.035257106
4650660 0.9762870866666667 -0.036593612
4660664 0.976279855 -0.03794269733333333
4670668 0.9762411116666666 -0.03927272033333334
4680672 0.9763508636666667 -0.04072325933333334
4690676 0.9763030806666667 -0.042126505333333335
4700680 0.9762698609999999 -0.043553746000000004
4710684 0.976248483 -0.04490151766666667
4720688 0.9761011399999999 -0.046194177
4730692 0.9759687979999999 -0.04765745866666667
4740696 0.9760910073333333 -0.04901387566666667
4750700 0.9759200610000001 -0.05038183566666667
4760704 0.9760316809999999 -0.05178347366666667
4770708 0.9758796890000001 -0.05320613333333333
4780712 0.9758527676666667 -0.05443642533333334
4790716 0.9758377273333334 -0.05581271166666666
4800720 0.9757443863333334 -0.05726683266666668
4810724 0.9756554763333334 -0.058572583000000004
4820728 0.9756833316666667 -0.059955772
4830732 0.9755310813333334 -0.061325658
4840736 0.9754310846666666 -0.06272659933333334
4850740 0.9754963516666667 -0.06400149066666667
4860744 0.975335737 -0.06540164833333334
4870748 0.975295524 -0.06682957199999999
4880752 0.9752889473333334 -0.06817297133333333
4890756 0.9751342336666666 -0.06941339633333334
4900760 0.9751235446666667 -0.07082569100000001
4910764 0.9750206669999999 -0.07219782733333334
4920768 0.9748891789999999 -0.07353130000000001
4930772 0.9748444356666667 -0.07483313233333333
4940776 0.9747309286666667 -0.076255843
4950780 0.9745630623333333 -0.07752207666666668
4960784 0.974537909 -0.07887090466666667
4970788 0.9745292463333334 -0.080345971
4980792 0.9744644363333334 -0.081666949
4990796 0.9743451276666666 -0.08295246233333332
5000800 0.9742221833333334 -0.08437200900000001
5010804 0.9742312626666667 -0.085680609
5020808 0.9729798433333334 -0.08701658766666666
5030812 0.9734669923333333 -0.08835530766666666
5040816 0.973492364 -0.08977907133333334
5050820 0.9732174673333333 -0.09084955833333334
5060824 0.9732245803333334 -0.092263512
5070828 0.9731195966666667 -0.09375001466666666
5080832 0.9731468363333334 -0.095049893
5090836 0.9729391336666667 -0.09623482333333333
5100840 0.9727925656666666 -0.09768531000000001
5110844 0.972792387 -0.099018569
5120848 0.972615302 -0.10028440500000001
5130852 0.9724056323333334 -0.10166442866666668
5140856 0.972275754 -0.10300704099999998
5150860 0.9723763066666665 -0.10428512366666666
5160864 0.9719687700000001 -0.10557517633333334
5170868 0.9719668033333333 -0.10696927966666665
5180872 0.9719034829999998 -0.108378651
5190876 0.9717422923333334 -0.10954557599999999
5200880 0.9715168873333333 -0.11094317366666667
5210884 0.9715702533333334 -0.11232025933333334
5220888 0.9714516200000002 -0.113601044
5230892 0.9711785713333333 -0.11492274200000001
5240896 0.9710800446666666 -0.11630757133333332
5250900 0.9709608353333333 -0.11751028166666666
5260904 0.9706026316666666 -0.11880599733333334
5270908 0.9707281786666667 -0.12028853833333335
5280912 0.9705366293333334 -0.12150650966666666
5290916 0.970307986 -0.12273527433333332
5300920 0.9701246023333333 -0.12410813333333333
5310924 0.9700124463333334 -0.125399669
5320928 0.9699608086666666 -0.12670612333333334
5330932 0.9696418243333333 -0.12803788000000002
5340936 0.9696097570000001 -0.12945590433333334
5350940 0.9694701433333334 -0.13060366633333334
5360944 0.9692339896666667 -0.131916697
5370948 0.969012479 -0.13331931866666666
5380952 0.9689328273333334 -0.13458919033333333
5390956 0.9686195453333334 -0.135765826
5400960 0.9684739910000001 -0.137166525
5410964 0.9683595696666667 -0.138562153
5420968 0.968222459 -0.139774069
5430972 0.967841327 -0.14102962133333333
5440976 0.9677209653333333 -0.142436157
5450980 0.9676498966666668 -0.14359250166666668
5460984 0.9674203 -0.14490198099999999
5470988 0.9671821196666667 -0.14629873666666668
5480992 0.9670443333333333 -0.14756261299999998
5490996 0.966717879 -0.148711458
5501000 0.9665519796666667 -0.150093277
5511004 0.9664913216666666 -0.15141785633333335
5521008 0.9663187066666666 -0.152620251
5531012 0.9660634596666666 -0.15401318666666666
5541016 0.9659403563333333 -0.155317381
5551020 0.9657630523333333 -0.15651164433333334
5561024 0.9654694196666668 -0.15785960833333335
5571028 0.965436995 -0.15917444733333333
5581032 0.9651900333333333 -0.1603628393333333
5591036 0.9647635616666667 -0.1616834553333333
5601040 0.964685341 -0.163093145
5611044 0.9645016586666667 -0.16423225900000002
5621048 0.9641550976666666 -0.16547111666666667
5631052 0.9639102616666667 -0.16690080366666668
5641056 0.9638300539999999 -0.16812141233333333
5651060 0.9637284279999999 -0.16933315966666665
5661064 0.963305652 -0.17062604933333334
5671068 0.96319141 -0.17199259533333333
5681072 0.9629157583333333 -0.17313089466666667
5691076 0.9626812933333332 -0.17451231199999998
5701080 0.9624094366666668 -0.17585845266666666
5711084 0.9622672593333332 -0.1770321083333333
5721088 0.9620117343333333 -0.17819405600000002
5731092 0.9617316723333333 -0.17968426133333334
5741096 0.9616825379999999 -0.18088222066666668
5751100 0.961466094 -0.1820513606666667
5761104 0.9610368213333333 -0.18327537166666666
5771108 0.9609432619999999 -0.18475649233333336
5781112 0.9607197246666667 -0.18593866633333334
5791116 0.9604053696666667 -0.18709488700000002
5801120 0.9601638716666666 -0.188438331
5811124 0.959997058 -0.18970143800000003
5821128 0.9596316813333333 -0.1909074236666667
5831132 0.9594644306666668 -0.19229279466666668
5841136 0.9591306450000001 -0.193472291
5851140 0.9589811163333334 -0.19468601033333333
5861144 0.9585736986666666 -0.19587386166666665
5871148 0.9584561586666668 -0.197327708
5881152 0.9582207203333333 -0.19847288233333335
5891156 0.9577652813333333 -0.19971779499999998
5901160 0.9576660396666666 -0.2010592666666667
5911164 0.957411031 -0.20224995933333334
5921168 0.9571038086666667 -0.20342985300000002
5931172 0.9567556979999999 -0.20471141233333334
5941176 0.9565800430000001 -0.20608021833333331
5951180 0.9565094909999999 -0.207285384
5961184 0.9560144943333334 -0.20840311033333334
5971188 0.955808262 -0.20985359466666667
5981192 0.9555639426666667 -0.211015145
5991196 0.955184241 -0.2121581783333333
6001200 0.9550243420000001 -0.21363254399999998
6011204 0.954838137 -0.21480446566666667
6021208 0.9542309046666665 -0.21589173366666667
6031212 0.9537594116666667 -0.21744095266666666
6041216 0.9543344180000001 -0.218815719
6051220 0.9539608359999999 -0.21998147199999998
6061224 0.953715404 -0.22115846966666666
6071228 0.9533339340000001 -0.22242259499999997
6081232 0.9529724916666665 -0.22360834466666665
6091236 0.952676157 -0.224895964
6101240 0.9526030616666668 -0.22633145733333335
6111244 0.952130874 -0.22740711266666666
6121248 0.9518154860000001 -0.22859054833333334
6131252 0.9514820376666666 -0.229943474
6141256 0.9512967269999999 -0.23123632866666666
6151260 0.9511525033333333 -0.23245898366666665
6161264 0.9505243696666668 -0.23364055166666664
6171268 0.950300773 -0.23499680066666664
6181272 0.9500225583333334 -0.236166537
6191276 0.949590941 -0.23741608333333333
6201280 0.9492837586666667 -0.23870168633333333
6211284 0.9491233426666666 -0.24002540133333336
6221288 0.948696812 -0.24123801266666667
6231292 0.9483177066666667 -0.24248876166666666
6241296 0.9482548633333333 -0.24389826233333334
6251300 0.9477025866666667 -0.24501185633333333
6261304 0.9473302763333334 -0.24624006966666667
6271308 0.9469023943333333 -0.247638558
6281312 0.9465427596666668 -0.248852258
6291316 0.9460362396666667 -0.250039637
6301320 0.9456519683333333 -0.2513842683333333
6311324 0.9449814956666667 -0.252601743
6321328 0.9446216423333333 -0.25389528266666667
6331332 0.943931381 -0.2552057503333333
6341336 0.9434287946666666 -0.2563792563333333
6351340 0.9426516096666666 -0.25725433233333334
6361344 0.9417057433333333 -0.258074969
6371348 0.941216489 -0.2587014836666666
6381352 0.9410587549999999 -0.259140571
6391356 0.9412349063333334 -0.25976770099999996
6401360 0.941306134 -0.2606729766666666
6411364 0.9414551856666665 -0.261676083
6421368 0.9414660133333334 -0.2629861136666667
6431372 0.9414425893333332 -0.264360547
6441376 0.9413537383333334 -0.2657806376666667
6451380 0.9412500856666667 -0.26701913266666666
6461384 0.9407208563333334 -0.26826622066666667
6471388 0.940578103 -0.269531687
6481392 0.9402457673333333 -0.27089616633333335
6491396 0.9399461546666666 -0.27220341566666667
6501400 0.9396587613333334 -0.2735333643333333
6511404 0.9394523499999999 -0.274760455
6521408 0.9389554859999999 -0.276000738
6531412 0.938674728 -0.27723740533333335
6541416 0.938304305 -0.278501769
6551420 0.9378349579999999 -0.2796589136666667
6561424 0.937443932 -0.2809156973333333
6571428 0.9372457266666666 -0.28208420666666667
6581432 0.9368763566666667 -0.283338358
6591436 0.9363415043333333 -0.28460139033333337
6601440 0.9361628493333334 -0.28592078866666665
6611444 0.9356305596666666 -0.286923081
6621448 0.9353568156666667 -0.288206319
6631452 0.9350737136666667 -0.28947617600000003
6641456 0.9347346229999999 -0.2906696196666667
6651460 0.9341689946666666 -0.29185701433333333
6661464 0.9338104923333334 -0.2931334973333333
6671468 0.9333126740000001 -0.294168343
6681472 0.933105727 -0.29539571200000003
6691476 0.932642162 -0.2966568073333333
6701480 0.9322969713333333 -0.297866692
6711484 0.9319436153333335 -0.29894663899999996
6721488 0.9314441083333334 -0.30014524833333334
6731492 0.931159556 -0.3014634253333333
6741496 0.9307836690000001 -0.302527646
6751500 0.9303555689999999 -0.303820143
6761504 0.9299256403333332 -0.30497937433333333
6771508 0.929593285 -0.30616197999999994
6781512 0.9291874566666666 -0.307248344
6791516 0.9287391903333333 -0.3086033166666666
6801520 0.9282723266666667 -0.309689502
6811524 0.9279427533333333 -0.3108109236666667
6821528 0.9275732436666667 -0.312048485
6831532 0.927209258 -0.31321935866666667
6841536 0.9267506003333333 -0.3143288096666667
6851540 0.9263687530000001 -0.31555369499999997
6861544 0.925896903 -0.316827148
6871548 0.925578872 -0.3179235063333333
6881552 0.9251505533333333 -0.319061617
6891556 0.9247153003333333 -0.32030796033333336
6901560 0.9245010413333333 -0.3215203086666667
6911564 0.9238414566666667 -0.32253032899999995
6921568 0.9234500529999999 -0.323767612
6931572 0.9230873783333333 -0.3249834773333333
6941576 0.922499498 -0.32600199166666666
6951580 0.9222143093333331 -0.327237775
6961584 0.9218425753333332 -0.328450173
6971588 0.921330611 -0.3295751313333333
6981592 0.9208513300000001 -0.330694149
6991596 0.9203935263333333 -0.33198596033333333
7001600 0.919939061 -0.33312885933333336
7011604 0.919522643 -0.33415490400000003
7021608 0.9190998673333333 -0.3353969353333333
7031612 0.9186379313333334 -0.33659136333333334
7041616 0.9174429176666666 -0.33756450833333335
7051620 0.9178624946666667 -0.3388741613333333
7061624 0.9173107546666666 -0.3399297396666667
7071628 0.9170254866666667 -0.341174831
7081632 0.9164824086666666 -0.3421931763333333
7091636 0.9160096443333332 -0.3433706463333333
7101640 0.9154728850000001 -0.3445882203333334
7111644 0.915115138 -0.34571852266666664
7121648 0.9147148726666666 -0.3468257186666667
7131652 0.914272209 -0.348139604
7141656 0.9138189353333334 -0.34918969866666666
7151660 0.9134027563333333 -0.3502380253333333
7161664 0.9129327136666667 -0.3514789443333333
7171668 0.9124466576666667 -0.35269454133333333
7181672 0.9120161533333334 -0.35371602566666666
7191676 0.911506633 -0.3549147246666666
7201680 0.91118902 -0.35616205100000004
7211684 0.9107464946666667 -0.35725093900000005
7221688 0.9102132716666667 -0.3582535783333333
7231692 0.9097455143333333 -0.35947033766666664
7241696 0.9092193246666667 -0.36056506666666666
7251700 0.9087715946666667 -0.3617409663333333
7261704 0.9082986113333334 -0.3628427486666666
7271708 0.9076084890000001 -0.36401896666666667
7281712 0.9075215656666668 -0.36523435499999996
7291716 0.9069747926666666 -0.36625824366666665
7301720 0.906413873 -0.367381215
7311724 0.9059948323333332 -0.3686111173333333
7321728 0.9055362343333333 -0.3695903423333333
7331732 0.9049569166666668 -0.37091265133333334
7341736 0.9045469563333333 -0.3719214003333333
7351740 0.904081563 -0.3730269373333333
7361744 0.9036310713333333 -0.37415598833333336
7371748 0.9031577506666667 -0.375345856
7381752 0.902736028 -0.37649484466666666
7391756 0.9022147656666667 -0.37747614566666665
7401760 0.9016197126666666 -0.3787693776666667
7411764 0.9011449813333333 -0.3798332113333333
7421768 0.9006256856666667 -0.3808838826666667
7431772 0.9001251656666667 -0.3820991616666667
7441776 0.899715086 -0.3832055033333333
7451780 0.899257342 -0.3842305043333334
7461784 0.8986382286666666 -0.38536065799999997
7471788 0.898232798 -0.3865589403333334
7481792 0.8977725506666667 -0.38761398199999997
