# HZ S RI R 50
5250900 0.9709608353333333 -0.11751028166666666
5260904 0.9706026316666666 -0.11880599733333334
5270908 0.9707281786666667 -0.12028853833333335
5280912 0.9705366293333334 -0.12150650966666666
5290916 0.970307986 -0.12273527433333332
5300920 0.9701246023333333 -0.12410813333333333
5310924 0.9700124463333334 -0.125399669
5320928 0.9699608086666666 -0.12670612333333334
5330932 0.9696418243333333 -0.12803788000000002
5340936 0.9696097570000001 -0.12945590433333334
5350940 0.9694701433333334 -0.13060366633333334
5360944 0.9692339896666667 -0.131916697
5370948 0.969012479 -0.13331931866666666
5380952 0.9689328273333334 -0.13458919033333333
5390956 0.9686195453333334 -0.135765826
5400960 0.9684739910000001 -0.137166525
5410964 0.9683595696666667 -0.138562153
5420968 0.968222459 -0.139774069
5430972 0.967841327 -0.14102962133333333
5440976 0.9677209653333333 -0.142436157
