# HZ S RI R 50
28010000 -0.7804343696666667 -0.42907803233333336
28020004 -0.7811935146666666 -0.4276772836666667
28030008 -0.7816776236666666 -0.4260717033333334
28040012 -0.7822219133333332 -0.424577832
28050016 -0.7828682066666666 -0.42308411
28060020 -0.7833632826666667 -0.42149327233333334
28070024 -0.7839695216666667 -0.41998312866666665
28080028 -0.7845514416666667 -0.41847661133333336
28090032 -0.7849794826666666 -0.41688994566666665
28100036 -0.7856172523333335 -0.4153952996666667
28110040 -0.7863421439999999 -0.4139067033333333
28120044 -0.7868017353333334 -0.4123627243333334
28130048 -0.7872432866666667 -0.4107810556666667
28140052 -0.7880005043333332 -0.40928485033333334
28150056 -0.7884305516666666 -0.407736967
28160060 -0.7889925043333333 -0.40616454666666674
28170064 -0.7896836003333334 -0.4046167136666667
28180068 -0.7901144626666667 -0.40310665966666664
28190072 -0.7906511226666666 -0.40153180566666663
28200076 -0.7912822366666665 -0.39992522199999997
28210080 -0.7918450436666666 -0.3984547256666667
28220084 -0.7923459213333333 -0.3969525493333333
28230088 -0.7928111953333333 -0.395287464
28240092 -0.7934191823333333 -0.393729041
28250096 -0.7939568556666666 -0.39220243700000007
28260100 -0.7943219743333333 -0.390273154
28270104 -0.7948409716666666 -0.38874954
28280108 -0.7953935066666667 -0.38727998700000005
28290112 -0.7957536576666667 -0.385674288
28300116 -0.7963929176666668 -0.38406169399999995
28310120 -0.7968941133333333 -0.38249839366666666
28320124 -0.797282358 -0.380850494
28330128 -0.7978906233333333 -0.3793821933333334
28340132 -0.798266689 -0.3775783183333334
28350136 -0.7989208696666665 -0.37628560299999997
28360140 -0.7991682886666668 -0.374440531
28370144 -0.7997927866666666 -0.37286607433333335
28380148 -0.8003116650000001 -0.3711982073333333
28390152 -0.8006795246666667 -0.369746536
28400156 -0.8011729719999999 -0.36788600666666665
28410160 -0.8017394343333333 -0.3665530283333333
28420164 -0.8021677336666667 -0.3649439513333333
28430168 -0.802669227 -0.3631903726666667
28440172 -0.803015371 -0.361382077
28450176 -0.8034092979999999 -0.36000837866666663
28460180 -0.8039298653333332 -0.35839974866666663
28470184 -0.8044395443333333 -0.3566691676666667
28480188 -0.8048972686666667 -0.35498636966666663
28490192 -0.8054238556666666 -0.3533347646666667
28500196 -0.8058750033333334 -0.351703753
28510200 -0.8062389296666667 -0.3500249086666667
28520204 -0.806649009 -0.34830903
28530208 -0.8072172803333334 -0.34665066000000005
28540212 -0.8075793583333333 -0.34506580266666664
28550216 -0.8078965743333333 -0.3432629503333333
28560220 -0.8084067903333333 -0.34157152999999996
28570224 -0.808778425 -0.3399219116666667
28580228 -0.8091342246666667 -0.33822005000000005
28590232 -0.8095155156666666 -0.33651139366666666
28600236 -0.8099107743333334 -0.33481040600000006
28610240 -0.810262084 -0.33314831066666667
28620244 -0.810661336 -0.331390967
28630248 -0.811099708 -0.32974446799999996
28640252 -0.8113331 -0.32800467800000005
28650256 -0.8115946453333334 -0.3261485
28660260 -0.8122363089999999 -0.32454030733333333
28670264 -0.81253922 -0.32290540166666665
28680268 -0.8127632736666667 -0.32115405766666666
28690272 -0.813178261 -0.31951943033333335
28700276 -0.8136181436666666 -0.3176567653333333
28710280 -0.813823978 -0.316011389
28720284 -0.8141524986666666 -0.31431598466666666
28730288 -0.814513266 -0.31243555733333334
28740292 -0.814811369 -0.310748607
28750296 -0.8149941166666667 -0.30898834266666664
28760300 -0.8155415653333334 -0.30730774
28770304 -0.81571724 -0.30557213266666666
28780308 -0.815944155 -0.303743154
28790312 -0.8163637119999999 -0.30195610733333333
28800316 -0.8166696030000001 -0.3001646
28810320 -0.8168249926666666 -0.29845369866666666
28820324 -0.8170358336666667 -0.2966353096666667
28830328 -0.8175396523333333 -0.294959992
28840332 -0.8176907896666666 -0.29311277466666663
28850336 -0.8180026210000001 -0.29131174099999996
28860340 -0.8183405796666666 -0.289526145
28870344 -0.8185519576666667 -0.28773345566666664
28880348 -0.8186942140000001 -0.28593942533333333
28890352 -0.8189596136666667 -0.28410029433333334
28900356 -0.8192680676666666 -0.2823340993333333
28910360 -0.8194243710000001 -0.280514012
28920364 -0.8197085460000001 -0.27865468466666665
28930368 -0.8199349443333334 -0.27683367333333336
28940372 -0.8199819323333334 -0.2750007313333333
28950376 -0.8203234673333334 -0.27312973133333335
28960380 -0.8204992413333333 -0.2713305053333333
28970384 -0.8207359713333333 -0.2695274746666667
28980388 -0.820866247 -0.2676068243333333
28990392 -0.820998271 -0.265731752
29000396 -0.8211981853333334 -0.26394754633333334
29010400 -0.8213560183333334 -0.26197412633333333
29020404 -0.821569721 -0.2601469456666667
29030408 -0.8217371703333334 -0.25832186133333335
29040412 -0.8218323786666666 -0.256368786
29050416 -0.8219481706666668 -0.2544811866666667
29060420 -0.8221450249999999 -0.2526183823333334
29070424 -0.8221563500000001 -0.2506992123333333
29080428 -0.822203318 -0.24876329833333333
29090432 -0.8223386009999999 -0.246903007
29100436 -0.8224844533333333 -0.24498486500000002
29110440 -0.8226049343333334 -0.24300230033333334
29120444 -0.8227333426666666 -0.24116482333333333
29130448 -0.8227618533333333 -0.23922978333333333
29140452 -0.8228921886666667 -0.237270549
29150456 -0.8229044873333334 -0.23535102600000002
29160460 -0.8229760329999999 -0.23341614
29170464 -0.8229991793333333 -0.23140312233333335
29180468 -0.8231052756666667 -0.22947859266666668
29190472 -0.8231044016666668 -0.2275312243333333
29200476 -0.8230676846666666 -0.22551811233333333
29210480 -0.823123793 -0.223589813
29220484 -0.8231479923333334 -0.22160037333333335
29230488 -0.8231140376666666 -0.21964060266666666
29240492 -0.8231274883333333 -0.21759719166666666
29250496 -0.8231151899999999 -0.21564541299999998
29260500 -0.823086798 -0.21370014566666665
29270504 -0.8230754536666667 -0.21198062066666667
29280508 -0.8231392300000001 -0.21000872533333334
29290512 -0.823104282 -0.20792230966666667
29300516 -0.8229737083333334 -0.20601679866666667
29310520 -0.822847903 -0.203896612
29320524 -0.822749774 -0.20179260766666665
29330528 -0.8226093053333333 -0.19967084133333335
29340532 -0.822495858 -0.197537124
29350536 -0.8221960466666666 -0.19555449466666666
29360540 -0.8220157423333334 -0.19346971299999996
29370544 -0.821962257 -0.1912436683333333
29380548 -0.8216059403333333 -0.18926101400000003
29390552 -0.821518163 -0.1868450296666667
29400556 -0.8211789133333333 -0.18475047266666667
29410560 -0.8210470873333334 -0.18265628333333336
29420564 -0.8207298316666667 -0.18051288033333335
29430568 -0.8204794726666668 -0.17838194966666668
29440572 -0.8201064666666666 -0.17625998966666667
29450576 -0.8199744623333333 -0.1741484653333333
29460580 -0.8195339440000001 -0.172055289
29470584 -0.8193117976666665 -0.16988034533333332
29480588 -0.8190663256666667 -0.16773922233333335
29490592 -0.8185567853333334 -0.16552350933333335
29500596 -0.8181137046666667 -0.16330502933333332
29510600 -0.8178165356666667 -0.161202674
29520604 -0.8173268239999999 -0.158960109
29530608 -0.8168053426666667 -0.15667161333333335
29540612 -0.816478014 -0.15440810733333332
29550616 -0.8159222603333333 -0.152214567
29560620 -0.815337598 -0.14995732933333333
29570624 -0.814873278 -0.147701462
29580628 -0.8142663640000002 -0.14546579599999998
29590632 -0.8136726219999999 -0.143163135
29600636 -0.813043237 -0.14085743833333333
29610640 -0.8122692106666666 -0.138508136
29620644 -0.8114884099999999 -0.13612098966666666
29630648 -0.8108496466666667 -0.13396301866666668
29640652 -0.8100448446666667 -0.13156323633333333
29650656 -0.8090971113333333 -0.12914381433333333
29660660 -0.808294197 -0.12670732533333331
29670664 -0.8073055146666667 -0.12437282999999999
29680668 -0.8062820036666668 -0.12186542666666667
29690672 -0.8053171836666667 -0.11945209933333334
