# HZ S RI R 50
3000000 -7.083350121855758e-05 -8.693647227513138e-05
3010004 -5.291218800094481e-05 -9.905391009673356e-06
3020008 -9.845653158423963e-05 -6.620940289480578e-06
3030012 -8.156372849409315e-05 -1.842695895941623e-05
3040016 -0.00012518053944530648 -7.178659340474294e-05
3050020 -1.5362498691351214e-05 -4.967248336366488e-05
3060024 -9.305848256169398e-05 -1.7836226847474602e-05
3070028 -4.1032805099262055e-05 -5.569067111857185e-05
3080032 -9.363847468218836e-05 -5.5189475823841066e-05
3090036 -0.00010448258543672376 -9.083495459882992e-05
3100040 -7.514872859854588e-05 -7.34235238840284e-05
3110044 -6.438834518142138e-07 -3.989248695471036e-05
3120048 -8.159063759941571e-05 -4.191305615447312e-05
3130052 -7.919703617260995e-05 -5.8302251187418066e-05
3140056 -4.1439780261855426e-05 -6.300437234981383e-05
3150060 -3.0195866960075227e-05 -4.406928817262553e-05
3160064 -7.131113387879329e-05 -5.428678931723132e-05
3170068 -9.527148971991568e-05 -3.898607038634476e-05
3180072 -7.653966883499068e-05 4.425819636568534e-06
3190076 -8.786468530659467e-05 3.217900523747249e-05
3200080 -7.923514111192263e-05 -6.754780511608316e-06
3210084 -7.947305405011186e-05 -1.3142453182713478e-05
3220088 -0.00010580447909053378 -6.750335882545014e-05
3230092 -7.21232695920156e-05 -2.3317451843434305e-05
3240096 -2.259678482937872e-05 5.425320480330847e-06
3250100 -6.389605867099425e-05 -3.981829020287081e-05
3260104 -8.589727615856995e-05 -5.6599956104197216e-05
3270108 -9.163630573946347e-05 -4.565678056270375e-05
3280112 -9.421738691964923e-05 -3.322249224101283e-05
3290116 -1.7851870833291642e-05 -0.00010284985296987872
3300120 -5.903908594910347e-05 1.161892208828269e-05
3310124 -4.380993289904195e-05 -2.7540541496878726e-05
3320128 -7.711580124696507e-05 -3.0075438925308845e-05
3330132 -6.867185174024403e-05 -0.00012925464355882172
3340136 -5.654659334944979e-05 -4.4008876098375815e-05
3350140 -9.71002987635967e-05 -4.5545941791746794e-05
3360144 -7.300545531254645e-05 1.7305347980408223e-05
3370148 -0.00011794342024500678 -4.4717961335831055e-05
3380152 -0.00010907520377941537 -5.475470609018201e-05
3390156 -4.842259194725939e-05 -5.416072452394018e-05
3400160 1.4386663910936568e-05 -5.920927242444748e-05
3410164 -2.35928001271221e-05 -4.6926685014749234e-05
3420168 -7.472085716676609e-05 -1.0812384604642746e-05
3430172 -6.182278969735501e-05 -6.0124964485619885e-05
3440176 -4.27775321233879e-05 -2.7720964600114243e-05
3450180 -5.909304455745474e-05 -4.540322507815236e-05
3460184 -8.930026279067404e-05 -5.2168523414621215e-05
3470188 -2.799242529439797e-05 -6.414451069931068e-05
3480192 -8.229803999474051e-05 -3.206288702605208e-05
3490196 -7.889836958710299e-05 -3.794262269017651e-05
3500200 -3.323140370175076e-05 -4.1196071659508124e-05
3510204 -9.75142941648049e-05 -6.537826106180416e-05
3520208 -8.97894379338604e-06 -5.583050869779537e-05
3530212 -7.262932117343542e-05 -4.1712317244392556e-05
3540216 -2.6921793738430246e-05 -8.497466417763267e-05
3550220 -5.606089969108042e-05 -4.1298110505971395e-05
3560224 -7.368063742111837e-05 -2.4283716925436834e-05
3570228 -2.010380572237989e-05 -6.431035635093971e-05
3580232 -1.3441544311613855e-05 -2.5986629370073213e-05
3590236 -1.1751946701488764e-05 -1.903811732106658e-05
3600240 -5.96048129648361e-05 -2.3754698072887245e-05
3610244 -4.5602754442812607e-05 -2.0555996607817528e-05
3620248 -2.532800388660962e-05 -4.8685470444927574e-05
3630252 -5.013683854323852e-05 -3.6122347544164154e-05
3640256 -3.680608554716335e-05 -1.5382166773117115e-05
3650260 -5.8987736488838905e-05 -2.886038077120667e-05
3660264 -4.881781460473735e-05 -9.35393179328182e-05
3670268 -8.987417176539157e-05 -8.242054510456863e-06
3680272 -6.69444731940543e-05 -3.142472727063455e-05
3690276 -7.693230328801572e-05 -2.5434710142265878e-05
3700280 -3.51476206390201e-05 -4.020595882492746e-05
3710284 -2.9602546981775753e-05 -8.039474740507773e-05
3720288 -7.826452298428485e-05 -6.216058500989776e-05
3730292 -7.282280867393194e-05 -9.435525588685211e-05
3740296 -4.8648104571648716e-05 -9.732322560500635e-05
3750300 -7.768037947121312e-05 -4.534763111673405e-05
3760304 -6.597249255489577e-05 -3.5838483000797355e-05
3770308 -2.8880021287214055e-05 -4.2672282464500304e-05
3780312 -6.826101364008066e-05 -6.411022071096313e-05
3790316 -4.4043780664015086e-05 -0.0001078033138691997
3800320 -9.426066100847493e-05 -5.261246784721283e-05
3810324 -0.00010692997967601656 -6.616994270630084e-05
3820328 -3.6745348208908445e-05 -3.9166327057786734e-05
3830332 -5.8366351255795924e-05 -5.9365899069452484e-05
3840336 -6.61209939472381e-05 4.045525169099387e-06
3850340 -8.33441077440057e-05 -6.106844067964985e-05
3860344 -8.731186639140413e-05 -4.981058360177828e-06
3870348 -7.687702580898574e-05 -7.291499716373558e-05
3880352 -2.7867798443604665e-05 -8.609480816255793e-05
3890356 -0.00010194782791142421 -3.156541985279462e-05
3900360 -9.556395228196164e-05 -0.0001401167397476697
3910364 -0.00012864977901875483 -9.048534808534908e-05
3920368 -8.143847871036456e-05 -4.6319615799257684e-05
3930372 -6.043192840440181e-05 -0.00010275863291319782
3940376 -3.3932268882628e-05 -9.574694512063426e-05
3950380 -8.636056567267287e-05 -3.959071437849412e-05
3960384 -4.377357516580911e-05 -7.609538102308603e-05
3970388 -3.727705735689554e-05 -9.044701687658384e-05
3980392 -7.196265163595848e-05 -7.12258070652472e-05
3990396 -6.286291561144184e-05 -5.926459407407578e-05
4000400 7.818477574989463e-06 -1.3447234875558937e-05
4010404 -4.0373202682716504e-05 -7.260165073829407e-05
4020408 -3.930833768652556e-05 -6.484315501098957e-05
4030412 -3.475316357240559e-05 -2.104451698738488e-05
4040416 -8.938701509349578e-05 -1.1496102979780858e-06
4050420 -9.44775309704904e-05 -4.5333836652159216e-05
4060424 -6.849977152230791e-05 -6.102527715290473e-05
4070428 -1.8801010020309535e-05 -7.51249807692003e-06
4080432 -4.2604857643920144e-05 -7.199137332297939e-05
4090436 -3.639165455228634e-05 -5.021495179809902e-05
4100440 -6.305191411276605e-05 -2.484837546788336e-05
4110444 -2.0789726601256434e-05 -8.213799855560297e-07
4120448 -5.9811955749613655e-05 -3.592143463982371e-05
4130452 -6.536283802016512e-05 -0.00012801155976189092
4140456 -5.188640456347508e-05 -5.249037383004018e-05
4150460 -4.659653016175193e-05 -1.94166158744593e-05
4160464 -2.80101423027852e-05 -2.6305038305784447e-05
4170468 -6.905303021799307e-05 -8.812159518569697e-05
4180472 -5.100793259570651e-05 -5.222726415135311e-05
4190476 -7.244999938830116e-05 -3.881581574211996e-05
4200480 -7.626487796731682e-05 -4.753545811172064e-05
4210484 -7.665446020061368e-05 -5.551108318618768e-05
4220488 -0.0001031211232255881 -6.72146530286945e-05
4230492 -2.2830327330869193e-05 -2.6383623039259234e-05
4240496 -0.00011180361991179292 -3.4930330154420234e-05
4250500 -5.028290547243045e-05 -5.892779311048295e-05
4260504 -3.0033069809485255e-05 -6.240381331355561e-05
4270508 -7.424591472194098e-05 -1.4911044448195599e-05
4280512 -3.811650427385038e-05 -4.869127601195355e-05
4290516 -4.147647295194977e-05 -4.858982162053164e-05
4300520 -7.435440995870365e-05 -8.063800803658104e-05
4310524 -5.562685135504334e-05 -7.844918515365324e-05
4320528 -7.698621572728929e-05 -3.172832228713514e-05
4330532 -4.045400898071551e-05 -8.119757264103128e-05
4340536 -8.720384879452185e-05 -1.3432760262450528e-05
4350540 -6.495537214074502e-05 2.5619651016847184e-05
4360544 -4.0112800347701793e-05 -7.446257553933878e-05
4370548 -9.110158094466068e-05 9.398463370209179e-07
4380552 -9.712611662523648e-05 -5.431014351891505e-05
4390556 -1.7995120744394846e-06 -7.722936468738477e-05
4400560 -5.271928228875177e-05 -8.616939712933256e-05
4410564 -4.480262691491513e-05 -5.540555142838694e-05
4420568 -5.176140753999824e-05 -6.43496642606635e-05
4430572 -0.0001099175929394593 -4.655853051026099e-05
4440576 -7.093308471673758e-05 -6.917283199860858e-05
4450580 -9.59035800683602e-05 -6.562925231723638e-05
4460584 -6.84225877948904e-05 -6.619651254110256e-05
4470588 -5.603339819704813e-05 -5.038859255690085e-05
4480592 -8.162698558382432e-05 -2.2662381461380554e-05
4490596 -4.8643683915230555e-05 -4.7472899454779336e-05
4500600 -6.62682841578958e-05 -8.73756105475551e-05
4510604 -7.430400320799256e-05 -9.984720698090154e-05
4520608 -4.9629432775735186e-05 -2.7051435203800097e-05
4530612 -8.036082341869552e-05 -1.0574167336505505e-05
4540616 -5.515091822264357e-05 -8.62758956679171e-05
4550620 -5.489845717946532e-05 -3.508084937084526e-05
4560624 -2.5309342644898963e-05 -5.6451371552624814e-05
4570628 -4.8574251460755416e-05 -2.743372551928076e-05
4580632 -6.231126486481263e-05 -4.352824878622038e-05
4590636 -4.960501553829087e-05 -4.68704285229458e-05
4600640 -3.902886464489943e-05 -2.2567763654571347e-05
4610644 -4.769366690068677e-05 1.0898691960011379e-05
4620648 -6.326096971125474e-05 -3.6420585557442575e-05
4630652 -7.198463178928164e-05 -7.796518008556139e-05
4640656 -6.988411786087714e-05 -2.510187366940735e-05
4650660 -8.180459551750169e-06 -7.569831191486357e-05
4660664 -8.516676461419732e-05 -2.0761419602777556e-05
4670668 -5.8916573123463276e-05 -6.24115111061161e-05
4680672 -6.922316187460732e-05 -0.0001119446403857219
4690676 -6.217899111412946e-05 -2.2325100942597197e-05
4700680 -4.7825676442907605e-05 5.875270196028245e-06
4710684 -2.9405933355228125e-05 -9.474066670758494e-05
4720688 -6.052740983917926e-05 -6.271691870731366e-05
4730692 -2.813951373864513e-05 -6.832107060032618e-05
4740696 -4.21939639556021e-05 -5.193370367390679e-05
4750700 -5.6098504840562845e-05 -3.956813934690399e-05
4760704 -5.645425572817134e-05 -0.00010077469295339072
4770708 -8.016957772219118e-05 -4.9587398165546084e-05
4780712 -2.737426780089145e-05 -2.7205698434711048e-05
4790716 -8.41717563295118e-05 -1.7715478901279413e-06
4800720 -2.968477101121146e-05 -7.130670275666337e-05
4810724 -6.289004874893511e-05 -6.399141335810297e-05
4820728 -4.4640506831709203e-05 -6.388910771868122e-05
4830732 -3.5852112396790526e-05 -1.056418196521753e-05
4840736 -7.292513530458914e-05 -3.9050164070502377e-05
4850740 5.519687249521758e-06 -3.6065057604718245e-05
4860744 -6.23447464891451e-05 -4.525227767884043e-05
4870748 -5.157385983577111e-05 -1.2373463445731249e-05
4880752 -0.00012363030374107893 -6.05045284428803e-05
4890756 -8.648834615624239e-05 -5.184178334683944e-05
4900760 -6.689916766755697e-05 -5.102731720322836e-05
4910764 -1.3124915305586172e-05 -2.9813042729880836e-05
4920768 -5.152261627799571e-05 -2.6404270782601745e-05
4930772 -2.0233197778382e-05 -1.1722447343427145e-05
4940776 -7.741112989095443e-05 -3.454466292798368e-05
4950780 -1.5920435764631766e-05 -4.4801413373649276e-05
4960784 -3.589924200002882e-05 -5.036424663683577e-05
4970788 -2.3775915023538312e-05 -2.128125216276981e-05
4980792 -9.181005616025187e-05 -6.208496051220508e-05
4990796 -7.21866635642225e-05 -3.279121130642474e-05
5000800 -5.624940778563798e-05 -5.749677750297251e-05
5010804 -7.707511555251485e-05 -0.00010371489904478765
5020808 -4.2677522905363105e-05 -6.0016622485375836e-05
5030812 -9.433923215437724e-05 -0.00011999462174664063
5040816 -7.592522339802382e-05 -5.122764259023287e-05
5050820 -0.00010468762441582902 -2.4212273660177328e-05
5060824 -6.262740829456551e-05 -5.171955259703151e-05
5070828 -1.6657227338135787e-05 -4.3826192530989304e-05
5080832 -5.7601162707742285e-05 -7.440767675294239e-05
5090836 -5.687002579458332e-05 -8.0574513603757e-05
5100840 -3.3117221974190454e-05 -2.5294356869346078e-05
5110844 -4.355269989284781e-05 -6.949506429607129e-05
5120848 -6.107385237525347e-05 -6.920228043759627e-05
5130852 -6.11006182096459e-05 -3.596648213781064e-05
5140856 -8.386142560809165e-05 -6.774454307667211e-05
5150860 -4.8839265401572855e-05 -6.530714646415166e-05
5160864 -0.00010278459196551621 -8.44177095110479e-05
5170868 -8.485333540699808e-05 -6.167747598427302e-05
5180872 -0.00011218829633711367 -4.1694212697461394e-05
5190876 -3.463012835085372e-05 -6.697438968807726e-05
5200880 -5.764433382257945e-05 -5.7219655917622295e-05
5210884 -6.132710809819327e-05 -3.1199994812479935e-05
5220888 -5.963619872972921e-05 2.843447332833476e-05
5230892 -9.415119086865207e-05 -1.6783703227492668e-05
5240896 -3.9362415390529015e-05 -1.883594050890153e-05
5250900 -3.778465739502714e-05 -2.735322577208205e-06
5260904 -6.26032127628137e-05 -5.009769367709964e-05
5270908 -3.419327434919804e-05 -5.368934531658547e-05
5280912 -5.990192129504465e-05 -2.1425278636584856e-05
5290916 -3.9388957851361625e-05 -4.686725130286138e-05
5300920 -0.00013175746153394922 -2.7276851202870586e-06
5310924 -9.363057076614773e-05 -4.634816750609451e-05
5320928 -2.677694081729973e-05 -8.385310445888158e-05
5330932 -5.704464540274834e-05 -5.977615504947366e-05
5340936 -0.0001013811553081786 -4.6887744398854685e-05
5350940 -0.00011364240904889039 -4.933741805329469e-05
5360944 -5.5775620699724766e-05 -2.2852094449787913e-05
5370948 -2.371189974843988e-05 -5.725148002022466e-05
5380952 -7.585897462409087e-05 -0.00010654836419264831
5390956 -3.9792322848606343e-05 -6.160512486162533e-05
5400960 -7.334905533525528e-05 -6.51594299903535e-05
5410964 -5.2967030901397356e-05 -3.088391291494867e-05
5420968 -4.844394626086784e-05 -2.2186369039911688e-05
5430972 -9.004251026385935e-05 -2.9047408149826706e-05
5440976 -8.110275368549529e-05 -5.4754113691910695e-05
5450980 -7.399355034939199e-05 -4.525539883677858e-05
5460984 -6.286442761190864e-05 -4.053510174102683e-05
5470988 -3.27220430219905e-06 -5.810382025270023e-05
5480992 -4.996426632193933e-05 -5.754340818362939e-05
5490996 -5.987021868213537e-05 -8.19664209214166e-05
5501000 -7.412116263627015e-05 -7.930719087919257e-05
5511004 -3.7403844440322146e-05 -9.083225169435937e-05
5521008 -7.748232410817601e-05 -8.052827550172027e-05
5531012 -0.00010592346078458385 -7.192614831948286e-05
5541016 -7.801840897829045e-05 -2.7822791768605607e-05
5551020 -3.8165961934248664e-05 -3.185866476182622e-05
5561024 -8.079870020248109e-05 -9.194752457374389e-05
5571028 -1.950167564523253e-05 -2.982584065467185e-05
5581032 -3.880624623071334e-05 -1.2619217637801824e-05
5591036 -4.043495317840267e-05 -3.273333967683639e-05
5601040 -2.632419130839218e-05 -0.00010198570141008219
5611044 -7.616231727916558e-05 -7.331035492514009e-05
5621048 -9.73300957231282e-06 -9.512643344404506e-05
5631052 -2.7364525604247552e-05 -8.283021119075139e-05
5641056 1.9278778673566824e-07 -0.00011565401410150236
5651060 -6.480076744502867e-05 -3.269539804910253e-05
5661064 -7.974485793812953e-05 -5.04225226985322e-05
5671068 -4.7718451037288227e-05 -5.019675963271058e-05
5681072 -9.034872749437347e-05 -3.989236685021978e-05
5691076 -5.011295535319286e-05 -6.688770910895009e-05
5701080 -9.867490725587854e-05 -4.4744080483225055e-05
5711084 -6.353809865178039e-05 -5.5406851798215015e-05
5721088 -4.22411674703608e-05 -3.266247813620738e-05
5731092 -2.682239164549992e-05 -4.366466564283401e-05
5741096 -1.4284945019208453e-05 -1.043702971605572e-05
5751100 4.4013009213722904e-05 -4.9349343081736724e-05
5761104 -6.600694076837438e-05 -0.00011654855038467341
5771108 -6.63734207241383e-05 -2.4995056490991196e-05
5781112 -3.253715349333429e-05 3.9480955632948535e-05
5791116 -3.554173423161267e-05 -2.9775850400522067e-05
5801120 -5.572734284091361e-05 -6.466931033081827e-05
5811124 -9.405316201576071e-05 -1.2914073854182846e-05
5821128 -6.514304660170139e-05 9.021070292378116e-06
5831132 -1.0666064910031315e-05 -3.3772871800101356e-05
5841136 -2.2292939634863664e-05 -0.000118162448689984
5851140 -3.323995523097886e-05 -6.396062524378098e-05
5861144 -7.84889547628407e-05 -5.9179054367276045e-05
5871148 -1.992744118941368e-05 3.986857956362991e-05
5881152 -8.186492926576314e-05 -7.770878332497317e-05
5891156 -2.498051652988736e-06 -5.611000631698311e-05
5901160 -6.0037989610183447e-05 -5.042946202225011e-05
5911164 -9.493518483749246e-05 -4.7375834817039566e-05
5921168 5.068099073665563e-06 -3.4194884739960295e-05
5931172 -0.00012343682605872188 -6.046362203890217e-05
5941176 -5.6796308576346797e-05 -4.994384752685066e-05
5951180 -7.047259219400186e-05 -5.610994894869008e-05
5961184 -8.860898830476126e-06 -4.1439204362833446e-05
5971188 -5.706582511237811e-05 -7.370993339277347e-05
5981192 -9.07829928995567e-05 -5.991359605592681e-05
5991196 1.9194925284378647e-05 -6.153577996543427e-05
6001200 -0.00010381947287941114 -8.502813382933859e-05
6011204 -7.77185018137048e-05 -7.513290802925643e-05
6021208 -5.6930179707736104e-05 -6.782940544055362e-05
6031212 -6.73000241751311e-05 -2.1486786091164835e-05
6041216 -0.00010440884675741434 -6.779492050564807e-05
6051220 -8.816727742767675e-05 -2.7392888924260543e-05
6061224 -7.080242054148299e-05 -2.719300954743993e-05
6071228 -4.462442472091962e-05 -2.3516638328168602e-05
6081232 -8.942504321088473e-05 -5.950354325508153e-05
6091236 -6.181295501577071e-05 -2.3324323021824162e-05
6101240 -2.7945652139228087e-05 -4.7197035164267544e-05
6111244 -7.74244123912092e-05 -4.111886905108175e-06
6121248 -5.95205532068421e-05 -2.735790748301295e-05
6131252 -0.00010055756524316652 -8.566509619137542e-05
6141256 -2.9538083062124792e-05 -6.967289161514759e-05
6151260 -5.01854680447036e-05 -1.2869750261350518e-05
6161264 3.207248609116778e-06 -9.115466016916928e-05
6171268 -5.953277300300916e-05 -1.5270009510645328e-05
6181272 -0.00011705361770302686 -3.417153082564421e-05
6191276 -2.6540877730704918e-05 -5.2599351093213864e-05
6201280 -2.2876737728973517e-05 -2.9815216014432038e-05
6211284 -4.898954157994796e-05 -4.4158467758037666e-05
6221288 -8.613451463856788e-05 -8.350988926163798e-05
6231292 -5.676657051974699e-05 -8.560549087165698e-05
6241296 -7.549800252868405e-05 1.807257366888293e-05
6251300 -4.907576762118958e-05 -2.655837179410982e-05
6261304 -3.987751219906595e-05 -4.2898824060124535e-05
6271308 7.983975214156691e-07 -4.4042781561546455e-05
6281312 -1.5124722074624786e-05 -3.288288918653364e-05
6291316 -7.829963644036554e-05 -5.513799492658918e-05
6301320 -1.5184144643813293e-05 -7.268476834539666e-05
6311324 -9.844492912250874e-05 -7.615358454125108e-05
6321328 -2.183009834300793e-05 -2.5631179080411574e-05
6331332 -6.799954160206862e-05 -1.9302254258406307e-05
6341336 -0.00011502479948675692 -2.5107585054926572e-05
6351340 -8.203813032089074e-06 -2.536221688478534e-05
6361344 -9.749549080932728e-05 -2.248801408469196e-05
6371348 -4.43432353863082e-05 -5.6121934681966374e-05
6381352 -8.52629724852785e-05 1.938527104699994e-05
6391356 -1.784980503328281e-05 -6.874957184910721e-05
6401360 -4.5025715971262465e-05 -1.857844922463328e-05
6411364 -5.179652890501177e-05 -8.780081082739754e-05
6421368 -2.743597034517874e-05 -9.341137102051374e-05
6431372 -0.0001050425704763264 -3.9692220649215694e-05
6441376 -2.4576530848249103e-05 -6.601075257307271e-05
6451380 -4.941659087301862e-05 -3.5542425439844425e-05
6461384 -2.6927845466935467e-05 -1.9494853723788444e-05
6471388 -8.649190819926605e-05 -7.59192488816835e-05
6481392 -6.832637178751071e-05 -4.250136576574055e-05
6491396 -3.463102655687438e-05 -4.7100902259740235e-05
6501400 -5.7876383370461176e-05 -0.00010164534023164577
6511404 -5.242510680103562e-05 -4.660343333076257e-06
6521408 -9.443716272755663e-05 -2.030218007152337e-05
6531412 -7.486260632132449e-05 -2.6095912966496182e-05
6541416 -7.54519326715077e-05 -4.1723667727913835e-05
6551420 -2.7890155737688688e-05 -5.1972769250441446e-05
6561424 -6.713900197532745e-05 -7.656739335036259e-05
6571428 -6.772278892814608e-05 -6.767976937011193e-05
6581432 -3.892767744389804e-05 -3.842295405027916e-06
6591436 -4.377837643586712e-05 -5.166411460342225e-05
6601440 -5.024421544231901e-06 5.580525234310159e-06
6611444 -2.760683801581332e-05 -3.362321155316999e-05
6621448 -1.2341728451953747e-05 -8.97081366531552e-07
6631452 -6.831764155418024e-05 -2.9449579150978337e-06
6641456 -4.148417768273836e-05 -7.273491814758102e-05
6651460 -4.8008396437062856e-05 -6.733511315749285e-05
6661464 -9.624376298241415e-05 -3.49392342388744e-05
