# HZ S RI R 50
3000000 1.0005437170347735 0.0002853550150654372
3010004 0.9996115177440232 0.0001649269219542578
3020008 0.999780274949677 0.0001011872557364484
3030012 0.999591396543968 0.00014530597461661824
3040016 0.9995932529548304 0.00014800194171678838
3050020 0.9997566600682279 0.00015739982482336316
3060024 0.9997303535326209 0.0002199463773609363
3070028 0.9997314074714363 0.00016122377359968295
3080032 0.9995820528946638 0.00011567647636686172
3090036 0.9996856683009395 0.00016022905300174797
3100040 0.9999247334076898 0.00014347730150368886
3110044 0.9997172448584686 0.00019965333047603732
3120048 0.9996036752123846 6.484742222223817e-05
3130052 0.9996488933563132 0.00015224949128655291
3140056 0.9997563845179538 0.00020578728430374502
3150060 0.9996758746867178 0.00013505067495790554
3160064 0.9998392936122845 6.857401359363506e-05
3170068 0.9998756677237581 0.00020202060139955716
3180072 0.9997246748944494 0.00021503717466867436
3190076 0.999656905624208 0.00012450861715933759
3200080 0.9998440621764589 0.00019351054654512457
3210084 0.9996345166595537 8.570867548209452e-05
3220088 0.9998954269620088 0.0001400643761372651
3230092 0.999621140641472 0.0001979534136588127
3240096 0.9998725197952378 0.00022170199239708553
3250100 0.9996630250377349 0.00018944540385347193
3260104 0.9998257441018026 -2.599751097181922e-05
3270108 0.9999344683427913 9.635543982217336e-05
3280112 0.9997417808187066 0.00024569803726057763
3290116 0.9994660053032397 0.00015004218023433825
3300120 0.9996660310786701 0.0001004599413466233
3310124 0.9997312268340753 0.00011015906379130117
3320128 0.9997842596190303 5.6000201518199845e-05
3330132 0.999781877368164 7.102895232228776e-05
3340136 0.9999474029791312 0.00021859211940028115
3350140 0.9996195030695856 0.0002423542414402671
3360144 1.0001022718719181 7.855745079094143e-05
3370148 0.9997501657270107 0.0002450774720832273
3380152 0.9996947521678253 0.00024462302218492216
3390156 0.9997190526346114 0.00012307549782352784
3400160 0.9997928817739248 0.00013696390260169167
3410164 0.9999320603694727 0.00028383810516157955
3420168 0.9994978081677895 0.0002238710953127568
3430172 0.9999004613440003 5.722015081776853e-06
3440176 0.999869231325374 0.00019512631008041198
3450180 0.9997894186828699 0.00023065108757205
3460184 0.9999402747253711 0.00011422229940575912
3470188 0.9998105488673985 9.6450587733271e-05
3480192 0.9997308049878978 0.00023272227957559449
3490196 0.9994911938121399 0.00023972095030554797
3500200 0.9996790340215156 0.00012364291030623033
3510204 0.999881176317831 0.00016101080351778804
3520208 0.9996547837702358 0.00030037621766572365
3530212 0.9996698979112452 0.00011834388788871333
3540216 0.9997292545533577 0.0001513868152333101
3550220 0.999787936843629 0.00024857591028246004
3560224 0.9997970943747718 0.00015090149687076979
3570228 0.9997511279153359 0.00011229228131109138
3580232 0.9998484394663327 0.00026740138406822136
3590236 0.9997488726676121 0.00024080223850016688
3600240 0.9996741043719045 6.912405479518817e-05
3610244 0.9997666531004682 7.216107768559647e-05
3620248 0.9996229826527914 0.0001909579268215447
3630252 0.9996537297909748 0.00011823994196477794
3640256 0.9996709930850195 0.00011968406635263324
3650260 0.9997922558908832 0.00017748128989297684
3660264 0.9995710449584269 0.00015681575346612126
3670268 0.9995812447994296 9.368305823994092e-05
3680272 0.9996734377744338 0.00022307226805729494
3690276 0.9997079822099737 0.0002696076851729875
3700280 0.9996322963831734 9.852985664827226e-05
3710284 0.9996271580726844 0.00025735590130895945
3720288 0.9997264428186124 0.00021231717536356957
3730292 0.9996475972177914 0.00015625657581607079
3740296 0.9998074452608261 0.00012476306711196473
3750300 0.9996948715213303 0.000138017641690599
3760304 0.9996605353644336 0.00016203660829308865
3770308 0.9998076766149305 6.827491975873901e-05
3780312 0.9997318089148151 0.0002331396910230811
3790316 0.9994189592175945 0.00019011315030819916
3800320 0.9998140338178559 8.96906724037719e-05
3810324 0.9997621516201314 0.00032026152615832347
3820328 0.9996066872810635 0.00025137804946759
3830332 0.9995725295529154 9.734858229982337e-05
3840336 0.9999474225159248 0.00011066965140735736
3850340 0.9997640302858367 0.00028162925256575453
3860344 0.9996469819444488 0.00025799621085183006
3870348 0.9998219977064826 1.84756241090907e-07
3880352 0.999934672701748 0.00011780047681899954
3890356 0.9997242968286905 0.0003057029168352331
3900360 0.9996234539582338 0.0001785384341482103
3910364 0.999842885394341 -3.9598548674505104e-05
3920368 0.9998137628898399 0.00023794108680714454
3930372 0.9996279643023515 0.0002443464503090191
3940376 0.9997923014318318 5.257189048188733e-05
3950380 0.9997410382080977 0.0002002841531358971
3960384 0.999728704589889 0.00019831484243089764
3970388 0.9995657521131388 7.810565874706345e-05
3980392 0.9997147111062519 0.00023713744221883
3990396 0.9995994636724248 0.00033835385567393704
4000400 0.999535913835169 9.692291625932924e-05
4010404 0.998882513283972 0.00013811540241955088
4020408 0.9994564089482765 0.0002704216106244983
4030412 0.9996703564743513 0.000273418774051806
4040416 0.999704936249897 0.00017540886734737488
4050420 0.9996896750375905 0.00016295047020212328
4060424 0.9997344340296753 0.00023672287643147167
4070428 0.9996392870458292 0.0003221096406613844
4080432 0.9996340789293903 0.0002935799737974066
4090436 0.9997124096119145 0.00022699817232208643
4100440 0.9997912053217475 7.758819626095367e-05
4110444 0.9996034623681317 0.0002415760187555486
4120448 0.9993508705848345 0.00023581988416998136
4130452 0.9995251206693161 0.00012088053570633144
4140456 0.9994551981378732 0.0003340721916660335
4150460 0.999525929393341 0.0002920846150719487
4160464 0.9994599885428666 0.00022181159608936326
4170468 0.999555730925054 8.974982293756819e-05
4180472 0.999650924339687 0.0002669529183323214
4190476 0.9995557785799737 0.0002803629499900202
4200480 0.9994028483028423 0.00036142020082327147
4210484 0.9995259249426778 0.00027129403394436945
4220488 0.9996476413697302 0.0001706683611371044
4230492 0.9997070486559929 0.00017117312980048492
4240496 0.9997170974131387 0.0002959959391482483
4250500 0.9996347276903575 0.00027206528824770976
4260504 0.9994446718244432 0.00019185694797205504
4270508 0.9996940881776369 5.881279858051795e-05
4280512 0.9995567849550802 0.0002994639797037759
4290516 0.999439391781102 0.0003710712206177255
4300520 0.999440544213816 0.00015484511765818257
4310524 0.9995400116065785 0.00021561397700735032
4320528 0.9995363441859383 0.0002576259116602399
4330532 0.9996875436029499 0.00017149571846934567
4340536 0.9996939209328787 0.0002241598376024575
4350540 0.9996082362645825 0.00034879518299125415
4360544 0.9995176373837524 0.00023994938999890574
4370548 0.9997355161429882 4.608401820924952e-05
4380552 0.9996846583560979 0.0003009895460539236
4390556 0.9996220922225948 0.0002815525006394704
4400560 0.9993783153036083 0.0002837047994930333
4410564 0.9997673478251697 0.000204944539562404
4420568 0.9996178284464783 0.00029794597099110136
4430572 0.999777446318259 0.00019238698335898136
4440576 0.999688700856931 0.00018639367690450877
4450580 0.9997458465347766 0.0002938157937502166
4460584 0.999581817643677 0.00031423161780729924
4470588 0.9994664476249924 0.00018802052940238977
4480592 0.9996526670762261 0.00020531976518962404
4490596 0.9996249581712041 0.0003104581925803652
4500600 0.999544644212802 0.00012614318482582796
4510604 0.9996635055955382 0.00021692070959302245
4520608 0.9996431318385928 0.00025325979775053445
4530612 0.9995036644489219 0.0002117576662155987
4540616 0.9996063525279247 0.00018505732734245425
4550620 0.9998362250603113 0.00018742173987533982
4560624 0.9997508193150746 0.00027575442888694827
4570628 0.9996889699494921 0.00021314660782830762
4580632 0.9997720382706978 0.00015146297348573353
4590636 0.9996075797966821 0.0002503592765384931
4600640 0.9996860639402396 6.033997631769192e-05
4610644 0.9998411255181237 0.0002256833296141309
4620648 0.9998063317965777 0.00039056973046175424
4630652 0.9996071300238571 0.00016294064471098998
4640656 0.9997329606469241 4.107493457190289e-05
4650660 0.9995177830862644 0.00030040074443810847
4660664 0.9995126366134436 0.00021228641796075648
4670668 0.9995307621488565 0.00022287235356083942
4680672 0.9996868063508907 0.0003034961567928374
4690676 0.999561122881892 0.0003290895718899329
4700680 0.9996158914908582 0.00017155522682482178
4710684 0.9998346403762052 0.00018989461782646842
4720688 0.9996305560272705 0.000396645625793119
4730692 0.9995462154351902 0.00018298155950810817
4740696 0.9995869062143607 0.00018530860697752135
4750700 0.9996666543105002 0.0002882883817104532
4760704 0.9996847594565336 0.00016380551709257383
4770708 0.999727181489031 0.00011565570180070157
4780712 0.9998886982180987 0.0003004155276962781
4790716 0.9995089736121938 0.0002857096414507306
4800720 0.9994767723059244 0.00019159080738021553
4810724 0.999765597619402 0.0002693693933588622
4820728 0.9995298793911241 0.0002988906014131035
4830732 0.9994868194655462 0.0001620667151781268
4840736 0.9997908742238961 0.00022562907611426661
4850740 0.9998098164722581 0.00034061474045165327
4860744 0.9994877541515398 0.0001865097648397454
4870748 0.9997167638265185 0.00011737624213809666
4880752 0.9998810529507528 0.0002664178283573142
4890756 0.9995712725312312 0.00037096291822003464
4900760 0.9995842119531896 0.00015674176039245504
4910764 0.9996700867269291 0.00023908813697461892
4920768 0.9995201056684851 0.00026174583053220293
4930772 0.9997118254231674 8.134391243337531e-05
4940776 0.9995727278707124 0.00030877737733332473
4950780 0.9996713576396369 0.000273192187593922
4960784 0.9994670002635889 0.0001565319315501573
4970788 0.9997471532007075 0.0002117485702216271
4980792 0.9996530137146711 0.0003765440649700881
4990796 0.9996342919491544 0.00024106699624730445
5000800 0.9996076784765158 9.63606555732834e-05
5010804 0.9997774321486916 0.0003384673042239283
5020808 1.000091242303606 0.00030359266642323603
5030812 0.9995904723598196 0.00038631795408262774
5040816 0.9993526881581551 0.00022339216610187376
5050820 0.9995697090094029 8.304359685119847e-05
5060824 0.9996843144388942 0.00024224722789878148
5070828 0.9996821412045676 0.00026790623433749726
5080832 0.9994807638427126 0.00025131546348711387
5090836 0.9996207218983403 0.00021311662888068856
5100840 0.9996556256713539 0.0004191308419776665
5110844 0.9995025393204199 0.00020009449271031124
5120848 0.9996465425379222 0.0001731525336495698
5130852 0.9996234730931056 0.00037143238453050183
5140856 0.9995257796788034 0.00044260192870333183
5150860 0.9994914349383277 0.00019292507925300486
5160864 0.9996139660678115 0.00011784052841158106
5170868 0.9996329988760623 0.0003052547378709294
5180872 0.9996369061173882 0.0002114324331212263
5190876 0.9996416824213632 0.00016418691726510993
5200880 0.999681473806689 0.00028756883249314
5210884 0.9994755630412495 0.0003627997439917331
5220888 0.9993821035658494 0.00017511419377342095
5230892 0.9998173495191044 0.00014488901610065658
5240896 0.9996235711874787 0.0003444260916478126
5250900 0.9994654964911583 0.0002885412120428864
5260904 0.9995552532509366 8.520847987266403e-05
5270908 0.9995573781601397 0.0002596229717916842
5280912 0.9995506303126825 0.0001817442726751526
5290916 0.9996906719062775 0.0002391382703844145
5300920 0.9997832982433381 0.00023853328408073376
5310924 0.999550698709684 0.00026871238938329107
5320928 0.9994545086306404 0.0001710272119725079
5330932 0.9997545399500423 0.000224474185940232
5340936 0.9997122879725774 0.0002674096316826489
5350940 0.999640190013486 0.00019119518457629724
5360944 0.999675682660907 0.0003374838768899312
5370948 0.9995427866762678 0.00019572032623103535
5380952 0.9995253092326779 0.00020494276673847764
5390956 0.9996071372587181 0.00017434520794145286
5400960 0.9995572122342737 0.0003669949721862999
5410964 0.9994946352457185 0.0002446793339429786
5420968 0.9995383968845026 0.00019862920001635873
5430972 0.9996276260278568 0.00029272495129599164
5440976 0.9995373853558146 0.0002743863247062465
5450980 0.999522658292718 0.00013056563346806256
5460984 0.9997339304770886 0.00025056920287156505
5470988 0.9994163843247929 0.0003219926600460536
5480992 0.9993511587051186 0.00015334609595779133
5490996 0.9996133891584005 0.00022232939500262558
5501000 0.9996521215948236 0.0002185643327035754
5511004 0.999539881739375 0.00023893729620815812
5521008 0.9997366535747925 0.00022425926275408204
5531012 0.9994924283224268 0.0003896561548980518
5541016 0.9996037309034836 9.815898124341624e-05
5551020 0.9996068477180279 0.00014203731700911733
5561024 0.9996116111391891 0.00029526518398404573
5571028 0.9996910613523848 0.00028751205530153415
5581032 0.9995982930524383 7.023520298964501e-05
5591036 0.9996896750442796 0.00026305519241799196
5601040 0.9995096849733186 0.00023583707222990904
5611044 0.9996097973350199 0.000138954927784504
5621048 0.99964779821494 0.0002996752905696027
5631052 0.9994614107365591 0.00030310862587940094
5641056 0.9995578976627341 0.00017039505619774437
5651060 0.9996098511806351 0.00011149240856702145
5661064 0.9996965116012915 0.00021747236030597147
5671068 0.9995130966531963 0.0002416703927311407
5681072 0.9995393264502397 9.676013867643587e-05
5691076 0.9996060391357444 0.00024613442348593893
5701080 0.9996005490094158 0.0002753825427611619
5711084 0.9993825759548804 0.00012722641712901458
5721088 0.9995210728443243 5.076780169762833e-05
5731092 0.9994847532827679 0.0002686349753187902
5741096 0.9993370405892267 0.0002726732242694566
5751100 0.9992124487294108 9.40181801335436e-05
5761104 0.999500687667473 0.000173458996392301
5771108 0.9994349613601374 0.00030036061404951
5781112 0.9994896643357803 0.0002579576812030016
5791116 0.9996229400034111 0.0001914530846046249
5801120 0.9993643450131703 0.0002983151531845127
5811124 0.9994326862372958 0.00024976958070130453
5821128 0.9996044406162651 0.00018186962578468636
5831132 0.9996718899980869 0.0002635595801671614
5841136 0.9994382817780586 0.0003562608292449734
5851140 0.9994863654259718 0.00025009329183459854
5861144 0.9995545011711736 0.00011692287028969287
5871148 0.9995894793873702 0.00022727352856146768
5881152 0.9997790742373412 0.00017954565421841924
5891156 0.9997633585803547 0.0002719083366983107
5901160 0.9996240674455803 0.00028894550843386064
5911164 0.9993601603175899 0.00023236311009475227
5921168 0.9995028931865887 0.0001462636287544295
5931172 0.9996717071613492 0.00020988485374079526
5941176 0.9994687910549738 0.0003041063730299918
5951180 0.9996175146258482 0.00019838140527016012
5961184 0.999714839447549 0.00020318215221555987
5971188 0.9995749464360278 0.00027878671610152833
5981192 0.9995391348576679 0.00026540041390522205
5991196 0.999625387223697 0.0002365187943794484
6001200 0.9995953069982666 0.00026644874365400217
6011204 0.9995246883191361 0.00021428431451976467
6021208 0.9997466072502308 0.00016204174271358925
6031212 0.9999200114991001 0.00038281113680541323
6041216 0.9995840858618267 0.00017347809993337288
6051220 0.9994449538539323 6.623434172092338e-05
6061224 0.9998932190600339 0.00033119502049140426
6071228 0.9994529398200889 0.00027877703647890254
6081232 0.9994965775356772 0.0001844900785204246
6091236 0.999579209886286 0.00021080421087367178
6101240 0.9996567570134984 0.00030558572440862514
6111244 0.9993903776612998 0.00017057936421180817
6121248 0.9996107413575511 0.0002595856245212934
6131252 0.9994093082151275 0.0003822866352984128
6141256 0.99946305821839 0.00019549953192075394
6151260 0.9996252468103638 0.0001993264029959843
6161264 0.9995829727481443 0.00032306478098812467
6171268 0.9995471420776391 0.00022058911621629663
6181272 0.9997472880416901 0.00018215790010267852
6191276 0.999648862911343 0.00026711835422343623
6201280 0.9994585525723712 0.0003415991057411752
6211284 0.9996094070197068 0.0001407973468863227
6221288 0.999739641222979 0.00010736319083551369
6231292 0.9995679071473975 0.0002611864269167193
6241296 0.9995242563680199 0.00031668828956299357
6251300 0.9996942115282753 0.00014736099821766938
6261304 0.9995581327631953 0.00024170740331386098
6271308 0.99958977178265 0.00020205622144357712
6281312 0.999515505459108 0.0002568317815928655
6291316 0.9994692048705146 0.00013941442744187845
6301320 0.9994269372930074 0.0001826047095153441
6311324 0.999514595621292 0.00036703241082692656
6321328 0.9994545212359844 0.00014432565550653233
6331332 0.9996176970932713 0.00019706989464147754
6341336 0.9995324958721225 0.0003495362424615775
6351340 0.9994710174896962 0.0003570362792619491
6361344 0.9995213902518965 0.00015427773706475155
6371348 0.9995881146246873 0.00015092869182749648
6381352 0.9996338900166837 0.00028406119227104723
6391356 0.9994841667827065 0.0001799791071799452
6401360 0.999657638386709 0.00016634265237805895
6411364 0.9995368056537236 0.0002943374686016413
6421368 0.9995312799157641 0.00016806669132371824
6431372 0.9996041703390557 0.00023068416136553336
6441376 0.9997392058374716 0.0003069945200072341
6451380 0.9996785278949256 0.0003277225577258676
6461384 0.9994710462203419 0.00015148256163979414
6471388 0.9998101288023039 0.0001553575172067184
6481392 0.999637287122482 0.00030604967740006694
6491396 0.999510153626414 0.0001922772341018073
6501400 0.9996693669657521 0.00016241811497680222
6511404 0.9996045750197615 0.0003244686845156795
6521408 0.9994784603184607 0.00021052032267206863
6531412 0.9996085791975989 0.00016924785949622037
6541416 0.9995951283296584 0.0002745149175167581
6551420 0.9995920416706177 0.00023460318911561784
6561424 0.9996508852641159 0.00014455955664488033
6571428 0.9996389191231486 0.00029662111710962035
6581432 0.9996556832719157 0.00024065117438988213
6591436 0.9994763993322177 0.0002024695898231652
6601440 0.9996632878293218 0.00014963212456133753
6611444 0.9997365839645483 0.0002961860005765435
6621448 0.9996637821727274 0.0002222625938984641
6631452 0.9996158341120173 0.000254084136217607
6641456 0.9996717954658806 0.00023918128720777418
6651460 0.9997756224916301 0.00017856981043048588
6661464 0.9996648506304795 0.0001332828844123027
6671468 0.9996601746363389 0.0002945999630740769
6681472 0.9995841444226625 0.0002510651522072978
6691476 0.9995414960588053 0.0001313912959509988
6701480 0.9997436079892038 0.00017568032869179446
6711484 0.9997009701988636 0.0003852837160958304
6721488 0.9995090453720076 0.00023009891332481343
6731492 0.9996616134816563 0.00025109544004713887
6741496 0.999694269405839 0.00021970360373038978
6751500 0.9995900678726848 0.00020348566673345474
6761504 0.9995622042915648 0.0002011182947317859
6771508 0.9998398208012858 0.00028636701306620214
6781512 0.9996001682230821 0.00024086707687085
6791516 0.9996014773010496 0.0001672692867548947
6801520 0.9994691078106991 0.00017385298947682155
6811524 0.999504543417318 0.00024915492047777925
6821528 0.9996904324304554 0.00017967826246723635
6831532 0.9995838936586655 0.0002134027114570813
6841536 0.999668208750375 0.0002269540224221663
6851540 0.9996700364629404 0.00025001559653497167
6861544 0.9995142642493562 0.00019916831437635413
6871548 0.9996239357773135 0.00027350013999010456
6881552 0.9995275079636915 0.0002500870354244621
6891556 0.9996731570241292 0.0002439622778116249
6901560 0.9995146497103814 0.0002358073856307362
6911564 0.9995413705344425 0.0002162837252377496
6921568 0.9994772527041681 0.0002162372224278942
6931572 0.9996344887226777 0.00023273676263325203
6941576 0.9994349411757546 0.00020735660863878763
6951580 0.9995571379744621 0.00027529212676441527
6961584 0.999566910268082 0.0002476252794114127
6971588 0.9996265515903053 0.00012617286259158515
6981592 0.9996629139029671 0.00025400724568486286
6991596 0.999661721556705 0.00020132290845921802
7001600 0.9995784857690614 0.0001710060701307556
7011604 0.9995998375514457 0.0003638137997058247
7021608 0.9993900397752125 0.000249295325866423
7031612 0.9997025415050408 0.0001819337850757163
