# HZ S RI R 50
3000000 0.9337689147239089 0.2870378233910568
3010004 0.9334416011690322 0.2829672542289425
3020008 0.9347005670026679 0.27969874888393226
3030012 0.9356205275132518 0.27649088470554234
3040016 0.936285484436632 0.27304533058903724
3050020 0.9376482370536349 0.26973566306728486
3060024 0.9386738489067682 0.26645912793576704
3070028 0.9396080828234046 0.2631597337797501
3080032 0.9404268554591843 0.259527209661381
3090036 0.9413533634139554 0.25647869166133536
3100040 0.9424872640200085 0.2533180294545841
3110044 0.9432756914629707 0.24972923767371888
3120048 0.944378091374128 0.24631868997083187
3130052 0.9452308639381161 0.24325763314078547
3140056 0.9461395421959456 0.23992669716893794
3150060 0.9467098650133818 0.23658327278579305
3160064 0.9478852056509153 0.2334328109187878
3170068 0.9482902342131195 0.23029260281463537
3180072 0.9491967582720179 0.226925682215608
3190076 0.9502364427423086 0.22362339524015776
3200080 0.9509968301622681 0.2206412107090267
3210084 0.9515240534593914 0.21742319391997586
3220088 0.9522393735045035 0.21400427411648149
3230092 0.9530211094426614 0.21091445663483477
3240096 0.9538935934185068 0.20788992242722226
3250100 0.9543583593805085 0.20453496829733553
3260104 0.9553719030950863 0.20119602219676636
3270108 0.9561211106462761 0.19834403341550785
3280112 0.9564773486955337 0.19537641498145808
3290116 0.9568128937112171 0.19174675518056397
3300120 0.9578049013146852 0.18871102250212252
3310124 0.9583876673458811 0.18564721509413895
3320128 0.9592017608898902 0.18246595895093934
3330132 0.9597083623042325 0.17933192202556697
3340136 0.9602362021717069 0.1763846114758341
3350140 0.9607078739275079 0.17327899075161476
3360144 0.9615588281464194 0.16992025204577635
3370148 0.9620976629705268 0.16708477880399375
3380152 0.9625528625773727 0.16399151941826795
3390156 0.9630223419748957 0.1608635656179565
3400160 0.9635181006923447 0.15775737307847998
3410164 0.9639566184671684 0.15478107159711413
3420168 0.9643490122836987 0.1515766256702315
3430172 0.9652128622024123 0.14848266141341554
3440176 0.9656354138991291 0.14566803071130163
3450180 0.9660333578222828 0.1426464501941795
3460184 0.9665891646419712 0.13947344609613824
3470188 0.9668240523565355 0.13642844661542058
3480192 0.9671401774012146 0.1335281483325988
3490196 0.967606311847195 0.13040658518405127
3500200 0.9681167857153236 0.1275492950865253
3510204 0.9684859227599809 0.12456387392694658
3520208 0.9684723063907144 0.12145793119839748
3530212 0.9690679463694871 0.11835554277285464
3540216 0.9696459999541716 0.11550515616130119
3550220 0.9698534987885817 0.11261120137029815
3560224 0.9702683555937249 0.10959545472199805
3570228 0.9705212682716184 0.10661589451438463
3580232 0.9708125805951877 0.10371407139087749
3590236 0.9711097527871781 0.10057218772317698
3600240 0.9715171564869618 0.09770507814793776
3610244 0.9720228851443521 0.09489760583301157
3620248 0.972185307858291 0.09209237553760453
3630252 0.9722623864551048 0.08898596827266086
3640256 0.9725649211098734 0.08612015210349717
3650260 0.9729072069980399 0.08328909639288384
3660264 0.9730588920496827 0.08034623171897637
3670268 0.9734305889888002 0.07754378486319134
3680272 0.9736263720128606 0.07456836496277029
3690276 0.9735921782258742 0.07173083495101105
3700280 0.9741027787917343 0.06881070729350645
3710284 0.9741220712514808 0.06616443116115149
3720288 0.9744387453128174 0.06316087348739073
3730292 0.9744775745190164 0.06018734382536154
3740296 0.9748553431668309 0.05737332952513484
3750300 0.9749789153970301 0.05449307189512878
3760304 0.9751273244856471 0.051726820937313726
3770308 0.9754209880550558 0.049021387019375015
3780312 0.9754433544743462 0.04620995004370696
3790316 0.9753129527291061 0.043383018091432836
3800320 0.975877962430449 0.04039411019516002
3810324 0.9758448990203297 0.0377761642333518
3820328 0.9758135566303786 0.0348900875079957
3830332 0.9759623261666206 0.03190784308063275
3840336 0.9764282363444249 0.02928873214228038
3850340 0.9760370819714943 0.02661755931793198
3860344 0.9761891930023366 0.023845123712450095
3870348 0.9763295230866248 0.020853344701085713
3880352 0.9764798728356563 0.0180041716286711
3890356 0.9763795991056312 0.015501057399289376
3900360 0.9763995040659603 0.012714820454386799
3910364 0.9765150421751441 0.00987413334969444
3920368 0.9764454529359263 0.007255797622693011
3930372 0.9764674234153404 0.00446332744279467
3940376 0.9764979980153571 0.001641891302678147
3950380 0.9765455866093556 -0.0009341599130161436
3960384 0.9767233910198896 -0.0036532287037741706
3970388 0.9763423031593385 -0.006457895543235414
3980392 0.9765965117442779 -0.009086014358406166
3990396 0.9765530363812706 -0.011831736193108353
4000400 0.9765687638700238 -0.014661702114925035
4010404 0.976343042780987 -0.017222975131011266
4020408 0.9763770194494806 -0.02002924334867038
4030412 0.9761611401262176 -0.02252497681247004
4040416 0.9763142973819279 -0.025195561315110873
4050420 0.9761857726817249 -0.028096741461597036
4060424 0.9763259440141501 -0.030756084028263988
4070428 0.9761602710099104 -0.03315410232973801
4080432 0.9759660672242298 -0.03583794237188025
4090436 0.9757967283023563 -0.03861194176203669
4100440 0.9758388665663499 -0.04127314119793319
4110444 0.9756514477382935 -0.043778667382402985
4120448 0.9753166916912839 -0.046560138175061425
4130452 0.975473265897283 -0.04940673023993189
4140456 0.9750997675962336 -0.05157121313048826
4150460 0.9749225106785663 -0.054367096152873065
4160464 0.9748979979611947 -0.05708139185680752
4170468 0.9746869718259596 -0.05974358521351444
4180472 0.9747095770835857 -0.06214286935830186
4190476 0.9744177225211981 -0.06483612448231976
4200480 0.9741238371868198 -0.06751038633810759
4210484 0.9740503927609648 -0.06985490289177129
4220488 0.9738378603071213 -0.07272768368587247
4230492 0.9737626152997765 -0.0754127824257065
4240496 0.9735636322779971 -0.077639763507461
4250500 0.9732111262005435 -0.08025121036341236
4260504 0.9729906992580069 -0.08297235072580575
4270508 0.9724014261848947 -0.08573185198781358
4280512 0.9724887613668914 -0.08798509122330343
4290516 0.9721402093734254 -0.09048261435742466
4300520 0.9718426440860857 -0.09320804233026914
4310524 0.971560573398889 -0.0956876402437486
4320528 0.9712709659977414 -0.0983758247448339
4330532 0.9713838489167415 -0.1008968663615135
4340536 0.9709691519721205 -0.1032564757218537
4350540 0.9705978856264159 -0.10572792120319094
4360544 0.9703221901899415 -0.10850995635377153
4370548 0.9700303463948113 -0.11100843614443505
4380552 0.9697623861589153 -0.11325409183587103
4390556 0.9695846371749113 -0.11588226050842931
4400560 0.9692725355671864 -0.11843728547976357
4410564 0.968928347042898 -0.12081940855375178
4420568 0.9684979721202422 -0.12342251321271194
4430572 0.9682801592803164 -0.1259821868921204
4440576 0.967832177453667 -0.1283330854796018
4450580 0.9675932719481902 -0.13068102742100252
4460584 0.9672030516610486 -0.13327612022408633
4470588 0.9667417910895545 -0.1357501083702339
4480592 0.9663741184911802 -0.13813240248554332
4490596 0.9662055523808509 -0.14062294867220695
4500600 0.965860762611931 -0.14315431516043675
4510604 0.9653079891239399 -0.14542044453845282
4520608 0.9649092042845766 -0.14800665263451213
4530612 0.96453956773804 -0.15045627526462557
4540616 0.9641716899783562 -0.15280672423342798
4550620 0.9639437506339487 -0.15528944785835083
4560624 0.9635517778885017 -0.15777481125129766
4570628 0.9631793594234733 -0.160162998869918
4580632 0.962687426787983 -0.1625524432950982
4590636 0.9621234315913891 -0.16495514341558173
4600640 0.961826870015385 -0.16745446527508778
4610644 0.961368813020778 -0.169671169483571
4620648 0.9609534566290193 -0.17216762094632101
4630652 0.9604462218233338 -0.17463940551070922
4640656 0.9598831789379652 -0.1769061522978669
4650660 0.9594452828407696 -0.1793126236622071
4660664 0.9592535452946387 -0.18193761011459156
4670668 0.9586605232991057 -0.18401464793562528
4680672 0.9581795213037162 -0.1864602628021489
4690676 0.9578259574529837 -0.18902949910891928
4700680 0.9571938241245062 -0.19118818015729852
4710684 0.9566637273604353 -0.19362443045333402
4720688 0.9562875014036518 -0.19602178480150886
4730692 0.9557749937216518 -0.19823216989984277
4740696 0.9551735111610627 -0.20077439892718132
4750700 0.9546899803919178 -0.20309928114316822
4760704 0.954301975428984 -0.20551698170158075
4770708 0.9536263813643834 -0.20785993619297508
4780712 0.9530576198033158 -0.21002985445998304
4790716 0.9525945906375428 -0.21249676209722373
4800720 0.9519714243939783 -0.21461492897300774
4810724 0.9514189420823146 -0.2170274593380857
4820728 0.950921374537433 -0.21938377435354695
4830732 0.95042865504288 -0.2216837092804993
4840736 0.9499915928548758 -0.2240450177749398
4850740 0.9494001002935286 -0.22647551600180574
4860744 0.9487969777165756 -0.2287589060622929
4870748 0.9482181172285035 -0.23099172887223798
4880752 0.9477053379871943 -0.23339439346478005
4890756 0.9470348543499925 -0.2356242504317247
4900760 0.946490523497769 -0.237873002133122
4910764 0.9458632991311751 -0.24016898931045227
4920768 0.9452035713303061 -0.2425752695785635
4930772 0.944820451369511 -0.24486236348300722
4940776 0.9440696666015836 -0.24701847835923874
4950780 0.9434085336030946 -0.24938865724754283
4960784 0.9429914486990792 -0.25170727164364953
4970788 0.942238168872468 -0.25388648595311225
4980792 0.9415555210836224 -0.2561608778268108
4990796 0.9410686384698698 -0.25853477462360314
5000800 0.9404460672237884 -0.2607566833550698
5010804 0.9398049427887473 -0.26297360337403597
5020808 0.9399422356964297 -0.265478225783134
5030812 0.9384539052758828 -0.26728898486421243
5040816 0.9374770442091398 -0.2698330251011624
5050820 0.9369310972352097 -0.2720587397240647
5060824 0.9363675638396716 -0.2742821406892517
5070828 0.9357288082824687 -0.27632274962702297
5080832 0.9348002318224418 -0.2786031475993694
5090836 0.9342608184824253 -0.2809956622359547
5100840 0.9337654534942711 -0.28302665009778505
5110844 0.9327438884472328 -0.2850520193529002
5120848 0.9321015393620196 -0.2875083578575329
5130852 0.9315689860942463 -0.28971544289898593
5140856 0.9308719499861614 -0.29184580394362514
5150860 0.9300024182231126 -0.2941714477430381
5160864 0.9293876496007047 -0.2965498334439143
5170868 0.9287615225369388 -0.29858135662947793
5180872 0.9279892186535968 -0.3006932271724679
5190876 0.9272664143044559 -0.3029997904531317
5200880 0.9267245104992913 -0.3051959293046531
5210884 0.9258467640130263 -0.3072203426926072
5220888 0.924884128966287 -0.3094499974975187
5230892 0.9244524489131877 -0.3119193570368624
5240896 0.9236206400062387 -0.3138963008063302
5250900 0.9229025251006684 -0.3161155024158577
5260904 0.9221338973482067 -0.3183752827857877
5270908 0.9211497191877067 -0.32030174142383866
5280912 0.9204925321569316 -0.3226141861722271
5290916 0.9197916400101535 -0.3248651049458637
5300920 0.9192089664565781 -0.3268945740893288
5310924 0.9181119363219227 -0.32896418021693047
5320928 0.9172678258298488 -0.3310985644978377
5330932 0.9166212808036868 -0.3333258081985321
5340936 0.9159204938822499 -0.3354660545411267
5350940 0.9151435336786672 -0.33773622110025725
5360944 0.9144347152247634 -0.33973534357330637
5370948 0.9133951067534388 -0.34187441028134935
5380952 0.9125496852914343 -0.3440466398888882
5390956 0.9118360928553858 -0.34622048322305843
5400960 0.9110138948642524 -0.3481967308463437
5410964 0.910126697834525 -0.35036762157825907
5420968 0.9094086293446524 -0.35264035240659547
5430972 0.9085937008449945 -0.3546740330982938
5440976 0.9076368258586408 -0.3566570436682153
5450980 0.9066638588974352 -0.3589054661104601
5460984 0.9061152816768835 -0.3610570397594746
5470988 0.9051617561138383 -0.3629585542223102
5480992 0.9042149857153964 -0.36499203699699134
5490996 0.903490043635456 -0.3673255655022563
5501000 0.9025550405953408 -0.36930839368393176
5511004 0.9016611858736653 -0.3714486801718379
5521008 0.9010533168910612 -0.3736051193950862
5531012 0.8999913246548593 -0.3754119644647122
5541016 0.8989277238570368 -0.3775672614845697
5551020 0.8981996348007395 -0.37985771141791524
5561024 0.8974588595708133 -0.38182051739382405
5571028 0.8964692945339002 -0.3839607667487649
5581032 0.8954916712329721 -0.3859936721313823
5591036 0.8947394979786337 -0.38797302423326
5601040 0.8936960236883001 -0.3898994000783655
5611044 0.8925807910048817 -0.39204734354241444
5621048 0.8919609181486977 -0.39404171113903247
5631052 0.891051807499953 -0.39606815095127423
5641056 0.8900770440862673 -0.39803012561026224
5651060 0.888999709179804 -0.400203598541723
5661064 0.8882283918921527 -0.4022979622089498
5671068 0.8872454710020622 -0.40416068536281397
5681072 0.8861345806490919 -0.4063755008961541
5691076 0.885329399252507 -0.4083008192793653
5701080 0.884387763975955 -0.41034826041625594
5711084 0.8833470629241132 -0.4122967228152254
5721088 0.8823787062057263 -0.4144896248081393
5731092 0.8814707579166356 -0.4163462340195814
5741096 0.8803177076718833 -0.4181888698577776
5751100 0.8794027354476338 -0.42020332591287207
5761104 0.8786467444131356 -0.4226485196046247
5771108 0.8776029778448668 -0.4243019970736812
5781112 0.8765586440640789 -0.4263832130557227
5791116 0.875597389186901 -0.42854826630681625
5801120 0.8746189420565981 -0.4303428142442778
5811124 0.8735877217070324 -0.4322362944065597
5821128 0.8725806693338074 -0.4344404623023409
5831132 0.8716966263788601 -0.436389984587456
5841136 0.8707867864751159 -0.43832359429844137
5851140 0.8696092268990016 -0.44033513652946943
5861144 0.8685212919375542 -0.44241462048358265
5871148 0.8676505935650831 -0.44425991458216396
5881152 0.8664832934019967 -0.44620344070557133
5891156 0.8656171951875535 -0.44832631381723287
5901160 0.8646234416690184 -0.45013850063546285
5911164 0.8633814204224944 -0.45189633090126774
5921168 0.8624790008219108 -0.4541127920500006
5931172 0.8614929798522164 -0.4561650688455468
5941176 0.8602438661151355 -0.4577613258723563
5951180 0.8591503724420883 -0.4599293650985536
5961184 0.8582387885463117 -0.46191022312384394
5971188 0.8572786599730494 -0.46375618167993715
5981192 0.8560882369259224 -0.4656758016957115
5991196 0.8551449797789658 -0.46765616538805005
6001200 0.8540436770606288 -0.4695344466390298
6011204 0.8528684220731008 -0.4713941374793126
6021208 0.8517815719340232 -0.4735134107043876
6031212 0.8513656212944654 -0.47581313779812484
6041216 0.8496407363764471 -0.47747125878937063
6051220 0.8484636119224996 -0.47934592245505336
6061224 0.8474450402392887 -0.4812291540359235
6071228 0.8463542295652275 -0.48293115823005256
6081232 0.8449447955910468 -0.4851422002932803
6091236 0.8442084395479971 -0.4868746536874445
6101240 0.84312516931786 -0.48867717069169564
6111244 0.8419318864745265 -0.49042728929694496
6121248 0.8407482759580508 -0.492496841124737
6131252 0.8395874335791954 -0.4941518917673547
6141256 0.8384361226932714 -0.4960477002612251
6151260 0.837262306264556 -0.4980119623425509
6161264 0.8363583587178692 -0.49995072485106523
6171268 0.8351530083156284 -0.5016052977180966
6181272 0.8338795933075314 -0.5037515283471006
6191276 0.832814299759587 -0.5054417132577983
6201280 0.8315755469386994 -0.5072636871857069
6211284 0.8305242294224151 -0.509333871230784
6221288 0.8294156564883335 -0.5111367754072992
6231292 0.8282041986465728 -0.512944521505823
6241296 0.8269376801390479 -0.5147582959197033
6251300 0.825771624000749 -0.5166368043486561
6261304 0.8245886479929396 -0.5184342053304819
6271308 0.823470540802047 -0.5203376233983231
6281312 0.8222626041482656 -0.5221509145317664
6291316 0.8210745715667692 -0.5239942274156209
6301320 0.8199821086889855 -0.5258806162777094
6311324 0.8188661048617601 -0.5278003745106805
6321328 0.8174469366913858 -0.5295297759680309
6331332 0.8162526411839744 -0.531565301443771
6341336 0.8150351289573917 -0.5332647276089182
6351340 0.8137563679978782 -0.5349936853148055
6361344 0.8123372863218006 -0.5370153433742088
6371348 0.8114434816931381 -0.5389835842672543
6381352 0.8100486946849907 -0.5406365714489841
6391356 0.8088510925945416 -0.5424224453224558
6401360 0.8075351190453699 -0.5443702827416
6411364 0.8062392087891002 -0.5461991029054795
6421368 0.8050429583367166 -0.547916084138761
6431372 0.8039492748526698 -0.549919494140676
6441376 0.8026567313549423 -0.5515025606515758
6451380 0.8013113849227669 -0.5532606049675378
6461384 0.7998676879790019 -0.5550743573917404
6471388 0.7987562843982633 -0.5570650071895239
6481392 0.7976869577843185 -0.5587698284353662
6491396 0.7960876166041476 -0.5605080236094748
6501400 0.7948868211154023 -0.5624573272236189
6511404 0.79362212841887 -0.5639955095260488
6521408 0.7921766358959605 -0.565874415249011
6531412 0.7910890876758823 -0.567804791588613
6541416 0.7898552152707313 -0.569385633984534
6551420 0.7884570059780204 -0.5711295823108614
6561424 0.7871260259400679 -0.5730640222133849
6571428 0.7859388694635574 -0.5747331906110805
6581432 0.7845941271485805 -0.5763716632495292
6591436 0.7832129408300438 -0.5781916484553296
6601440 0.7819172213053085 -0.5799298593173678
6611444 0.780713791974134 -0.5816795001308902
6621448 0.7793653405313035 -0.5835138735757882
6631452 0.7780394742927875 -0.5851295250554824
6641456 0.776815389574793 -0.586882060142639
6651460 0.7752992431779052 -0.5885655589949595
6661464 0.7738787253398361 -0.5904366630409665
6671468 0.7727314739635199 -0.5919807201306362
6681472 0.7712150940518382 -0.59355057049425
6691476 0.7698816436317597 -0.5954091566732812
6701480 0.7688648483572252 -0.597199762537839
6711484 0.7672866464639958 -0.5987236248555373
6721488 0.7659332710385844 -0.6005567375873948
6731492 0.76478949709236 -0.6022372857811137
6741496 0.7632150652659849 -0.6038382404768615
6751500 0.7617873584119627 -0.6054429749863155
6761504 0.7605157631675845 -0.6074814830960207
6771508 0.7592681941794911 -0.6090173971566432
6781512 0.7576620297992532 -0.6105920177086022
6791516 0.7562736959312936 -0.6123623152690707
6801520 0.7549710299392309 -0.6140276892628154
6811524 0.753575036073606 -0.6156771651241512
6821528 0.7520453400094944 -0.6173548827096755
6831532 0.7505401430912195 -0.6191818798521563
6841536 0.7493515595310363 -0.6207512518988387
6851540 0.7478428249770611 -0.6224851600278523
6861544 0.7463369714634912 -0.6242628050463472
6871548 0.7450543959263761 -0.6256415048930563
6881552 0.7435275725582264 -0.6273899334677461
6891556 0.7422481695990951 -0.6292037150470222
6901560 0.7408945922001131 -0.6307194822324763
6911564 0.7393585905343264 -0.6324447928429712
6921568 0.7379545378653769 -0.6342076650656059
6931572 0.736628010650911 -0.6358490200141349
6941576 0.734906263373841 -0.6373750009859276
6951580 0.7335855806965085 -0.6390689476283612
6961584 0.7322871413381037 -0.6406329369171272
6971588 0.7308225421256231 -0.6423700191500267
6981592 0.72924882437962 -0.6439527621981682
6991596 0.7278218963207526 -0.6456289570583551
7001600 0.7264114131379538 -0.6470667354740591
7011604 0.7248657560836327 -0.6488756058690309
7021608 0.7234221164180125 -0.650371092318651
7031612 0.7219948340759589 -0.6521059583791899
7041616 0.7203095700694093 -0.653510154858005
7051620 0.7187896246022294 -0.6549763990191476
7061624 0.7173931373907839 -0.6566680462365648
7071628 0.7158449258695834 -0.6582156801318283
7081632 0.7143235106964758 -0.6597993554641589
7091636 0.7129142679125693 -0.6613638386099918
7101640 0.7112237943373229 -0.6629906559550579
7111644 0.709781911817912 -0.6644936886353383
7121648 0.7081812933152513 -0.6659831137164659
7131652 0.7067098570695975 -0.6677526768234314
7141656 0.7050097625068227 -0.6691502159285244
7151660 0.7036700419263934 -0.6707775203455322
7161664 0.7020179990263203 -0.6724514039387343
7171668 0.7006646958119054 -0.6739683641223783
7181672 0.6990299069304403 -0.67550010523752
7191676 0.6974263472221695 -0.6773015952283518
7201680 0.695890656336192 -0.6784684357523368
7211684 0.6944568390181096 -0.6801145433710731
7221688 0.6925825572793695 -0.6815420321208578
7231692 0.6913367336253371 -0.6832293492157344
