# HZ S RI R 50
3000000 0.9342427329237837 0.28586051800890555
3010004 0.934159505311314 0.28172861575738617
3020008 0.9353424713771992 0.27844148765613075
3030012 0.9362387543899132 0.27516789868426117
3040016 0.9371012902162065 0.27169653830995333
3050020 0.9383795518879265 0.2683124689390389
3060024 0.9393332963306503 0.26513196821106627
3070028 0.9402478150490509 0.2617877652690497
3080032 0.9410660134406141 0.25827431024050557
3090036 0.942029069423391 0.2551719472833386
3100040 0.9429455046637667 0.25201058172549756
3110044 0.9439162045229404 0.24843809149035623
3120048 0.9448154019849536 0.2449850724741261
3130052 0.9457293586546841 0.24202040343874232
3140056 0.9464960247153477 0.2386745638817744
3150060 0.9471185268639679 0.23513672497011126
3160064 0.9484194105856444 0.2321920172222264
3170068 0.9489944412266129 0.22895993020882924
3180072 0.94981915527124 0.22558523142451328
3190076 0.9507528465569479 0.22232942726817256
3200080 0.9516255219261653 0.21927713177375086
3210084 0.9521611344709737 0.21601475702967446
3220088 0.9528267511926891 0.21270067889387995
3230092 0.9536002182112555 0.20949698342797546
3240096 0.9544036522981494 0.20639631228556718
3250100 0.9550703491449374 0.20308275661231515
3260104 0.9559158234258398 0.19970201303148333
3270108 0.956557839033343 0.19688984671183218
3280112 0.9569082470534015 0.19378140188578813
3290116 0.9575908709559604 0.19018685914033615
3300120 0.958452632951864 0.18730749584183018
3310124 0.9588298705731391 0.18406592925788173
3320128 0.9595109156453955 0.18098195284709312
3330132 0.9602616182724084 0.17780321107351865
3340136 0.9607128059901391 0.1749287054242489
3350140 0.9612829059278934 0.17180155920034096
3360144 0.9621076541910465 0.16848908492968256
3370148 0.9625920571236827 0.1657179002017893
3380152 0.9628135823215842 0.16256767425133628
3390156 0.9634573550825021 0.15923142926759207
3400160 0.9640822748294767 0.15610539380541658
3410164 0.9645789539055916 0.15319853044468204
3420168 0.9648733160252148 0.15008030810019177
3430172 0.9656668649345289 0.14691446829275134
3440176 0.9660684625516409 0.14399049664412208
3450180 0.9664970971164558 0.14108272242936684
3460184 0.9671301080023839 0.13773530550483826
3470188 0.9673776236994578 0.13474859093761116
3480192 0.9678863407268611 0.131991623057582
3490196 0.9680489321721159 0.128914752749087
3500200 0.9684100564062184 0.12572453419593058
3510204 0.9689263690367368 0.12284436847156766
3520208 0.9693291836287335 0.11983327586580428
3530212 0.9697702528196709 0.11662492314503639
3540216 0.9702322667227564 0.11383522356321583
3550220 0.9705049303115603 0.11103253165239399
3560224 0.9707905139808755 0.10779766964529576
3570228 0.9711873812482125 0.10486911198439777
3580232 0.9715236778020994 0.10204892271749845
3590236 0.9717784312236223 0.09907846722118993
3600240 0.9721907633504555 0.09603528648718693
3610244 0.9726328855852787 0.09333466574483906
3620248 0.9725458523960487 0.09036793592418409
3630252 0.9729457503637908 0.08704675036331821
3640256 0.9732900457299186 0.08434522527361862
3650260 0.9734830199308291 0.08162312272648516
3660264 0.9737384850883061 0.07848967810708705
3670268 0.9738002866774876 0.07582509555295847
3680272 0.9741862769213924 0.07298747884846246
3690276 0.9743160614347929 0.07000624779033966
3700280 0.9746609088942937 0.06703362271879303
3710284 0.974759805043861 0.0644768041899792
3720288 0.9750211174724606 0.0613432864153421
3730292 0.9750380727790509 0.05842789481431632
3740296 0.9753693992671719 0.05567017847215855
3750300 0.9755038719895568 0.052789366071316145
3760304 0.9757065884772032 0.049923713253417795
3770308 0.9759518660350757 0.0472105227318941
3780312 0.9759075321837943 0.044487495639181016
3790316 0.9757751018472786 0.04150321466827271
3800320 0.9762516192714192 0.03857534330992744
3810324 0.9764676122494844 0.03611093035394027
3820328 0.9761802510373112 0.033069347035725255
3830332 0.976195026018699 0.030276144563441038
3840336 0.9764896536447261 0.027485648644490622
3850340 0.9766425437246216 0.024702398847230106
3860344 0.976711494958942 0.02191617981615947
3870348 0.9769774311005437 0.019112969372482233
3880352 0.9769336752891941 0.016400706216768344
3890356 0.9766158089079654 0.01365554976480044
3900360 0.9766632717981346 0.010821004888841983
3910364 0.9768818962272167 0.007852542856848058
3920368 0.9768778353092054 0.0053777059100080325
3930372 0.976689204612001 0.002678039621555911
3940376 0.9768514508985995 -0.00015295940495908838
3950380 0.9767490265062497 -0.0027827376996649453
3960384 0.9767905183264775 -0.005551877755771404
3970388 0.9767560407692937 -0.008352593700419747
3980392 0.9768943103818791 -0.01101237212966456
3990396 0.9768049705017647 -0.013576370700904982
4000400 0.9766746650562291 -0.01651612791477877
4010404 0.9768615907122946 -0.019109034941934253
4020408 0.9765987148221463 -0.022020461668610086
4030412 0.976489016992287 -0.024468920327982095
4040416 0.9763842219794566 -0.027175911066163627
4050420 0.9762782087404914 -0.030133791310605042
4060424 0.9764618598685596 -0.03264023967005824
4070428 0.9761447225412897 -0.035072311232591795
4080432 0.9759819970055231 -0.03791336610405456
4090436 0.975979960969417 -0.040675947618011986
4100440 0.9759403026156945 -0.04324045502022696
4110444 0.97575291224544 -0.045830921683242425
4120448 0.9754229846789643 -0.04867965079445188
4130452 0.9755471977668247 -0.051215552540488325
4140456 0.9753366408427053 -0.053567558890862926
4150460 0.9750823284077522 -0.056460846657023056
4160464 0.9750114893688118 -0.05914905295128409
4170468 0.974838211689349 -0.06160113615373499
4180472 0.9746156330409144 -0.06420550382457765
4190476 0.9745789413850889 -0.06696786618736845
4200480 0.9742559653666939 -0.06944655143640743
4210484 0.9738350520865426 -0.07188802657924873
4220488 0.9739355490624845 -0.07488120823290163
4230492 0.9739255189709438 -0.07724042880027002
4240496 0.9735682331723309 -0.07964816584070292
4250500 0.9732077494195209 -0.08237777777630906
4260504 0.9730585223875737 -0.0850028138392263
4270508 0.9729256379966479 -0.08750810757457238
4280512 0.9725248311813657 -0.09003198996093952
4290516 0.9722921356406614 -0.09263647696556036
4300520 0.9719848170097173 -0.09518199138006225
4310524 0.9715700981986949 -0.09762284563249843
4320528 0.9714320991551796 -0.10038605474305515
4330532 0.9713021757267114 -0.10279147923426152
4340536 0.9711264378812192 -0.10526292366774591
4350540 0.9704338741698803 -0.10777224892792403
4360544 0.9703558514757673 -0.11043463425381637
4370548 0.9701137342978083 -0.11294995085736853
4380552 0.9696678434563215 -0.1153065115805906
4390556 0.969364320771603 -0.11801820867599687
4400560 0.9690386506796033 -0.12034059662269621
4410564 0.9689048524221724 -0.12292426416027231
4420568 0.9684107402324892 -0.1253884828827818
4430572 0.9681978128058744 -0.12797759895910119
4440576 0.967859924458937 -0.13033898181313588
4450580 0.9674960041768847 -0.1328864904637587
4460584 0.9671475889361936 -0.13531736498019528
4470588 0.9668164547861053 -0.13775980706363267
4480592 0.9663302196529701 -0.14024993355996074
4490596 0.9662646619591281 -0.142746164689828
4500600 0.9658537770537305 -0.1452103073597564
4510604 0.9651904917844241 -0.14756950243332506
4520608 0.9649031776856746 -0.15014232124229188
4530612 0.9645791034211685 -0.15249176648648488
4540616 0.9641199197449779 -0.1550231302226213
4550620 0.963901731908222 -0.157597853968237
4560624 0.9634486168753162 -0.15994140731307704
4570628 0.9629974921364969 -0.1622541368227363
4580632 0.9625313806570694 -0.16490480196759574
4590636 0.9621548928573797 -0.16722953169656293
4600640 0.9618136414679803 -0.16964741532447405
4610644 0.9610886389916232 -0.17193625189247497
4620648 0.9608912070053409 -0.1744298876404473
4630652 0.9604860621309824 -0.17685332316553132
4640656 0.9597297705595569 -0.17925191430072945
4650660 0.9593327602001949 -0.18174050248084841
4660664 0.959189905651152 -0.1841594704907611
4670668 0.9585106848799455 -0.18635601300350144
4680672 0.9580939344010801 -0.18877244893266826
4690676 0.9577898002697124 -0.19128593268665203
4700680 0.9571405462330487 -0.1935432328528441
4710684 0.9564546263327771 -0.19591885076841795
4720688 0.9562282705204899 -0.19831848040538527
4730692 0.9556145125572271 -0.2005935796325039
4740696 0.9549386085685463 -0.20294568906442753
4750700 0.9544643466045406 -0.20529036725460212
4760704 0.9541344624985844 -0.20783276188534205
4770708 0.9535906245533697 -0.210047647771246
4780712 0.9527771653704157 -0.21230356467740708
4790716 0.9523300093271402 -0.2147176471095187
4800720 0.9516915751831706 -0.21690756005755313
4810724 0.9512004878349672 -0.21935477512599819
4820728 0.9506037610346048 -0.22164064088771568
4830732 0.9502260665831588 -0.22396986770728364
4840736 0.94965652032001 -0.2262946311775746
4850740 0.9491436002784741 -0.2286199506661916
4860744 0.9484236041893976 -0.2310101675057588
4870748 0.9477754564464105 -0.2332077201364356
4880752 0.9472744087632204 -0.23556270879760977
4890756 0.9467410579316633 -0.23787976677535097
4900760 0.9461878358940582 -0.24008870601760257
4910764 0.9453414629331073 -0.24232047279984298
4920768 0.944860272617068 -0.2447399480568829
4930772 0.9444774920815904 -0.24712832943401597
4940776 0.9437457723841048 -0.24922378747379018
4950780 0.9431964015685458 -0.251642504505619
4960784 0.9426976110111176 -0.2540360234209569
4970788 0.9418531417982414 -0.2560425617155219
4980792 0.9413088018852448 -0.2583873182013046
4990796 0.9407109182164387 -0.26070798168690273
5000800 0.9400161387498224 -0.26295434439065096
5010804 0.9395402300754175 -0.2652883540470313
5020808 0.939058783211228 -0.2675424370570995
5030812 0.9381444305306493 -0.2697052441501807
5040816 0.9373457643933736 -0.27197941981341367
5050820 0.9366998757211744 -0.27428200871816594
5060824 0.9360970768697289 -0.27640041645980823
5070828 0.9352798210852022 -0.278583414441947
5080832 0.934737902551826 -0.280913103500516
5090836 0.9340747204318564 -0.283119586729683
5100840 0.9333948687716775 -0.28521924835094997
5110844 0.932482302735984 -0.28739913228168246
5120848 0.932046965882739 -0.28976793389473976
5130852 0.9314281105091821 -0.2920183935940805
5140856 0.9304546252764904 -0.29402999588421513
5150860 0.9297898260094654 -0.29642610561375543
5160864 0.9293544360535295 -0.2986906575785034
5170868 0.9284705507574593 -0.3006218529406618
5180872 0.927724758284921 -0.3029090022495254
5190876 0.9269653617091498 -0.3052834512873341
5200880 0.9263718085255829 -0.30731762112757377
5210884 0.9255692943700216 -0.3094001358038006
5220888 0.9246373088952466 -0.3117219565984715
5230892 0.9241621565565199 -0.31404362902643285
5240896 0.9233351260718566 -0.31596030857991086
5250900 0.9224307411949836 -0.3182485226581036
5260904 0.9218662998759061 -0.3206551272957403
5270908 0.9208631887302561 -0.3224636971988117
5280912 0.920060534128298 -0.32473407715131036
5290916 0.9195375473946559 -0.32707236840792375
5300920 0.9186445351550449 -0.329015727198824
5310924 0.9177727815820388 -0.3311685371816633
5320928 0.9169810926126597 -0.333461640081665
5330932 0.9164456248783966 -0.33546128841412076
5340936 0.9154678531201699 -0.33765258927113045
5350940 0.9145968546511917 -0.33981656247906983
5360944 0.9138741378976903 -0.34194411544870723
5370948 0.9129803045866661 -0.3439899084788673
5380952 0.9121164995798597 -0.3461336006260664
5390956 0.911399963600023 -0.34846484016782864
5400960 0.9106693631082721 -0.35026952680546886
5410964 0.9096505787349214 -0.3523957146645622
5420968 0.90886821261413 -0.35470164183723474
5430972 0.9081153420600888 -0.3568066597194584
5440976 0.9072257631375908 -0.35888190458027247
5450980 0.9063037553427206 -0.36106020311795406
5460984 0.9054904750564414 -0.36316378403755173
5470988 0.9047283656585855 -0.365172168026671
5480992 0.9037410269879054 -0.36723377740730484
5490996 0.9029592252948511 -0.36950371650456265
5501000 0.9022683707139139 -0.37144564549157744
5511004 0.9010699560627622 -0.37344846905654755
5521008 0.9004086070642526 -0.3757763517775555
5531012 0.8994626610973069 -0.3776116196377718
5541016 0.8983384611018668 -0.3797161846597808
5551020 0.8975626168591497 -0.3819113495798695
5561024 0.8969304839137219 -0.3838835071102653
5571028 0.8958273866208306 -0.3859010353243021
5581032 0.8949457829633971 -0.38810075455525844
5591036 0.8939560229884306 -0.39000747311204004
5601040 0.893040982783332 -0.39205970266035706
5611044 0.892084386585818 -0.39419691185443606
5621048 0.8911284133429241 -0.39617094280862397
5631052 0.8902733420431125 -0.39813301111435023
5641056 0.8892649629911255 -0.40022138011919645
5651060 0.8884073051507735 -0.4024168125191486
5661064 0.8875241198645976 -0.4043802281385729
5671068 0.8866324040898031 -0.4062664049781739
5681072 0.8854692587941819 -0.40845885462238257
5691076 0.8845933647317464 -0.41043174786222286
5701080 0.8837212307931521 -0.4124916047686104
5711084 0.8826302962724974 -0.4145486914730948
5721088 0.88181358875634 -0.41659287463304
5731092 0.8807749717619332 -0.41847934970126793
5741096 0.8797467043696171 -0.42058458566246687
5751100 0.878753281940874 -0.42258835709023107
5761104 0.8780295940380615 -0.4247149866961406
5771108 0.8768263870334948 -0.42650703568717024
5781112 0.8758661869006847 -0.428605486045554
5791116 0.8750596495465052 -0.4307471686481279
5801120 0.8739240284542951 -0.4325495320140148
5811124 0.872749752797085 -0.4345295958379767
5821128 0.8718899486388855 -0.4367319814091104
5831132 0.8710018077156776 -0.43861225376483537
5841136 0.8699274468418281 -0.4405669666845436
5851140 0.8688464412393498 -0.4426054802352252
5861144 0.8678541573901783 -0.4446315187510268
5871148 0.8667477375959042 -0.44645346858876367
5881152 0.8658258943769833 -0.44856609229233546
5891156 0.8648481348534761 -0.45045609482062055
5901160 0.8637353691679032 -0.45232600595532846
5911164 0.8625771174546083 -0.45430474910181085
5921168 0.8615800075079154 -0.4563420876954528
5931172 0.8607181185419264 -0.4584011021340179
5941176 0.859492625478148 -0.4600408262608067
5951180 0.858320186962664 -0.4621346964835844
5961184 0.8575131682080545 -0.4642044748961963
5971188 0.8562394952052369 -0.4659714098878787
5981192 0.8551026078652924 -0.46788729671477075
5991196 0.8542823645326727 -0.469825322797501
6001200 0.853131725531462 -0.4716157580709194
6011204 0.8520018667371152 -0.4736006076737464
6021208 0.8509140782847323 -0.4756828712939792
6031212 0.8499925581112667 -0.47749073090110217
6041216 0.8487947571120495 -0.4794382519682752
6051220 0.8476530271426461 -0.4813749762988662
6061224 0.8467218016179765 -0.4833949874838903
6071228 0.8456955645327207 -0.4850723673546947
6081232 0.8443476876855105 -0.48705520519001316
6091236 0.8434238511628432 -0.4890703240473634
6101240 0.8423503619665517 -0.4908593925852493
6111244 0.8410364832755307 -0.49267780273446604
6121248 0.8398609544047908 -0.4946282594970804
6131252 0.838830224188181 -0.4963607371170617
6141256 0.8377033202011527 -0.4982577895503907
6151260 0.8364052698260775 -0.5002439235720196
6161264 0.8354106373666395 -0.5021983769637355
6171268 0.8342196462426413 -0.503987913499807
6181272 0.8330599026335651 -0.5059373328049191
6191276 0.832032221620943 -0.5079140981537471
6201280 0.830846361939767 -0.5095681804817526
6211284 0.8295679827919341 -0.5114226178928366
6221288 0.8284643597974634 -0.513516025845153
6231292 0.8273882964587812 -0.5152287541610813
6241296 0.8261680905604163 -0.5169357894213766
6251300 0.8247897453234599 -0.5188043844032577
6261304 0.8236355188482178 -0.5207369145732699
6271308 0.8226683632093688 -0.5225635496347847
6281312 0.8212433192988565 -0.5242821534051366
6291316 0.8201152659366823 -0.5264260263959801
6301320 0.8190699803122121 -0.5281605566853181
6311324 0.8178847616168623 -0.5299337084854446
6321328 0.8163936139662774 -0.5318037345834197
6331332 0.8153821624232744 -0.5338430974852096
6341336 0.8142293254744415 -0.5354099814796349
6351340 0.8128869386982203 -0.5371394371460354
6361344 0.8115797135429181 -0.539284021157133
6371348 0.8105616310447338 -0.5410612827819844
6381352 0.8091742897401254 -0.5427597854813382
6391356 0.8079449180115947 -0.5446280168743647
6401360 0.8065608392806793 -0.5463479720208566
6411364 0.8054098408215709 -0.5481547852991371
6421368 0.8042527962050084 -0.5500388039956865
6431372 0.8030712235733599 -0.5519458936694001
6441376 0.8017750727263809 -0.5535430579258127
6451380 0.8005035083598178 -0.5554681352368348
6461384 0.7990834022038641 -0.5572891192621057
6471388 0.7980110996850759 -0.5590810950314443
6481392 0.796737180063938 -0.5608114308003751
6491396 0.7953388133905501 -0.5626269190455013
6501400 0.7941128600668336 -0.5644369427586219
6511404 0.7926535375466802 -0.5659779409864898
6521408 0.7914136546920715 -0.5678998190488438
6531412 0.790213864705262 -0.5695747017351753
6541416 0.7889678106249978 -0.5713312986858694
6551420 0.787595162655572 -0.5731850606083816
6561424 0.7864305438232293 -0.5750367056082568
6571428 0.7851816812575385 -0.5766583631145921
6581432 0.7836040166326234 -0.5783213333554429
6591436 0.7824509644621959 -0.5801544232609713
6601440 0.7810822728127108 -0.5817653531276509
6611444 0.7796415506397014 -0.5835028926798969
6621448 0.7784596778539002 -0.5852664132179126
6631452 0.7771389232130037 -0.5868310639240288
6641456 0.7757397603291963 -0.5887207014584311
6651460 0.774423350235545 -0.5905104886288612
6661464 0.7730688255596581 -0.5922390224493989
6671468 0.7716850787349386 -0.5938364141709871
6681472 0.7702390918241053 -0.5954509225261051
6691476 0.7689916513623601 -0.5972434991315536
6701480 0.7677025195337351 -0.598980683179064
6711484 0.7662126532535497 -0.6005925195335394
6721488 0.764934041421083 -0.6024214506670651
6731492 0.7637501126918952 -0.6039563606427726
6741496 0.7622064945813076 -0.6057085853311602
6751500 0.7608003473205637 -0.6073608089012364
6761504 0.7594940015991892 -0.6090770190309616
6771508 0.7582326546725092 -0.6108295712062748
6781512 0.7566562036950579 -0.6123920634673365
6791516 0.7553378679767954 -0.614115537639376
6801520 0.7539213014361948 -0.6156908190332581
6811524 0.7524385531572633 -0.6174227670107184
6821528 0.7510359041453798 -0.6192472526990218
6831532 0.7497665346771631 -0.620793755737438
6841536 0.7483252658727321 -0.6224295633042233
6851540 0.746930488198508 -0.6241263351918025
6861544 0.7455065229005796 -0.6257714934146199
6871548 0.7440369063019949 -0.6273976741877604
6881552 0.7426512011771593 -0.6291636384103969
6891556 0.7413707552602918 -0.6308785142701336
6901560 0.7398286197809105 -0.6322284206393579
6911564 0.7382578170861115 -0.6340564717372354
6921568 0.7368842127396903 -0.6357104604361699
6931572 0.7355142895391623 -0.6373694449881148
6941576 0.7339157281454175 -0.6389990785595752
6951580 0.7326852031448727 -0.6406559763250865
6961584 0.7314382132953952 -0.6422487869875072
6971588 0.7296744531678422 -0.6439606607286719
6981592 0.7282211008433698 -0.6457011901047603
6991596 0.7267117238349533 -0.6472372944661479
7001600 0.7254447866438586 -0.6488060671539885
7011604 0.7239867482140561 -0.6505133037195234
7021608 0.7222556160019176 -0.6519142618275005
7031612 0.7209716097662975 -0.6538659888244333
7041616 0.7195624132344196 -0.655355546588118
7051620 0.7178049962976036 -0.6568130410943811
7061624 0.7163045924514017 -0.6585333238674749
7071628 0.714891803442045 -0.6600380192789853
7081632 0.7133052618551867 -0.6615500255972783
7091636 0.7116839118425805 -0.6630948792225645
7101640 0.7102821934184501 -0.664899258423843
7111644 0.7087361121303596 -0.6662538719850537
7121648 0.7071916269696402 -0.6677988933348719
7131652 0.7057210788568631 -0.6696662441821455
7141656 0.7041923208171746 -0.6711046999952018
7151660 0.7027416692685939 -0.6726483547847993
7161664 0.7012042107874794 -0.6744618188327081
7171668 0.6996709361216534 -0.675905874671253
7181672 0.698118714526347 -0.6774107812988085
7191676 0.6965279284634471 -0.6791564320595073
7201680 0.6949562312969686 -0.6805693676322015
7211684 0.6934169086361559 -0.6820436095029816
7221688 0.6917953480060591 -0.6835944004308772
