# HZ S RI R 50
3000000 0.9760224276267198 -0.04369139009828505
3010004 0.9749140108487898 -0.046474438907017725
3020008 0.9750243706966827 -0.04920318495561489
3030012 0.9748835680479794 -0.051629582384078
3040016 0.9746042070571616 -0.0542057007991696
3050020 0.97445091680152 -0.05680966402264329
3060024 0.9745653735486187 -0.059481783465596766
3070028 0.974454554700823 -0.06197359933464201
3080032 0.9741566711669217 -0.06451124932766242
3090036 0.973987051108293 -0.06706134233343154
3100040 0.9739153334625511 -0.06959343113676866
3110044 0.9736575435800093 -0.07202773601166167
3120048 0.9734142160328887 -0.07464726215134701
3130052 0.9733181498672812 -0.07725696973563317
3140056 0.9731680395890482 -0.07962925776852917
3150060 0.9727713636321927 -0.08205479477269231
3160064 0.9727758585762215 -0.08474124988038113
3170068 0.9723956908251988 -0.0871259355666605
3180072 0.9722556081316704 -0.08949037616621493
3190076 0.9721329863432574 -0.09213330713634175
3200080 0.9720868019903713 -0.09458377542203271
3210084 0.9717846901933453 -0.09698661714958648
3220088 0.971544609539855 -0.09952078498699403
3230092 0.9710697393933968 -0.10187462038410329
3240096 0.9710717772344509 -0.10441259157494696
3250100 0.9708084717660561 -0.10677595357488977
3260104 0.9704898826209015 -0.10941485336067246
3270108 0.9704110687640974 -0.11181175875710452
3280112 0.9700487134958643 -0.11396539740415937
3290116 0.9695027870013811 -0.11644785299150534
3300120 0.9690530625644397 -0.11902791191844687
3310124 0.9692097646518704 -0.12126108051117493
3320128 0.968979403073836 -0.12383461436608835
3330132 0.9686548601051579 -0.12613046933464397
3340136 0.9683642276943416 -0.12843908351943292
3350140 0.9679429445950362 -0.13078372239764455
3360144 0.967758181367238 -0.1333683845252296
3370148 0.9674345193007678 -0.13563367293752693
3380152 0.9670670087324579 -0.1379278108783657
3390156 0.9668081911846006 -0.1402864513967799
3400160 0.9663534789020108 -0.14277349766452538
3410164 0.9662899065194237 -0.14502024057630664
3420168 0.9657087383211774 -0.1473378451313859
3430172 0.9653591660969285 -0.14980591541755978
3440176 0.9651265555779152 -0.1520235767106573
3450180 0.9648117684482924 -0.1541920650893756
3460184 0.9644310925245856 -0.15680055631883713
3470188 0.9639743433446444 -0.15913106175519426
3480192 0.9635617278401797 -0.16128270643846276
3490196 0.9630922583074885 -0.16350038454671015
3500200 0.962708920694817 -0.16583623337746048
3510204 0.9623964322383182 -0.16823267464760844
3520208 0.9619432841687399 -0.17037999782623184
3530212 0.9612555234360162 -0.1727807719825562
3540216 0.9611471889649338 -0.17508625629449678
3550220 0.9607718669612357 -0.1772322802498488
3560224 0.9603030410999258 -0.17953604391545197
3570228 0.9598782965731361 -0.18189495644215667
3580232 0.9596075017843613 -0.18411123784109473
3590236 0.9589872890417794 -0.18628788905293042
3600240 0.9586061130835252 -0.18870157102759183
3610244 0.9583281529513799 -0.19095276122338553
3620248 0.9579190373000275 -0.1930026438161423
3630252 0.9573522423379819 -0.19538316253171567
3640256 0.9568926003659757 -0.1975785521045804
3650260 0.956398980817 -0.19974691395454255
3660264 0.9558989302910302 -0.2018784732781632
3670268 0.955396175723669 -0.20420971850025654
3680272 0.9550171646956098 -0.20638936785702114
3690276 0.9545518856215076 -0.20850972045341815
3700280 0.9539608021850715 -0.2108657846132997
3710284 0.953538738651946 -0.21296635535810576
3720288 0.9531363568572961 -0.21506410258317085
3730292 0.9522946059924425 -0.21741299544153592
3740296 0.9520995643895466 -0.21969705466818035
3750300 0.9515768858851908 -0.2216661915197403
3760304 0.9510788403325037 -0.22395219895319254
3770308 0.9504816243416563 -0.22630623528266927
3780312 0.9500362916439514 -0.22824687301473
3790316 0.9492356690162738 -0.23025306271896392
3800320 0.9489884634458795 -0.23280232632337328
3810324 0.9484672803647098 -0.23466687161492647
3820328 0.9477475872194652 -0.23685570406055162
3830332 0.9472799718952255 -0.23904048615111426
3840336 0.9468708873445735 -0.24138203083767407
3850340 0.9462736427552437 -0.24333476128341058
3860344 0.9457377186779281 -0.2454135413102414
3870348 0.9451093084102848 -0.24775327830667937
3880352 0.9447793992511787 -0.24992422085072286
3890356 0.9440941418201089 -0.2517780672541907
3900360 0.9434452496979087 -0.25397342490290903
3910364 0.9428021827574536 -0.25616224141853555
3920368 0.942366821743162 -0.25818446916931226
3930372 0.9417561914130259 -0.26023195591866677
3940376 0.9413551164591681 -0.2625774461443599
3950380 0.940689827296425 -0.2645295483869697
3960384 0.9401035846192825 -0.2665890494551973
3970388 0.93932669649324 -0.2686939226025666
3980392 0.9390151186736453 -0.2708327489680926
3990396 0.9383565998923614 -0.27280666980911367
4000400 0.9375981042815249 -0.2750894689355359
4010404 0.9368643907754404 -0.2769800967742654
4020408 0.9366380965537836 -0.2792023182830152
4030412 0.9359712722851228 -0.2813154628741894
4040416 0.9353192337380434 -0.28334173020728975
4050420 0.9345243188394393 -0.2854576273787514
4060424 0.9340178828516467 -0.2875497854357678
4070428 0.9336061698253513 -0.28953814387431276
4080432 0.9327629884637675 -0.2914454954431378
4090436 0.9320028758324973 -0.29362332858251344
4100440 0.9316717674821311 -0.2958443078011729
4110444 0.9308028282191794 -0.2977661676137174
4120448 0.9298685584921887 -0.2996838177383247
4130452 0.9293947825386621 -0.30188946795131416
4140456 0.9287813428647784 -0.303803314217401
4150460 0.9281241268560531 -0.3057186186099733
4160464 0.9274613906042435 -0.3078351785708411
4170468 0.9265828039954732 -0.3099101768615056
4180472 0.9260234180451532 -0.312039205856352
4190476 0.9254012866902324 -0.3139736646884051
4200480 0.9247760241328608 -0.3158915244670073
4210484 0.9239927363741859 -0.31776094793366444
4220488 0.923182062952601 -0.3200540656722901
4230492 0.9225646756391811 -0.3220057821736223
4240496 0.921824535493116 -0.3239730635577912
4250500 0.9212120720899782 -0.3258711814961964
4260504 0.9203542425081341 -0.32800001803936857
4270508 0.9195201513214524 -0.33007097294289023
4280512 0.9189006976013107 -0.33188885208462043
4290516 0.9180915463031485 -0.3338406616656678
4300520 0.9174899940548067 -0.3360360783736253
4310524 0.9169288372245852 -0.3379586405797916
4320528 0.915744588452632 -0.3397337922228181
4330532 0.9152874203489488 -0.34189393253893874
4340536 0.9144152724211535 -0.34377926154414434
4350540 0.9137450570576244 -0.3457590649263482
4360544 0.9129047346208086 -0.34774021038713976
4370548 0.9121815922019235 -0.349973162784256
4380552 0.9116726517529348 -0.3515903593494236
4390556 0.9106515652357597 -0.3536074298160983
4400560 0.9099724000499126 -0.35559571461061873
4410564 0.9093623202831984 -0.35763325498786613
4420568 0.9083647073662102 -0.35939558752049566
4430572 0.9075216746825071 -0.361652997685629
4440576 0.9069532495820158 -0.3635078463041698
4450580 0.9061104022873251 -0.3653026317796104
4460584 0.9052468234733385 -0.3672926461903053
4470588 0.9043996778661197 -0.3692320743599903
4480592 0.9036632762212182 -0.37116112304472204
4490596 0.9030221044722884 -0.3730711459888956
4500600 0.9021939031185797 -0.375093939539697
4510604 0.9013319242379507 -0.37689806610791887
4520608 0.9003528228123551 -0.37885854428089094
4530612 0.8994232412877217 -0.3808622325985705
4540616 0.8987345017442947 -0.38269804285981673
4550620 0.8983884998602685 -0.3848529433590871
4560624 0.8971656678810729 -0.38658629269118894
4570628 0.8964671885908029 -0.38854138145256656
4580632 0.8955083318538684 -0.39044299820360134
4590636 0.8945480172012528 -0.39235629605513234
4600640 0.8938068084869188 -0.39441221005323146
4610644 0.8931291008278645 -0.3961018752565183
4620648 0.8922010270140222 -0.3980007080073583
4630652 0.8912052028734943 -0.3999939261848226
4640656 0.8901396476297765 -0.40180317525184756
4650660 0.8894287387156241 -0.4036983294833669
4660664 0.8885635899008074 -0.40568561783954293
4670668 0.8877325705300947 -0.40751117523833275
4680672 0.8869043068875189 -0.4093388757454197
4690676 0.8860947566715986 -0.4113498335558415
4700680 0.8849964105382847 -0.4131969515071079
4710684 0.8842626192484072 -0.4149684674822961
4720688 0.883249700373433 -0.4167259058588325
4730692 0.882404007655815 -0.41883143167592757
4740696 0.8815082558610963 -0.42063406307188006
4750700 0.8805746024768674 -0.4224134473819892
4760704 0.8797137156401665 -0.42448284912858836
4770708 0.8788807167899317 -0.42636524298621625
4780712 0.8778814450289739 -0.42800100243837796
4790716 0.8768560190965317 -0.4297913639931382
4800720 0.875940567583762 -0.43178611136317474
4810724 0.8751714799759639 -0.43355426149539844
4820728 0.8740194683270021 -0.43529521436848184
4830732 0.8730764463883544 -0.437463396820223
4840736 0.8724773045683799 -0.4393309803085065
4850740 0.8714186571323504 -0.440939956741594
4860744 0.8702011220251987 -0.44284886371376486
4870748 0.8694753722034282 -0.4448539404635756
4880752 0.868501373690127 -0.446674168730784
4890756 0.8675284995056974 -0.44833254303702225
4900760 0.8665136715305412 -0.45024206863190414
4910764 0.8655473185036483 -0.4519735415920377
4920768 0.8645640689484899 -0.45390409608510945
4930772 0.8635506145120253 -0.45584907943534214
4940776 0.862721262826212 -0.4576318220536543
4950780 0.8616608372992272 -0.4593385007361002
4960784 0.8605447908054544 -0.46123484514131324
4970788 0.859675668750643 -0.46311267984478305
4980792 0.8587404673858212 -0.46490686508261625
4990796 0.8575997071323936 -0.46675561307908703
5000800 0.8566871493881536 -0.4687503190367758
5010804 0.8559516339599669 -0.47044902169494557
5020808 0.8556327641924486 -0.47250311675048967
5030812 0.8540094827614468 -0.47409942724160764
5040816 0.8527101689235952 -0.4757506521770311
5050820 0.8516881233588456 -0.477778534768313
5060824 0.8507513606678176 -0.4795090715788286
5070828 0.8497778375347816 -0.4813103803610893
5080832 0.848586967784517 -0.4829896201107604
5090836 0.8475336013952971 -0.48489543439756977
5100840 0.8466303054470329 -0.486621111308508
5110844 0.8453894903945888 -0.4882804858532185
5120848 0.8444064854978238 -0.49021507295545164
5130852 0.8434216464323897 -0.4920554664032326
5140856 0.8423100671302978 -0.4936742651858291
5150860 0.8410810896738182 -0.4954660126011235
5160864 0.8401071817261945 -0.4974765444051816
5170868 0.8392320034716808 -0.49916472562609543
5180872 0.8381266338510066 -0.5007998914145139
5190876 0.8369400039159699 -0.5027834033700861
5200880 0.835898490885574 -0.5044967170689975
5210884 0.8348466949189448 -0.5061981078581186
5220888 0.8335480651237827 -0.5079307356812868
5230892 0.8326426081120979 -0.5100454851803027
5240896 0.8316565703984211 -0.5115665860669479
5250900 0.8303246763255088 -0.5133095351402194
5260904 0.829216731077227 -0.5152488170548135
5270908 0.8282280065106322 -0.5167560480859418
5280912 0.8271594100508439 -0.5186291222941388
5290916 0.8258736334827689 -0.5205021842549276
5300920 0.8249842979317894 -0.5222960303997203
5310924 0.8236888475360165 -0.5238929722414908
5320928 0.8224286995681629 -0.5257701737506013
5330932 0.8215894070362215 -0.5275217978012928
5340936 0.8203677734958055 -0.5292348889229523
5350940 0.8190477528602094 -0.531022399161827
5360944 0.8179629009181821 -0.5328309673106291
5370948 0.8168262887649932 -0.5345686292548965
5380952 0.8155765187014631 -0.5361404858257274
5390956 0.8144875060697596 -0.5381974608764305
5400960 0.8133531664703276 -0.5397573258491327
5410964 0.8121069644402825 -0.541267469299078
5420968 0.810745353755606 -0.5432161163922037
5430972 0.8098002916115811 -0.5450431972108496
5440976 0.8085177803148818 -0.5465567379469661
5450980 0.8072548914763732 -0.5484627882830816
5460984 0.8062765522088577 -0.5503825551959515
5470988 0.8049576070551782 -0.5517713935100789
5480992 0.8037297552874763 -0.5535221834942373
5490996 0.8026039850107949 -0.5555261528931313
5501000 0.8014388504337447 -0.5571557875532805
5511004 0.8000373645497881 -0.5586311422589101
5521008 0.798827315268133 -0.5606609954876571
5531012 0.7977556257557769 -0.5621833546329581
5541016 0.7964785236224695 -0.5638701922829349
5551020 0.794993571976364 -0.5656521842900186
5561024 0.79415464285839 -0.5674725720014279
5571028 0.7928936854474603 -0.5690215477835208
5581032 0.7912938722769642 -0.5707751035204727
5591036 0.7902918353355703 -0.5726221447795469
5601040 0.7891764153377365 -0.5741741743318616
5611044 0.7875823722333053 -0.5758316200149501
5621048 0.7864396103314066 -0.5776184436223405
5631052 0.7852327521668105 -0.5791488916962662
5641056 0.7838799919085194 -0.5808672814042632
5651060 0.7824663020751971 -0.5828190295731313
5661064 0.7814321461381998 -0.5845285933424558
5671068 0.7802210900911818 -0.5859722504681456
5681072 0.7786091756369776 -0.5878371945940525
5691076 0.7775239855419277 -0.5895940516693279
5701080 0.7762140365523074 -0.591244628141303
5711084 0.7745751971079841 -0.5929188972754881
5721088 0.7734792833431756 -0.5946981407614473
5731092 0.7721815386222161 -0.5963116303986742
5741096 0.7708670470864216 -0.5980353809122095
5751100 0.7694412193265121 -0.5996667647951938
5761104 0.7682761106765496 -0.6014986116173973
5771108 0.7668792470256618 -0.6028945536850367
5781112 0.765385100871451 -0.6046957576506244
5791116 0.7640733900453955 -0.6065178042022864
5801120 0.7628130630179393 -0.6080040037014149
5811124 0.7612759866744772 -0.6096587428210202
5821128 0.7598314169647901 -0.6114353046801323
5831132 0.7588074054878089 -0.6132613989605386
5841136 0.7573850214936317 -0.6149046677178334
5851140 0.755729668589496 -0.6165139368081545
5861144 0.7545437787475603 -0.6182359308433754
5871148 0.753171309476417 -0.6197814603189001
5881152 0.751615719628662 -0.6216164232251891
5891156 0.7504615759316727 -0.6233049641532328
5901160 0.7489944376288606 -0.624720215719749
5911164 0.7473631953928684 -0.6264568329670205
5921168 0.7461669148553748 -0.6283134470947135
5931172 0.7447750708748396 -0.6299477496107753
5941176 0.743385462219516 -0.6312875385814104
5951180 0.7416647415272636 -0.633130867990045
5961184 0.7404818458703337 -0.6348684980929897
5971188 0.7389538968011732 -0.6363101222621927
5981192 0.7373511839560349 -0.6379832446811697
5991196 0.7361170805701567 -0.6396541649695358
6001200 0.7347627519633948 -0.6412822484637574
6011204 0.7329839725031249 -0.6427810879454021
6021208 0.7316900195859682 -0.6448300759707162
6031212 0.7300206692856593 -0.6459064708458452
6041216 0.7287325686700866 -0.6478527429292376
6051220 0.7273069441230469 -0.6495745194469261
6061224 0.7258797177697329 -0.6511445384350628
6071228 0.7243122766005692 -0.652615545490613
6081232 0.7226806488529195 -0.654487793844344
6091236 0.7213860021648101 -0.6560568774663449
6101240 0.7198500460804316 -0.657619489549335
6111244 0.7180802340841564 -0.659208974642483
6121248 0.7167243240107631 -0.6609332724393774
6131252 0.7153063573609806 -0.6623087552110422
6141256 0.7136705072676589 -0.664043030819458
6151260 0.7120408401184033 -0.6656929332188696
6161264 0.7106973321589779 -0.6672968931526394
6171268 0.7089907312895859 -0.6688458542351
6181272 0.707344221857939 -0.6706281072996101
6191276 0.7060941092375799 -0.6723492996952086
6201280 0.704397220412341 -0.6736977435887296
6211284 0.7027129352471673 -0.675228714887989
6221288 0.7011510618418477 -0.6771259792793268
6231292 0.6996945594203949 -0.6786225058644199
6241296 0.6980993422771641 -0.6802820372946743
6251300 0.6964796891198743 -0.6818453884080673
6261304 0.694906389041559 -0.6835156764651051
6271308 0.693348260167462 -0.6851447681985946
6281312 0.691625476612399 -0.6866547189899181
6291316 0.6900304348043949 -0.6884116613095851
6301320 0.688490354528901 -0.6900589945922052
6311324 0.6868388858872682 -0.6915814948103918
6321328 0.6850248365384978 -0.6930479506882558
6331332 0.683463185575786 -0.6948671967314534
6341336 0.6818425482632559 -0.6963913430235978
6351340 0.6801157141531889 -0.697868249167724
6361344 0.678376602048917 -0.6996699495620748
6371348 0.6767902363921202 -0.7012533794351367
6381352 0.675045458939673 -0.7028548826060234
6391356 0.6734222944244471 -0.704399919274967
6401360 0.6716512047259242 -0.7059561471975513
6411364 0.6699962497968884 -0.7076174513476545
6421368 0.6682915120998356 -0.70919169329425
6431372 0.666537865713682 -0.7107963696870192
6441376 0.6649291087052582 -0.7123303859566187
6451380 0.663088394987094 -0.7140378308941685
6461384 0.6612301678497036 -0.7154794719301109
6471388 0.6595827550343614 -0.7172420459792198
6481392 0.6579530798697932 -0.7188981156656733
6491396 0.6560020098452143 -0.7202457219455138
6501400 0.6542891302215272 -0.7219435284010064
6511404 0.652464261716326 -0.7234121899464246
6521408 0.6505792717495668 -0.725037100027051
6531412 0.6490262310420869 -0.726553396487351
6541416 0.6470860333427014 -0.7281382618689467
6551420 0.6452905823664739 -0.7296597414783298
6561424 0.6436365654569081 -0.7313437536056753
6571428 0.641622935964995 -0.732886780343262
6581432 0.6399185724036802 -0.7343949400638388
6591436 0.6381371784781341 -0.7359452866166353
6601440 0.6361956600943289 -0.737280904708313
6611444 0.6343853708102956 -0.7389828752766591
6621448 0.6325764622003484 -0.7405707058694269
6631452 0.6308022170708845 -0.7419538373316051
6641456 0.6289218061794256 -0.7436503154508743
6651460 0.6270466700675881 -0.7452196707914566
6661464 0.6249704313806224 -0.7467656786529216
6671468 0.6230966000338105 -0.7482409972694373
6681472 0.6212778288903851 -0.7497676919295363
6691476 0.6194350695839124 -0.7512522503402842
6701480 0.6175076404429426 -0.7528438437234677
6711484 0.6155900937183862 -0.7543474577186857
6721488 0.61375494605128 -0.7560189532564832
6731492 0.6118470780156171 -0.7573834471383066
6741496 0.6097362134891068 -0.7588117309191321
6751500 0.607878302299096 -0.7604296364143079
6761504 0.6059357367648411 -0.7619033172167752
6771508 0.6040174088564667 -0.7636392212744975
6781512 0.6019165808306499 -0.7649930273480119
6791516 0.6000289842413196 -0.7664773736967985
6801520 0.5979770237851221 -0.7679663824314775
6811524 0.595924437065329 -0.7695146577535374
6821528 0.5939597633778342 -0.7710378514636478
6831532 0.5918846451276851 -0.7725330477864927
6841536 0.5898234727867203 -0.7741513149263392
6851540 0.5879879092661461 -0.7756885231984866
6861544 0.5859127325854784 -0.7770677881279641
6871548 0.5837393155384577 -0.7786104108937797
6881552 0.5817174584270633 -0.7803011627290585
6891556 0.5796913818528125 -0.7818248129575447
6901560 0.577632617463365 -0.7831776164301023
6911564 0.5754872566544825 -0.7848116597394219
6921568 0.5734327562952929 -0.7861582846319275
6931572 0.571184185492695 -0.7877246420445753
6941576 0.5689925422205512 -0.7892303921609432
6951580 0.5670779876728241 -0.7907096485230378
6961584 0.5651059934541401 -0.7922283528415665
6971588 0.5627459862231333 -0.793829030502327
6981592 0.5605646851554168 -0.795459421953805
6991596 0.5583585435742109 -0.7969128131186696
7001600 0.5562576268629703 -0.7981962776779756
7011604 0.5540169223749117 -0.7997876914180663
7021608 0.5519035407091197 -0.8012878408439175
7031612 0.5495769465700463 -0.8027736483607785
7041616 0.5480077674716045 -0.804729557878249
7051620 0.5451472623035399 -0.8056191190891517
7061624 0.5426932724467396 -0.8070347268195582
7071628 0.5406817525660922 -0.8085205838182722
7081632 0.5382771855107014 -0.8098626477455141
7091636 0.5360614266281015 -0.8114683750113451
7101640 0.5337089252746232 -0.8130046994874077
7111644 0.5314259948168061 -0.8143386409545856
7121648 0.5291422302261665 -0.8158868496643742
7131652 0.5268094823590849 -0.8174834511871313
7141656 0.5245311086872514 -0.8188031833678584
7151660 0.5220122299475898 -0.8201840525301266
7161664 0.5196229333926562 -0.8218194901048483
7171668 0.5172738224814057 -0.8230893439695013
7181672 0.5148084521458458 -0.8246263524656755
7191676 0.5123962227578505 -0.826220440927885
7201680 0.5100608355952223 -0.827412441301053
7211684 0.5076808291628212 -0.8290139288862068
7221688 0.5049972766755493 -0.8303734470580745
7231692 0.502740610494689 -0.8319009739711568
