# HZ S RI R 50
3000000 -1.0005964779893988 -5.446540374264926e-06
3010004 -1.0006756653239373 -7.302846641489455e-05
3020008 -1.000397390725277 -7.728682734958308e-05
3030012 -1.0004877554166662 4.88362914760383e-05
3040016 -1.0005077149959698 -5.079174091864584e-05
3050020 -1.0005439104409661 -5.7545166900113744e-05
3060024 -1.0006154112136956 3.775847615110258e-05
3070028 -1.00050504323324 1.6740784970945319e-06
3080032 -1.0005767375713863 -6.836140873882354e-05
3090036 -1.000544003937677 -0.00011019980340140948
3100040 -1.0004334378216837 -2.9037901959202866e-06
3110044 -1.0005403739996275 -2.3826037173673887e-05
3120048 -1.0007445590754365 -7.75890999428554e-05
3130052 -1.0004347254075565 -0.0001432368971797543
3140056 -1.000317683581612 -0.00015644972843561426
3150060 -1.0006105036348287 3.051341841902396e-05
3160064 -1.0006842096813449 -6.491740814185954e-05
3170068 -1.000556341983668 2.6386879154248605e-05
3180072 -1.0006233280762293 3.708338895204213e-05
3190076 -1.0006129207645922 -9.34083322682798e-06
3200080 -1.0004925343721047 -8.592966918941266e-05
3210084 -1.0005051231943585 3.8972393078245035e-05
3220088 -1.0004415412995296 -7.235785230728269e-05
3230092 -1.0003527297051071 -0.00019817666060377692
3240096 -1.0003489127761775 -1.9662277521604756e-05
3250100 -1.0005014081895447 -2.2843804028278955e-05
3260104 -1.0005010316230358 -0.00011227910104572492
3270108 -1.0006512630851974 -0.00016804875892473023
3280112 -1.0005794208233416 -3.770738282605259e-06
3290116 -1.0005749839884914 2.7014120007149413e-05
3300120 -1.0004100216124792 -0.00011827532138332
3310124 -1.000611294133292 -7.211770927505626e-05
3320128 -1.0006278928005488 -3.1059675161903113e-06
3330132 -1.0005185605809992 -5.631086060711485e-05
3340136 -1.0006850124275666 -0.00010056453848678604
3350140 -1.0005421088669262 -6.994069915132926e-05
3360144 -1.0006327203470673 -9.118020674331259e-05
3370148 -1.0005256291043993 -0.00011169419511151037
3380152 -1.0005035410373162 -0.00012037523327919235
3390156 -1.0006211685850654 -9.193944482963041e-05
3400160 -1.0005610260147637 -0.00013292136869875933
3410164 -1.0004207425690783 -9.002348053014305e-05
3420168 -1.0006270855027457 -1.4684011146303165e-05
3430172 -1.0005375182562424 -3.067415538606049e-05
3440176 -1.0007191255810253 -0.0001377742031671706
3450180 -1.000540238122769 -9.140757524417845e-05
3460184 -1.0005733927751679 8.167290514013575e-05
3470188 -1.0004770042064304 -4.042170260304564e-05
3480192 -1.0004848723865885 -0.0001005514598243247
3490196 -1.0005053908907995 -3.902868897621749e-05
3500200 -1.0007024492499383 1.3036167627364179e-05
3510204 -1.000590101633691 -0.0002291525969581042
3520208 -1.0005516264596508 -7.783839316011548e-05
3530212 -1.0007514962072317 2.4256967583596808e-05
3540216 -1.0005748434595851 -0.00020640786496287948
3550220 -1.0005411121537842 -0.00020220045623738894
3560224 -1.0005448799392762 0.00015208263810914883
3570228 -1.0009067711860784 -0.00012380585706690692
3580232 -1.000547165985976 -0.00012355248705210766
3590236 -1.000402476953543 -9.032930077291251e-05
3600240 -1.0007789115756478 -2.9359851660560483e-05
3610244 -1.000478403477854 -0.0001557626164369034
3620248 -1.0006569441093391 -5.064409718009556e-05
3630252 -1.0005779813587568 0.00016087545177392696
3640256 -1.0006988635379281 -0.00015975644745219042
3650260 -1.000526215459337 -0.00020641836448062
3660264 -1.0004141440391696 6.489437726724464e-05
3670268 -1.0005930984443223 -6.379101390943833e-05
3680272 -1.0006146040106132 -9.527709725496573e-05
3690276 -1.0004604800208639 -4.136066963908821e-05
3700280 -1.0005417076443828 -5.1530279606019764e-05
3710284 -1.0005935915383968 -0.00016460099099499517
3720288 -1.0005456396815844 -5.665077045476131e-05
3730292 -1.0004779186384505 0.00014122132692012608
3740296 -1.0006623027398738 -0.00019787538646367196
3750300 -1.0004098379617907 -0.00013067450047387304
3760304 -1.000486808666504 6.902590499160972e-05
3770308 -1.000519222209914 -0.00010818101559173422
3780312 -1.000326268833105 -0.00022244151135160346
3790316 -1.000306103929291 4.626272390365283e-05
3800320 -1.0006070843205506 1.666612995415635e-05
3810324 -1.0004853471010409 -0.000224971083804465
3820328 -1.0002907230099187 -4.793254237107353e-05
3830332 -1.0006296070180263 7.100340577358557e-05
3840336 -1.0003412204712403 -0.0003011063330144745
3850340 -1.0002852434679124 -0.00013382432411412483
3860344 -1.0003031482412712 1.9206301072652874e-05
3870348 -1.0004438058822644 -2.851742660659447e-05
3880352 -1.0005066307646144 -8.960506087669379e-05
3890356 -1.000445005599462 -0.00010674562749300217
3900360 -1.0004917695541835 8.032554345998094e-05
3910364 -1.000512862954374 -0.000187920899073478
3920368 -1.0001957319812447 -0.0002221139557813059
3930372 -1.0002856955775794 -5.098726509278326e-06
3940376 -1.000582314865604 -0.00019880069709733264
3950380 -1.0005133363927126 -8.078233053267804e-05
3960384 -1.0004141020706205 8.03405234594201e-05
3970388 -1.000537269537574 -0.00011486101455473514
3980392 -1.0005701070029462 -0.0001274464423590875
3990396 -1.0003585921565412 -4.884095025887108e-05
4000400 -1.0003960592696748 -3.333487638920937e-05
4010404 -1.0006962612408525 -0.00013357078283768192
4020408 -1.000439578195836 -0.00013729430584915068
4030412 -1.0002016229720327 8.798632577904735e-07
4040416 -1.0003973378790356 2.3306930167252535e-05
4050420 -1.0004496209893148 3.601461043926353e-05
4060424 -1.0003429091262352 -0.0001644120951757496
4070428 -1.0005235433674275 5.507315276839117e-05
4080432 -1.0002805982442793 -0.00020871711226494463
4090436 -1.0003981827739985 -0.00010239053151085898
4100440 -1.0004635711339978 1.4535772860329836e-06
4110444 -1.00029848525406 -5.8575327250107405e-05
4120448 -1.000419217560196 4.57128724579254e-05
4130452 -1.00054476947307 0.00013917972301265703
4140456 -1.000517751380328 -3.1215822161017886e-06
4150460 -1.000287218244623 -0.00022638456953322965
4160464 -1.000183044749255 -4.514201569614725e-05
4170468 -1.0004558389847253 0.00011012147964670816
4180472 -1.000420369666111 -1.4665235938812191e-05
4190476 -1.000439206839228 -3.957257009147122e-05
4200480 -1.000510431256482 -4.62917361455342e-05
4210484 -1.0004327983681447 -2.082141632182987e-05
4220488 -1.0002858609896008 -1.4921141806230358e-05
4230492 -1.0003932072157726 4.102289475632347e-05
4240496 -1.0004459031236221 -8.101050486426995e-05
4250500 -1.0006959287865804 -2.074232295116244e-05
4260504 -1.0004846588088478 1.0305487757901511e-05
4270508 -1.0005388487650566 -8.209030700197005e-05
4280512 -1.0003332049690716 -7.908109060404316e-05
4290516 -1.0002533100961188 2.5998562728396227e-05
4300520 -1.0001343038121626 -2.4375089643008483e-05
4310524 -1.0003758392621975 -7.597489871793975e-05
4320528 -1.000542485310418 2.2313635921575562e-05
4330532 -1.0003314460672534 -0.00014551750458324252
4340536 -1.0002997255805104 2.856902417766146e-05
4350540 -1.0004351115207717 2.110639322439663e-05
4360544 -1.0004257148299878 7.062914560647061e-05
4370548 -1.0005506598696903 -7.848040446397003e-05
4380552 -1.0004801466237465 -8.266451186142668e-05
4390556 -1.0004151018660281 5.2507132380503434e-05
4400560 -1.0001341324856072 4.723768209659134e-05
4410564 -1.0006387747398566 2.38231976622524e-05
4420568 -1.0004864614312563 -6.823789350172705e-05
4430572 -1.0004584049565042 -1.250356387479334e-05
4440576 -1.0004579432962182 -6.584193315394761e-05
4450580 -1.0005007280897085 -4.5260430079340065e-05
4460584 -1.0007008875406012 0.0001711873325198719
4470588 -1.000610204631193 8.765155286917354e-05
4480592 -1.0006262270038642 -0.0001637518813166798
4490596 -1.000353014328793 -5.724470584247777e-05
4500600 -1.0005534058311731 -5.19083027635199e-05
4510604 -1.0003260002784613 3.150725235962494e-06
4520608 -1.0004661430049973 2.5469457632736474e-05
4530612 -1.0006110174305811 -7.386649063252515e-05
4540616 -1.0005663515248278 -0.0001251513111070991
4550620 -1.000510077284251 -0.0002130831845648738
4560624 -1.000351680935357 -7.113163676353255e-05
4570628 -1.0004076680948397 5.349415818442126e-05
4580632 -1.0006637829358982 8.198097865045844e-05
4590636 -1.0006560103040363 -6.509691559612678e-05
4600640 -1.0006025705425834 -8.89870198624179e-05
4610644 -1.0005415387887748 -3.948174870666033e-05
4620648 -1.0004585381407427 5.247784227485479e-07
4630652 -1.0005789665378626 0.00010986473007796926
4640656 -1.0006866627253508 -0.00015850195826921994
4650660 -1.000441844646375 -0.00011208646359319383
4660664 -1.0004472419191655 7.570808809403937e-05
4670668 -1.0004212850310983 4.510647603267987e-05
4680672 -1.000310832529941 -4.8186662012566486e-05
4690676 -1.0004095550465124 -4.0774708137942124e-05
4700680 -1.0005012989485138 -7.830589187938683e-05
4710684 -1.000346801910656 1.1506948782667808e-05
4720688 -1.0002088280468766 7.515702481475279e-05
4730692 -1.0003825167325784 0.00011350221509931919
4740696 -1.000671108205192 2.7447659280992986e-06
4750700 -1.0004091102974502 -5.533141735786522e-05
4760704 -1.000470596588883 -8.814550553933974e-05
4770708 -1.0003073204140918 -3.959840763941617e-05
4780712 -1.000417378471575 8.704431294015921e-05
4790716 -1.000468626662834 1.6561353770785493e-05
4800720 -1.0006429354084154 4.43750451644694e-05
4810724 -1.0004335038361374 -0.0001121671661955389
4820728 -1.0004166993844346 -0.0002002578605952168
4830732 -1.0003102395190453 -8.546613637976322e-05
4840736 -1.0002844474095647 -7.670484490960745e-06
4850740 -1.0006469326299403 5.343884299359241e-05
4860744 -1.00033107971164 -3.912214897346292e-05
4870748 -1.000463420743359 -9.553770374130653e-05
4880752 -1.0003423956925825 -2.9854622374632715e-05
4890756 -1.0005289216723567 3.180853211179378e-05
4900760 -1.0005049411001017 0.00020566522002634264
4910764 -1.0007199073599935 -1.9398942793982867e-06
4920768 -1.000559544300968 -0.00028623413585810895
4930772 -1.0004944365700654 -7.802144305319068e-05
4940776 -1.000528720585431 -3.3164482817130834e-06
4950780 -1.0004862235118885 2.8937439787770367e-05
4960784 -1.0006048920571904 1.1560910285340221e-05
4970788 -1.0006720004764516 -8.822187610698346e-05
4980792 -1.0005517257342327 -0.00015177268913688766
4990796 -1.0004218196833616 -4.667316380466033e-05
5000800 -1.0003525401642237 0.00015625669671484995
5010804 -1.000567381429124 5.249865797694206e-05
5020808 -1.0007319415542137 -3.804124915674043e-05
5030812 -1.0001155222348184 3.303252354512807e-05
5040816 -1.0003290431544924 -0.00014518147371529077
5050820 -1.000242528669823 -1.1875977675560247e-07
5060824 -1.000207258251073 7.022121663780033e-05
5070828 -1.0004298794006936 -6.252939240969867e-05
5080832 -1.0002659800333782 -0.00011587683562487676
5090836 -1.0001596081283821 2.438511904776541e-05
5100840 -1.0004047165388306 0.000153441776425598
5110844 -1.0004215381993578 -0.00016514531513441838
5120848 -1.0002491450987654 0.00011942915284706623
5130852 -1.0004805120982698 0.00013281405195689162
5140856 -1.0003927085574005 -0.00017155982621318985
5150860 -1.0003391402988753 -9.010450327917902e-05
5160864 -1.0003054366052486 3.0477131206260015e-05
5170868 -1.0004242403187251 3.9157028308271496e-05
5180872 -1.0003299607045189 -0.00017808192953199645
5190876 -1.0001882175889545 0.00010012186283130071
5200880 -1.0003910872535469 7.694369272984461e-05
5210884 -1.0004543467117548 -9.959788492253748e-05
5220888 -1.000287465824843 1.1802174324746748e-05
5230892 -1.0004593351567144 0.0001631523560956744
5240896 -1.0005415365445702 -8.89201094942614e-05
5250900 -1.000218896866157 -0.00015956136983585523
5260904 -1.0003249833646601 0.00011906768926066352
5270908 -1.000272233203715 -2.030153577508908e-05
5280912 -1.0004530106589717 -2.6228402800211836e-05
5290916 -1.0001125638424662 -5.061253580273753e-06
5300920 -1.0004089703098331 8.188854058017496e-06
5310924 -1.0003061986416506 4.1226459502372324e-05
5320928 -1.0002268153550533 -2.5642950087273076e-05
5330932 -1.0004914588253895 5.2331542968518804e-05
5340936 -1.0003814339795163 -0.00011901923093966055
5350940 -1.0000363890676787 -6.152414589969137e-05
5360944 -1.0001857486800596 -1.427168092051377e-05
5370948 -1.0003067380738055 -0.00011063656285552327
5380952 -1.0002490570645897 -2.1119507748239164e-07
5390956 -1.0002851832034858 4.555527357343548e-05
5400960 -1.0004341775361967 -0.00010370383563936473
5410964 -1.00057272368929 -6.598072442959816e-06
5420968 -1.000395685802137 2.6855023905772255e-05
5430972 -1.0003157533020155 1.227598225869999e-06
5440976 -1.0002416532774023 -0.0002861837087648528
5450980 -1.000133391879712 -7.927465056475289e-06
5460984 -1.000473963946093 -2.1347235253462755e-05
5470988 -1.0004047643654241 -8.810031506722926e-06
5480992 -1.0004205339104826 0.00011520865457455494
5490996 -1.000608040039779 0.0001335549177667459
5501000 -1.00046843285895 -5.447198136706135e-05
5511004 -1.0003088460297818 -7.990241324682444e-05
5521008 -1.0001866005873332 8.271060401123372e-06
5531012 -1.0004861498909305 -3.146275158256327e-05
5541016 -1.0003520913206383 -0.00014681344042240287
5551020 -1.0001467885688824 -9.210251340179062e-05
5561024 -1.0005179775836717 -2.937511472276634e-05
5571028 -1.0003697709016488 -0.00010531975717654766
5581032 -1.0004746104228242 2.389208330281681e-06
5591036 -1.0003447979959545 -8.197705140046286e-06
5601040 -1.0003941536863152 -2.4287768314188848e-05
5611044 -1.0004251215713105 5.2815726780829016e-05
5621048 -1.000208885491266 1.0880107426015277e-05
5631052 -1.0003477939844228 -7.636004688823949e-05
5641056 -1.000335987452767 -2.8818998902962998e-05
5651060 -1.0004495508084463 4.605094201081766e-05
5661064 -1.000661134542885 -5.1589312002178633e-05
5671068 -1.0005272646866779 -9.047614527400145e-05
5681072 -1.0004778611447591 7.722791681140491e-05
5691076 -1.000509325357422 -5.6228568455021666e-05
5701080 -1.000369595469495 4.8282222938906196e-05
5711084 -1.0002321216613663 1.3887846274636381e-05
5721088 -1.000432462720048 3.234307417138009e-05
5731092 -1.0002722832927313 -7.149338779162009e-05
5741096 -1.000097556091695 -5.939237518823501e-05
5751100 -1.0003438246207887 6.718692980628854e-05
5761104 -1.0002981932501105 4.615329759380307e-05
5771108 -1.000383926436249 -0.0001354743074944516
5781112 -1.0002013914531762 4.530942094082154e-05
5791116 -1.0004349744575798 9.120050395107833e-06
5801120 -1.0004263236282838 -4.691539942338218e-06
5811124 -1.0002767006833193 -8.933770314282618e-05
5821128 -1.0002429948160632 -7.506298479981222e-05
5831132 -1.0001464356558876 2.288125829241741e-05
5841136 -1.0001656945988937 -8.541259577376228e-05
5851140 -1.0003258472547538 4.793913595486437e-05
5861144 -1.0003127856836973 7.510870822697282e-05
5871148 -1.0002452218970923 1.5684702158138125e-05
5881152 -1.0004618184576042 1.2080668017205507e-06
5891156 -1.0002419571455694 1.0321042891362388e-05
5901160 -1.000340618499419 3.3105521998556266e-05
5911164 -1.0002404190678207 2.9751038947098353e-06
5921168 -1.0004348267867686 4.5606228934945135e-05
5931172 -1.0004592083360502 -3.250401417082324e-05
5941176 -1.000384204028798 -6.144305855371308e-05
5951180 -1.0002171516454168 2.7930414168365634e-05
5961184 -1.0002752574229186 -4.608439380064891e-05
5971188 -1.0001716941892285 -4.4850780451777104e-05
5981192 -1.0004499454663978 -2.2138970098085704e-05
5991196 -1.0003775959360715 -5.045261287590114e-06
6001200 -1.0004000483558033 -0.00011506135957386275
6011204 -1.0003336590119944 -1.785697835236731e-05
6021208 -1.0003071183625734 1.658457500961588e-05
6031212 -1.0011888697903888 -5.2542001843157916e-05
6041216 -1.0004420586358922 3.768113573906621e-05
6051220 -1.0006131400919447 -5.8653774218116737e-05
6061224 -1.0004188744500269 -8.206381763679038e-05
6071228 -1.0002539794972527 5.006720771533866e-05
6081232 -1.0004865812768844 0.00010071961270425057
6091236 -1.0005123495056847 4.688352027667664e-05
6101240 -1.0004517499513106 -4.456803257469946e-05
6111244 -1.0003467760427454 -4.375916369391234e-06
6121248 -1.0004910360581738 -6.666816325322052e-06
6131252 -1.00047004912499 2.575720134183876e-05
6141256 -1.0003821799068282 5.295446635552521e-05
6151260 -1.0004903398906198 8.849226295227369e-05
6161264 -1.0005079774416528 -0.00015155518631523784
6171268 -1.0003117854358499 -0.00011215825692940102
6181272 -1.0002723735408012 -2.1943539676090888e-05
6191276 -1.0005648612230498 -1.8066793697128138e-05
6201280 -1.0003822286729114 1.3085621961637916e-05
6211284 -1.0005365351817823 9.338740432380078e-05
6221288 -1.000463723374361 -4.417625615371486e-05
6231292 -1.0003782834356465 -0.00013205732976048933
6241296 -1.0002567305829777 2.8252161272334842e-05
6251300 -1.0005578880393668 7.780715570704832e-05
6261304 -1.0004826478297242 -0.00010635808785025321
6271308 -1.000433075378101 -0.0001265748306479522
6281312 -1.0003886878954116 -9.467732443328544e-05
6291316 -1.0003793151592175 -8.587029524902831e-05
6301320 -1.0004193065731948 9.589370454779825e-05
6311324 -1.0002333448670668 0.00021615039324155314
6321328 -1.0004126227556172 -6.797317622417094e-05
6331332 -1.0003097367013085 -0.00012663711819017374
6341336 -1.000359347794248 2.81525072157594e-05
6351340 -1.000584610618174 0.00011155232541594829
6361344 -1.0004387872097846 -6.098884531353819e-05
6371348 -1.0005097311140965 -7.614184884458277e-06
6381352 -1.0004821783345763 -9.733829356309807e-06
6391356 -1.0005376097060632 -5.66754722343189e-05
6401360 -1.0004368680188114 -0.00010216473313986908
6411364 -1.0005342218968096 4.449510143971934e-05
6421368 -1.0007671235678166 4.735159117902062e-07
6431372 -1.000480107594915 -0.00013442110924444977
6441376 -1.0006062053203773 -5.369409144533087e-06
6451380 -1.0004803696050422 0.00014325102503396625
6461384 -1.0005049764388085 -2.5294946579044936e-06
6471388 -1.0003202642435045 -2.9277113928720795e-05
6481392 -1.0006891704348084 0.00014442324123512337
6491396 -1.0005242409589457 -0.00011307958016724552
6501400 -1.0003655786684849 -0.0001419107359424012
6511404 -1.000478438008319 8.38099536700782e-05
6521408 -1.000544767927417 1.6762238618115426e-05
6531412 -1.000548640074185 1.76128256265433e-05
6541416 -1.0004733973435063 -4.268534999085204e-05
6551420 -1.0004974003187397 4.1942276845780864e-05
6561424 -1.0006753852047288 -3.0457973337053503e-05
6571428 -1.000363645296053 6.538462778913976e-05
6581432 -1.0006362667516413 0.00012599957915860547
6591436 -1.000932229243094 8.429386765215821e-05
6601440 -1.0004859040148235 -0.00016909888269997365
6611444 -1.0004932612852608 -1.8567052248544016e-05
6621448 -1.000667843368517 8.980066754296199e-05
6631452 -1.0005519898440198 -4.9076181939758265e-05
6641456 -1.000586807324827 7.266924779280554e-05
6651460 -1.0007104932434823 8.168356734702367e-05
6661464 -1.0005701625174142 -0.00016488452849084355
6671468 -1.0004579244917535 0.00012024705195286016
6681472 -1.0006735868644845 0.00011164573667206706
6691476 -1.000557743155325 -5.665467222751983e-05
6701480 -1.0005684989147354 -7.421099852950747e-05
6711484 -1.0004588335762212 4.818028413553347e-05
6721488 -1.000727879948498 -6.649916055958463e-06
6731492 -1.000561045008521 -8.882172017027791e-05
6741496 -1.0004734644950373 2.683823507727112e-05
6751500 -1.000688327838963 7.922735888301617e-05
6761504 -1.0006175568987707 -2.7795229553614484e-05
6771508 -1.000508058599006 6.52468394535095e-05
6781512 -1.0008071407869386 0.00020120004428271932
6791516 -1.0007415088511553 -3.9910700983242985e-05
6801520 -1.0005900407361137 6.589454971525368e-05
6811524 -1.0006121764735902 0.00012994770815706594
6821528 -1.000594721354172 1.2337147038795743e-05
6831532 -1.000413418378436 -3.5697360215857014e-05
6841536 -1.0005965602284954 0.00013086042548258341
6851540 -1.0006178646307724 0.000122218588702908
6861544 -1.000520796095466 -0.00021252079258539516
6871548 -1.000194521411118 4.134754848750826e-05
6881552 -1.0003601903325816 8.73588206902476e-05
6891556 -1.000428963984723 -4.905045689135439e-06
6901560 -1.00051281928905 -2.2491233316009618e-05
6911564 -1.0003592161936823 0.000180588038117789
6921568 -1.0005484725685283 -3.313665598669134e-05
6931572 -1.0002066893948174 -5.635368982683039e-05
