# HZ S RI R 50
3000000 0.9704674410833555 0.10430282539923823
3010004 0.969179481888826 0.10099615491368234
3020008 0.9699808386654302 0.09822684167698957
3030012 0.9699110894909083 0.09555699890262663
3040016 0.9699928931557487 0.09275037808968874
3050020 0.9706043914193249 0.08993003495747004
3060024 0.9708167232843641 0.0872549291631121
3070028 0.9711376420759724 0.08460991266804273
3080032 0.9713315753397466 0.08168326710013836
3090036 0.9718245109063701 0.0790049708746759
3100040 0.9721256163577284 0.0764011333514133
3110044 0.9722058490446605 0.0735995258761867
3120048 0.9726962579030112 0.07075424481947709
3130052 0.9729010637731816 0.06814541337347785
3140056 0.9731370035702276 0.06558502004368279
3150060 0.9731742285603677 0.06274362360006193
3160064 0.9735699047121514 0.060055514132034866
3170068 0.9736108046639542 0.057525892704021635
3180072 0.9737859250610739 0.05483206729346496
3190076 0.9741338297380217 0.052119459417293755
3200080 0.974425703793277 0.049566477529266864
3210084 0.9742975570162717 0.0469545787420289
3220088 0.9745157335429808 0.04418745778503353
3230092 0.9745049647627538 0.04172942211416611
3240096 0.9748418016506454 0.039083124107603395
3250100 0.9749199468009694 0.03639770534717987
3260104 0.9752600805594032 0.03371330396307612
3270108 0.9753547692688623 0.031264648405132406
3280112 0.9753666395743098 0.02877322943976971
3290116 0.9751828649861054 0.02605146431548608
3300120 0.975541195355992 0.023431921261543254
3310124 0.9753668757323 0.021043932294744584
3320128 0.9757558813255994 0.018353385342398484
3330132 0.9756426192030309 0.015778929415748415
3340136 0.9758840982656386 0.013468599461798873
3350140 0.975789577103177 0.010857921015484487
3360144 0.9760623046220018 0.008209392036470798
3370148 0.9761670972869508 0.005916510829478369
3380152 0.9760773121276282 0.0033569173647188684
3390156 0.9760691273587424 0.0007639626848567824
3400160 0.9761622172357297 -0.0017090226455074213
3410164 0.9762366410629073 -0.004118259043811044
3420168 0.9759816451493787 -0.006627754344176893
3430172 0.9763375948009524 -0.009318886821754732
3440176 0.9761203641664703 -0.01165227077742864
3450180 0.9760789379594843 -0.014013677801305713
3460184 0.976315957778207 -0.016675332097928226
3470188 0.9762713774961004 -0.019045303955174318
3480192 0.9761098599531517 -0.021342090547020874
3490196 0.975942459116423 -0.023864540935650453
3500200 0.9759933633069338 -0.026306221557089005
3510204 0.9758146733671617 -0.028721347291320923
3520208 0.9757368401486809 -0.031099723480476002
3530212 0.9757392095347377 -0.0336665602988184
3540216 0.9757336095383177 -0.03600909502259105
3550220 0.9757367015281457 -0.038330394621947206
3560224 0.9755546930811032 -0.040839793954834974
3570228 0.975491112896647 -0.04323501340381396
3580232 0.9755039553831997 -0.04557705421278848
3590236 0.9753052919610684 -0.04793311194886503
3600240 0.9751506767973578 -0.05040557994745613
3610244 0.9752791495165146 -0.05281194002926065
3620248 0.9749273555893071 -0.05494171136085888
3630252 0.974890951319914 -0.0574595958990938
3640256 0.9747236049912066 -0.05984958669791826
3650260 0.9747172123232355 -0.06206395903605804
3660264 0.9744590930940074 -0.06443129749841654
3670268 0.9742593871005761 -0.06683060401119227
3680272 0.9742120232359931 -0.0690345151529173
3690276 0.9739080594489538 -0.07128761742264693
3700280 0.9738883905501193 -0.07380607521567502
3710284 0.9736885560009415 -0.07596487784253173
3720288 0.9736204745124547 -0.0783507743457853
3730292 0.9728924065595943 -0.08062349427761198
3740296 0.9732951381073635 -0.0828965825010861
3750300 0.9730103657246206 -0.08529979050788546
3760304 0.9728517741802585 -0.08759128740180629
3770308 0.9727622265000881 -0.08984795870417969
3780312 0.9724357926059989 -0.09205354678720469
3790316 0.9719653043818516 -0.09425659325548803
3800320 0.9720099079057678 -0.09659359337845627
3810324 0.9717714249161488 -0.09874837275355577
3820328 0.9714619373896719 -0.10108433821328945
3830332 0.9713946376042984 -0.10335234183410506
3840336 0.971171443484855 -0.10561486397093162
3850340 0.9707669926189928 -0.10777812128802583
3860344 0.9703405029248111 -0.10992043054451191
3870348 0.9705639433108032 -0.11227648659605753
3880352 0.9702813814479618 -0.1145185534191318
3890356 0.9696328373775677 -0.11659209346731338
3900360 0.969398249390855 -0.11885977957627855
3910364 0.9692383698274188 -0.12109536353794349
3920368 0.9688394730956371 -0.12310828297416991
3930372 0.9684291613528472 -0.12535859408149838
3940376 0.9686883919201108 -0.12777796890156384
3950380 0.9683280933474597 -0.12988630161415504
3960384 0.9681141975953392 -0.13202359850009576
3970388 0.9674491057031331 -0.13414851719449672
3980392 0.96746721561393 -0.1363395063484243
3990396 0.9669157856415047 -0.1383744357073361
4000400 0.9668831079340512 -0.14075698542427886
4010404 0.9670570442434606 -0.14298435596439618
4020408 0.9666899569739451 -0.14526951792764065
4030412 0.9664332922032214 -0.14731756282426417
4040416 0.9660290942066941 -0.14944791334596988
4050420 0.9658059933016004 -0.1518789513404267
4060424 0.9656690212731965 -0.1539715016046039
4070428 0.965327207960645 -0.155841717933256
4080432 0.9647766100312524 -0.15799334208933882
4090436 0.9644888691147704 -0.16016551911831595
4100440 0.9641512868280104 -0.1623903354402132
4110444 0.9637073390388687 -0.16443121437430805
4120448 0.9632006413677384 -0.1666143161522588
4130452 0.9631477715193466 -0.16887883952773441
4140456 0.9625618154545366 -0.17067438268295607
4150460 0.9622147988225185 -0.17283990019834505
4160464 0.9619091504601213 -0.1750815869994952
4170468 0.96163832140755 -0.1772286813697397
4180472 0.9613256010023533 -0.17918462162718263
4190476 0.9608317139046225 -0.18123961909248712
4200480 0.9603745630363232 -0.18318300507176816
4210484 0.9597948168695798 -0.18531213975330957
4220488 0.9595431637313862 -0.18775407400022176
4230492 0.9592698795942608 -0.1895566404845603
4240496 0.9587640471129553 -0.1914989859412077
4250500 0.9583894226458523 -0.19355344550388848
4260504 0.9578800142667343 -0.19567338222373354
4270508 0.957486981373907 -0.197842509034851
4280512 0.9570332022929516 -0.19980736182260583
4290516 0.9566599702557785 -0.20177033975793235
4300520 0.9562538793594059 -0.20393368841539933
4310524 0.955618323242784 -0.2057994090915628
4320528 0.9552613725764634 -0.20791444766335992
4330532 0.9549769003414522 -0.21012450977079897
4340536 0.954457167519503 -0.21199381454528138
4350540 0.9538557257253658 -0.2138283403437996
4360544 0.9535872646775821 -0.21593662333847408
4370548 0.9531466023027487 -0.21807670355497935
4380552 0.9526845141936546 -0.22000307991872198
4390556 0.9521525843691201 -0.2221199235963063
4400560 0.9517070421752662 -0.22406835690129598
4410564 0.9514718253815332 -0.22611938680778276
4420568 0.9507147109059805 -0.2278892678193804
4430572 0.9501238906492294 -0.22995866577619284
4440576 0.9497963853745818 -0.23209773703462075
4450580 0.9492541196616405 -0.23400297800629258
4460584 0.9488756528219106 -0.23580847614759473
4470588 0.948410090551234 -0.23796456046842288
4480592 0.9476058056855867 -0.23971823432727726
4490596 0.9473992173577814 -0.2419162278412919
4500600 0.9468299250156716 -0.2439398999563225
4510604 0.9463792616494194 -0.24586833396684785
4520608 0.945695145080945 -0.2476577292613603
4530612 0.9450063994655763 -0.24970341069870453
4540616 0.9446016560587744 -0.2517105716400866
4550620 0.9442014216107583 -0.2537844463863778
4560624 0.9437025976462342 -0.2556396886367163
4570628 0.9431492752744265 -0.2576121972434515
4580632 0.9427885986608474 -0.2595899831668223
4590636 0.9420165162890068 -0.26134628827849027
4600640 0.9415812859619952 -0.2635111541572628
4610644 0.9410487122068025 -0.2652785953720546
4620648 0.9404513783805362 -0.2671046291347524
4630652 0.93994097961232 -0.269089890050022
4640656 0.9391761539154355 -0.2710153513378968
4650660 0.9386362196238085 -0.2728508990972149
4660664 0.9380661046563702 -0.2749073263061383
4670668 0.9375860601560622 -0.27683349181372585
4680672 0.937175037531319 -0.27877479447210984
4690676 0.9365267678012615 -0.2805966906575893
4700680 0.9358803327475241 -0.2824474421152779
4710684 0.9352233768247108 -0.2844861491438619
4720688 0.9346553530714348 -0.28629059065674517
4730692 0.9340333181934628 -0.28810065704598065
4740696 0.9334846311526849 -0.2899802851845613
4750700 0.9327825974726387 -0.2918378592225274
4760704 0.932143364436409 -0.29386842049514683
4770708 0.9317220052512784 -0.2958077719184046
4780712 0.9311365928376313 -0.2975206465033116
4790716 0.9303965714387864 -0.299369453449202
4800720 0.9298218699260371 -0.3012570663153238
4810724 0.9292701332997684 -0.30309144922671966
4820728 0.9286697658545309 -0.3049830019944161
4830732 0.9278267357267848 -0.30689129342020055
4840736 0.9275210387801743 -0.30886845931997015
4850740 0.9270362882883709 -0.31060961087149236
4860744 0.9260241366487124 -0.31245618625951027
4870748 0.9254936743199068 -0.31441635956535385
4880752 0.9249672428226797 -0.31631189835307727
4890756 0.9241726650703005 -0.31787442746580397
4900760 0.923453408895233 -0.3198054025469109
4910764 0.9228642253070078 -0.3216554093326177
4920768 0.9221407406737465 -0.3234254693138551
4930772 0.9216239486652229 -0.3255367704415567
4940776 0.9210192845759906 -0.32723642939428815
4950780 0.9201956879728435 -0.3290173635790133
4960784 0.919567036240502 -0.33085559372995016
4970788 0.9190231761261904 -0.3326494175067405
4980792 0.9184028889247214 -0.3343898985065939
4990796 0.9176153952507086 -0.33628983105636
5000800 0.916905478905999 -0.3382105676025569
5010804 0.9164910635488611 -0.3400593214195649
5020808 0.9153487637565033 -0.341588364442079
5030812 0.9147400202450621 -0.343408326247712
5040816 0.9139976951874953 -0.3452980874210297
5050820 0.913416427726101 -0.34714611914355126
5060824 0.9126652669894921 -0.348795265636607
5070828 0.9119118355073166 -0.3506403816409312
5080832 0.9112249347716822 -0.35242662152259807
5090836 0.9105416714002035 -0.3541261915945595
5100840 0.9097591087161506 -0.3557676434180863
5110844 0.9090184058694333 -0.35768385179400136
5120848 0.9084379917924791 -0.3594530466718844
5130852 0.9076374214147368 -0.361263184907569
5140856 0.9069229744283407 -0.36300821302894104
5150860 0.9063599091976337 -0.36488233612339865
5160864 0.9056448946817502 -0.36663540132528905
5170868 0.9048455828450316 -0.3682791115789034
5180872 0.9040997525862026 -0.37015633180231694
5190876 0.903333514739615 -0.37192593299827237
5200880 0.9027315376742376 -0.3736417166354712
5210884 0.9019865710665224 -0.375355345891829
5220888 0.9011682125624461 -0.37714572581993044
5230892 0.9005449901768554 -0.3789085878259136
5240896 0.8996786785251373 -0.38059638122602796
5250900 0.8989347562078824 -0.3823371639902045
5260904 0.89824815233962 -0.38421567325888756
5270908 0.8972769936220377 -0.3857592171590108
5280912 0.8967668930230909 -0.3875783772615327
5290916 0.8959353529348407 -0.3893942799709878
5300920 0.8952760528927034 -0.39115712871232583
5310924 0.8944694148997293 -0.3929173399479961
5320928 0.8936419341953914 -0.3946481381510846
5330932 0.892957242710762 -0.39625993360975986
5340936 0.8921996115647632 -0.39807482749590967
5350940 0.8913104147082787 -0.3998848926412989
5360944 0.8906200406230483 -0.40153375312367345
5370948 0.8897290307200527 -0.4032873998642389
5380952 0.8889819030302045 -0.4049453964771741
5390956 0.888231781801863 -0.40670518730609817
5400960 0.8873842819796819 -0.40819113240641985
5410964 0.8865107555063784 -0.41002112099004207
5420968 0.8858831090531896 -0.4118460532405796
5430972 0.8851080884004805 -0.41347494655108513
5440976 0.8841543402015104 -0.41521136832077565
5450980 0.8832654231834748 -0.4169447045282543
5460984 0.8826908791128075 -0.41868636284215827
5470988 0.8817876110500621 -0.42026918370912364
5480992 0.8808436449719543 -0.42198205692784346
5490996 0.8802580486111788 -0.42376492209968725
5501000 0.8794959773011654 -0.42542913489672995
5511004 0.8785736905775344 -0.42708869055247817
5521008 0.8777346515588204 -0.42871708896610167
5531012 0.8769641659070528 -0.43042810201622095
5541016 0.8759621542008129 -0.43202005084723905
5551020 0.8750874771800702 -0.4338324900014807
5561024 0.874363435872923 -0.43529182597177357
5571028 0.873487572041941 -0.4370413742365519
5581032 0.8726605023845444 -0.43885110198205074
5591036 0.8718443771648057 -0.4404001324870622
5601040 0.8709993534201932 -0.4419997319864169
5611044 0.8700719550275412 -0.4436967086875168
5621048 0.8692821932518257 -0.44518930074189994
5631052 0.8684889957809677 -0.4469235351052698
5641056 0.8675469336087921 -0.44860283101696946
5651060 0.8666417264690253 -0.4502803979943085
5661064 0.8658294576579886 -0.45201560133879404
5671068 0.8650037902846178 -0.4535458969967094
5681072 0.864007283737333 -0.45529022636900945
5691076 0.8632497603793429 -0.4568412596434942
5701080 0.8622689394516008 -0.4585546793105122
5711084 0.86130377092888 -0.4601857702446999
5721088 0.8605176261413244 -0.4619163466066127
5731092 0.8596537929832431 -0.4634158941909312
5741096 0.8587098907830117 -0.4650819790939258
5751100 0.857793093119252 -0.46665463985529154
5761104 0.8570251236820116 -0.46837816852153913
5771108 0.8560832565015787 -0.46989446169247506
5781112 0.8551429232226545 -0.4716451574617556
5791116 0.8542699180032196 -0.4732685095422136
5801120 0.8533313928276913 -0.47477726806431236
5811124 0.852390604552377 -0.4763909151505335
5821128 0.8514337535615012 -0.47816702530622207
5831132 0.8507314329790194 -0.47985096199223987
5841136 0.8498265425332022 -0.48136429530246505
5851140 0.8487464358732273 -0.4829268930255591
5861144 0.847955092315917 -0.48460122641892495
5871148 0.8468479547660601 -0.48605840889456176
5881152 0.8460556282657917 -0.48781926525669733
5891156 0.8452965659568186 -0.4893622251378824
5901160 0.844138134689777 -0.49080769931546975
5911164 0.8432135474326231 -0.492507018707622
5921168 0.8422978587770035 -0.49418367061545176
5931172 0.8414534720208078 -0.49585608709383344
5941176 0.8404451163592447 -0.4972252870297589
5951180 0.8394447665973321 -0.4989157358017083
5961184 0.8386307667788281 -0.5004854969650145
5971188 0.837600433009282 -0.5020256297728184
5981192 0.8366516809678495 -0.5035708184333325
5991196 0.8357175693546048 -0.5051391609866905
6001200 0.8347752038751055 -0.5066421109394175
6011204 0.8338491682211601 -0.5082088783998697
6021208 0.8329158582461651 -0.5099425040815779
6031212 0.8315955921213405 -0.5111170249000976
6041216 0.8307529867862131 -0.5128690050858514
6051220 0.8298681782717917 -0.5144953361430841
6061224 0.8290478918040419 -0.5160109465649411
6071228 0.8278821861727115 -0.5174285899520408
6081232 0.8270719037042157 -0.5191548963964727
6091236 0.8260749058195932 -0.5206822832415247
6101240 0.8251720628185312 -0.5222598384632694
6111244 0.8240125153935233 -0.5237186603860147
6121248 0.8231130717704473 -0.5252579922469525
6131252 0.8220843764048991 -0.5266379961492383
6141256 0.8210784934037914 -0.5282261414992904
6151260 0.8199934365951181 -0.5298641658373049
6161264 0.8192121261288168 -0.5314377372677128
6171268 0.8180072045285195 -0.5328811117816817
6181272 0.8170961405358765 -0.5345431429227023
6191276 0.8161237125123716 -0.5360402830262001
6201280 0.8149636500361525 -0.5374810954018682
6211284 0.8140094101434426 -0.5390093710624747
6221288 0.8129960853909137 -0.5406410287276017
6231292 0.8120463801665043 -0.5420544791118405
6241296 0.8110481927785594 -0.5435951835479953
6251300 0.8099941754743046 -0.5451716040331177
6261304 0.8088871774890338 -0.546627236425237
6271308 0.8079892044637461 -0.5483141820681285
6281312 0.8070475053323013 -0.5496736147326216
6291316 0.8057575252321433 -0.5511479725732825
6301320 0.8048608171451678 -0.5528351613538828
6311324 0.8038098684638477 -0.554287330384703
6321328 0.8025463138343384 -0.5556742741145164
6331332 0.8016946018783371 -0.557433469263718
6341336 0.8005672306677515 -0.5587101267440475
6351340 0.7995711544735348 -0.5600895832093281
6361344 0.7983331691298243 -0.5618039680864078
6371348 0.7973514284441487 -0.5633205466596917
6381352 0.7964090903774524 -0.56476938791265
6391356 0.7951853548629714 -0.5661887313716462
6401360 0.7939981379870064 -0.5676466659270495
6411364 0.793137588800559 -0.5692077760175022
6421368 0.7919929957731272 -0.5706466973808044
6431372 0.7909264568841371 -0.5723347900846093
6441376 0.7899419003761939 -0.5737419345483005
6451380 0.7888999423766649 -0.5751090593358519
6461384 0.7876520384374153 -0.5767723545005458
6471388 0.7865541124442177 -0.5783585021439289
6481392 0.7855519732682325 -0.5795661745656849
6491396 0.784407832344408 -0.5811249498073147
6501400 0.783218317401615 -0.5826276602053703
6511404 0.782186745785187 -0.5839131329661372
6521408 0.7810438718815916 -0.585433140255042
6531412 0.7799776803117783 -0.5869816189563429
6541416 0.7789133993192149 -0.5883402997889544
6551420 0.7778035461433085 -0.5896813668047219
6561424 0.7766827718630033 -0.5913033795452626
6571428 0.7755550696461723 -0.5926840053642692
6581432 0.7743851719268017 -0.5940502028040467
6591436 0.7731641919603321 -0.595346659735868
6601440 0.7720712040803208 -0.5969761002386943
6611444 0.7711516266874962 -0.5983688376170625
6621448 0.7699031967242496 -0.5996518621340033
6631452 0.7688011553994567 -0.6011572664372313
6641456 0.7676892951134112 -0.602626295438711
6651460 0.7666982574618607 -0.6041190183964854
6661464 0.7653358461725849 -0.6055027126428578
6671468 0.7642574373584197 -0.6069125237386033
6681472 0.7631568835792096 -0.6082861382495907
6691476 0.7618719243181371 -0.6095771425183093
6701480 0.7608961215291915 -0.6111909256455963
6711484 0.7597168572758856 -0.6123807486994758
6721488 0.7585748411258333 -0.6138633227662217
6731492 0.7574771567303228 -0.6152498575004577
6741496 0.7562666226918496 -0.616713363841308
6751500 0.7550611774340206 -0.6179955796807268
6761504 0.7539143404760783 -0.6194755072792869
6771508 0.7528417453499097 -0.6208488512447079
6781512 0.7515746728894653 -0.6222407655470215
6791516 0.7503454863751304 -0.62363160149609
6801520 0.7493248733472714 -0.6250521199448483
6811524 0.7480664046353449 -0.6265426173027713
6821528 0.7468975221548071 -0.6278646470683367
6831532 0.7457439820603015 -0.6293265924057363
6841536 0.7446807308723682 -0.6306218527098827
6851540 0.7435214852816524 -0.6320121004715523
6861544 0.7421452730544393 -0.6333342135116352
6871548 0.7410232702763596 -0.6348032291505066
6881552 0.7398015232908313 -0.6362337905603215
6891556 0.7386687827210259 -0.6375571006575624
6901560 0.737386219771942 -0.6387384689038142
6911564 0.736301249358742 -0.640384044836208
6921568 0.7349588389576577 -0.6416132673927519
6931572 0.7337935288880918 -0.6430722773590886
6941576 0.7325444185079832 -0.6444600055192572
6951580 0.7314359406908424 -0.6458321121601126
6961584 0.7302784387539349 -0.6470679485649138
6971588 0.7288881781385359 -0.648600793739902
6981592 0.7277421884791189 -0.6500807678200152
6991596 0.7264279566180346 -0.6512799488468121
7001600 0.7252852692979795 -0.6525261995457486
7011604 0.7240827840888279 -0.6540657287846402
7021608 0.7226582844442894 -0.6552064191849164
7031612 0.721435996239338 -0.6567228206488119
7041616 0.7207292193857975 -0.6581536936316276
7051620 0.7186998829160034 -0.6589531724287848
7061624 0.7174454713179657 -0.6604076835225158
7071628 0.7164620286638386 -0.661728823788508
7081632 0.7149479326383217 -0.6629258773188567
7091636 0.7136377107319309 -0.6644040668982212
7101640 0.7125209965942833 -0.6658714681634992
7111644 0.7111914739087332 -0.6669361852869524
7121648 0.7098261462177472 -0.6682176422587032
7131652 0.7086938511174352 -0.6697847411667139
7141656 0.7074567903437724 -0.6709399935715125
7151660 0.7061304088361668 -0.6722215080995733
7161664 0.7049442069393412 -0.6737849202832156
7171668 0.7035660424175527 -0.6749359148856213
7181672 0.702273843286019 -0.6761787403304419
7191676 0.7009417783260031 -0.6776270384597176
7201680 0.6996714553357165 -0.6788905720781767
7211684 0.6985422551939859 -0.6802569016106276
7221688 0.697037811503595 -0.6815337915529247
