# HZ S RI R 50
7001600 0.9078564243333332 -0.34098308266666666
7011604 0.907415827 -0.34251399833333335
7021608 0.9067691363333333 -0.34387332200000004
7031612 0.9062178533333333 -0.34541080399999996
7041616 0.9058428603333333 -0.34707904866666667
7051620 0.9056239526666667 -0.34857222466666665
7061624 0.9050039249999999 -0.35004185633333335
7071628 0.9043754540000001 -0.3516037863333333
7081632 0.9041668773333332 -0.35310000199999997
7091636 0.903490583 -0.354479323
7101640 0.9029384653333333 -0.35595108066666664
7111644 0.902337869 -0.3575446406666667
7121648 0.9020156460000001 -0.3590884106666667
7131652 0.9012561243333334 -0.3604428766666666
7141656 0.9007391733333333 -0.3619109786666666
7151660 0.900406162 -0.3635238406666667
7161664 0.8998165726666666 -0.36485074966666664
7171668 0.899103721 -0.3662259876666667
7181672 0.8986542420000001 -0.3678441643333333
7191676 0.8981649876666667 -0.3692647713333333
7201680 0.8975466293333333 -0.370670537
7211684 0.8969723183333332 -0.37221690999999996
7221688 0.8964768846666668 -0.3736369013333333
7231692 0.8958713610000001 -0.3750978013333333
7241696 0.8952784736666667 -0.376600196
7251700 0.8947257796666667 -0.37804890666666663
7261704 0.8940991163333334 -0.3794175286666666
7271708 0.8934742013333333 -0.3809096813333333
7281712 0.8929163816666666 -0.3823791346666667
7291716 0.8925503296666667 -0.38391580166666667
