# HZ S RI R 50
3000000 0.8518370986666667 0.13641048466666666
3010004 0.8509863019999999 0.13554749366666666
3020008 0.8512291313333332 0.13481842466666666
3030012 0.851422886 0.13435696566666666
3040016 0.851891597 0.13354742033333333
3050020 0.8522240123333334 0.13241698366666665
3060024 0.8527540166666666 0.13165601566666665
3070028 0.8528233369999999 0.13148101166666668
3080032 0.8530545829999999 0.12977641333333334
3090036 0.8533327380000001 0.12987575433333334
3100040 0.8536561726666667 0.128556758
3110044 0.8539152543333334 0.12771899
3120048 0.8543155389999999 0.12710987033333335
3130052 0.8546764453333333 0.12651030700000002
3140056 0.854963501 0.12576784200000002
3150060 0.8554770746666667 0.12529017533333334
3160064 0.8557816543333333 0.12438328566666668
3170068 0.8562579156666666 0.12390090766666667
3180072 0.8564809956666667 0.12305091566666666
3190076 0.8566190003333333 0.12226451933333334
3200080 0.8571611446666667 0.121736005
3210084 0.8573172686666667 0.12097173433333334
3220088 0.857486407 0.12000862766666669
3230092 0.8577607076666668 0.11890782166666665
3240096 0.858250479 0.11868856366666665
3250100 0.8585228923333333 0.11812571466666666
3260104 0.8588254253333334 0.11700580033333334
3270108 0.8591833906666667 0.11653346799999999
3280112 0.8594673673333334 0.11574435466666666
3290116 0.8598467906666666 0.11522020633333334
3300120 0.8601958156666667 0.11439180633333333
3310124 0.8606181146666666 0.11369018766666666
3320128 0.8608214456666667 0.11296023133333333
3330132 0.861165921 0.11227026366666666
3340136 0.8613230386666665 0.11149647833333333
3350140 0.8616128763333334 0.11094423366666667
3360144 0.8619455496666667 0.110045036
3370148 0.8623471456666666 0.10968474066666667
3380152 0.8626248040000001 0.109338167
3390156 0.8629333969999999 0.10833667966666667
3400160 0.8633096416666666 0.10767705499999998
3410164 0.8634921310000001 0.10692321766666667
3420168 0.8639516829999999 0.10640918233333334
3430172 0.8643081979999999 0.10532692333333334
3440176 0.8644937673333334 0.10463697
3450180 0.864887158 0.104399435
3460184 0.86533916 0.10428571466666668
3470188 0.8658559916666667 0.10321206133333334
3480192 0.8660800856666665 0.10247586666666668
3490196 0.8663083713333334 0.101921243
3500200 0.86662513 0.100875174
3510204 0.8669908446666668 0.10036081566666666
3520208 0.8672741650000001 0.10009944933333333
3530212 0.8676862516666667 0.09915936200000001
3540216 0.8680344026666665 0.09844648866666666
3550220 0.8682614963333334 0.09776706499999999
3560224 0.8686430653333334 0.09697043633333334
3570228 0.8690390586666666 0.09649969133333332
3580232 0.8692730266666667 0.09589252633333334
3590236 0.8698350983333333 0.09587036066666665
3600240 0.870224257 0.09440198300000001
3610244 0.8707811633333334 0.09456597500000001
3620248 0.870871266 0.09408959499999998
3630252 0.87112087 0.09330347166666668
3640256 0.8715607923333334 0.09261746733333333
3650260 0.871781548 0.09177229533333332
3660264 0.8720870020000001 0.09110551566666668
3670268 0.8725908796666667 0.09065821266666667
3680272 0.8728084566666666 0.08991030866666666
3690276 0.873281777 0.089510026
3700280 0.8735545080000001 0.08872886233333332
3710284 0.8739592236666667 0.08825168733333333
3720288 0.8740747173333334 0.08764660866666667
3730292 0.8745639523333334 0.086872245
3740296 0.8750872613333334 0.086466541
3750300 0.8754621943333333 0.08586769033333334
3760304 0.8756829696666667 0.08498402199999999
3770308 0.8760888379999999 0.084261211
3780312 0.8765141963333334 0.08381518466666667
3790316 0.8763459723333332 0.08272592966666666
3800320 0.8769266406666666 0.082223465
3810324 0.8773688473333333 0.08167883
3820328 0.8775948683333334 0.08094071366666666
3830332 0.8782004913333333 0.08028926466666668
3840336 0.8785040976666667 0.07972020633333333
3850340 0.8788721559999999 0.079156391
3860344 0.8791085483333333 0.07848762733333332
3870348 0.8797739743333334 0.07763943833333332
3880352 0.8803281383333333 0.07722856600000001
3890356 0.880329708 0.07665733000000001
3900360 0.8805340726666667 0.07588906333333334
3910364 0.881146014 0.07560572266666667
3920368 0.8814919790000001 0.075111352
3930372 0.881909589 0.07427553833333334
3940376 0.8824450970000001 0.07386406766666667
3950380 0.8827023506666668 0.073341156
3960384 0.8829291459999999 0.07259044566666667
3970388 0.8833093443333334 0.07185440766666666
3980392 0.8838029703333333 0.071372889
3990396 0.8841539423333332 0.07068818833333333
4000400 0.8846978146666666 0.06997924033333335
4010404 0.8863501746666667 0.07210132
4020408 0.8877312740000001 0.07177844133333333
4030412 0.888061265 0.070627324
4040416 0.888047119 0.06985417233333333
4050420 0.8883152603333334 0.069021759
4060424 0.8886185490000001 0.06840051466666666
4070428 0.8890013296666667 0.06777978433333333
4080432 0.8905024726666667 0.06797642500000001
4090436 0.8905408976666666 0.06695449366666667
4100440 0.8907919923333333 0.06639463933333334
4110444 0.8909236189999999 0.06550559133333334
4120448 0.8913984696666667 0.06478801866666666
4130452 0.8922107416666667 0.064520595
4140456 0.892644465 0.06411347066666667
4150460 0.892557164 0.063040306
4160464 0.89284724 0.06256677566666667
4170468 0.893286725 0.06188794733333333
4180472 0.8937897486666667 0.061085525
4190476 0.894420743 0.06038751233333334
4200480 0.894674937 0.059605090666666666
4210484 0.895218094 0.059224563
4220488 0.8958530823333333 0.058868497666666665
4230492 0.8962982496666667 0.05807289333333334
4240496 0.8963345686666667 0.057054932
4250500 0.8970035913333333 0.056515634
4260504 0.8976106843333334 0.05606096
4270508 0.8973577220000001 0.055156877666666666
4280512 0.8980783023333333 0.054549011
4290516 0.8986925083333333 0.054019795
4300520 0.8989203969999999 0.05323487166666666
4310524 0.8990935486666668 0.052515965
4320528 0.8997082906666667 0.051882586
4330532 0.8996626336666665 0.050924086333333334
4340536 0.9001389143333333 0.05018588033333333
4350540 0.9005203643333334 0.049597944000000005
4360544 0.9016399186666666 0.04910552366666667
4370548 0.9021155439999999 0.04842241233333333
4380552 0.9022191366666666 0.04774266600000001
4390556 0.9025622603333333 0.04704870666666666
4400560 0.9029634793333333 0.046356838000000004
4410564 0.9035060006666665 0.04569926833333333
4420568 0.903967659 0.044965258333333334
4430572 0.9043023586666666 0.044281871333333334
4440576 0.9043711026666666 0.043491466666666666
4450580 0.9048255083333334 0.04271541533333333
4460584 0.9053346716666667 0.042068423
4470588 0.905782322 0.041358189
4480592 0.9063718316666667 0.04069256433333334
4490596 0.9064131776666667 0.04001488933333333
4500600 0.9069829583333333 0.03924247233333333
4510604 0.9074623583333333 0.037886204666666666
4520608 0.9077595076666668 0.03650720666666666
4530612 0.9083436533333334 0.035171891000000004
4540616 0.9086633526666666 0.03387345133333333
4550620 0.9088856183333333 0.032491284
4560624 0.9091796676666667 0.031084760333333333
4570628 0.9101785223333332 0.029889784333333336
4580632 0.9102614920000001 0.028454279666666665
4590636 0.9105352760000001 0.027124038
4600640 0.9109362559999999 0.025805138000000002
4610644 0.9114103913333333 0.024402892
4620648 0.9117542706666666 0.023017495333333332
4630652 0.912477533 0.021654745333333336
4640656 0.9129501383333333 0.020476354333333332
4650660 0.9133371710000001 0.019142611
4660664 0.913909773 0.017643311666666665
4670668 0.9143821200000001 0.016220058666666665
4680672 0.9146459696666667 0.014797489000000002
4690676 0.9150865276666668 0.013416792000000002
4700680 0.9154511886666666 0.012097654666666666
4710684 0.915693561 0.010710014999999998
4720688 0.9161446096666667 0.009216886666666667
4730692 0.9165259996666667 0.007837886
4740696 0.9168621696666667 0.006469388666666667
4750700 0.9173138936666666 0.005077208666666667
4760704 0.9176085193333333 0.0037289966666666664
4770708 0.9180826546666667 0.002357462
4780712 0.9185267686666666 0.0009247223333333334
4790716 0.9185135563333334 -0.0005723120000000001
4800720 0.9188075663333333 -0.0019157843333333334
4810724 0.919168532 -0.0032370899999999998
4820728 0.91985178 -0.0047078476666666666
4830732 0.9202817676666667 -0.0062265973333333335
4840736 0.920319299 -0.007572979333333334
4850740 0.9207657973333334 -0.009101837
4860744 0.9212498666666665 -0.010483521
4870748 0.9211970366666667 -0.011815424
4880752 0.9217918513333334 -0.013306156666666666
4890756 0.9221033253333334 -0.014695666333333334
4900760 0.922346552 -0.016025471666666666
4910764 0.9230789939999999 -0.017651689666666665
4920768 0.923209528 -0.019026714
4930772 0.9235155583333334 -0.020451154333333332
4940776 0.9240682523333333 -0.021895673666666667
4950780 0.9243846933333333 -0.023302085
4960784 0.924688558 -0.024804453
4970788 0.9249381623333334 -0.026219835
4980792 0.9251609843333334 -0.02771380433333333
4990796 0.9255730113333334 -0.02914380833333333
5000800 0.9258478283333332 -0.030631872
5010804 0.9260762133333333 -0.032100254
5020808 0.9285892646666666 -0.03360283633333334
5030812 0.9292663933333333 -0.035092415999999994
5040816 0.9293209513333333 -0.036498904
5050820 0.9296768106666667 -0.03793688133333333
5060824 0.9298732479999999 -0.03944242
5070828 0.9300891556666667 -0.04103174166666667
5080832 0.9304690363333333 -0.04253870233333334
5090836 0.9307462773333333 -0.043892278
5100840 0.9309828876666666 -0.04548141
5110844 0.9313477280000001 -0.04703448066666666
5120848 0.9316044053333333 -0.04842199766666667
5130852 0.9317688350000001 -0.049998071000000005
5140856 0.9321705503333333 -0.05154305466666667
5150860 0.932264308 -0.052996897666666674
5160864 0.9325001039999999 -0.05449581233333334
5170868 0.9327744243333335 -0.05615690966666667
5180872 0.9330743153333333 -0.05762053633333333
5190876 0.9333102903333333 -0.059102281
5200880 0.933347881 -0.06063123166666667
5210884 0.9336194593333333 -0.06212680933333333
5220888 0.9339520733333333 -0.06361482533333333
5230892 0.9340476196666666 -0.06521026566666666
5240896 0.9342758456666665 -0.06665226333333334
5250900 0.9344017506666668 -0.06806269066666666
5260904 0.9346475403333333 -0.06972336999999999
5270908 0.9348494013333334 -0.07133080600000001
5280912 0.935171624 -0.072876118
5290916 0.9352636536666666 -0.07427420466666666
5300920 0.9354773363333333 -0.07587929566666668
5310924 0.9355648360000001 -0.077401402
5320928 0.9358351229999999 -0.07893567533333333
5330932 0.9361404179999999 -0.08050918333333333
5340936 0.9362704953333333 -0.08216470466666666
5350940 0.9362707536666667 -0.08353896166666668
5360944 0.9364761509999999 -0.08510847866666667
5370948 0.9365137416666666 -0.08658493066666667
5380952 0.936802288 -0.088198145
5390956 0.9369916916666666 -0.08973045866666667
5400960 0.9371518693333334 -0.09124432766666667
5410964 0.9373431010000001 -0.092773276
5420968 0.9374420243333333 -0.09440489333333334
5430972 0.937555015 -0.09589586133333333
5440976 0.937581817 -0.09750171499999999
5450980 0.937892318 -0.09884621933333333
5460984 0.9380210440000001 -0.10050738599999999
5470988 0.938101848 -0.10207900133333332
5480992 0.938210984 -0.10373407833333333
5490996 0.9383533596666666 -0.105197209
5501000 0.938347022 -0.10673936966666665
5511004 0.9385392666666666 -0.10825416933333333
5521008 0.938660443 -0.109836981
5531012 0.9386614559999998 -0.111374768
5541016 0.938841581 -0.11290120566666666
5551020 0.9388393760000001 -0.11454407866666666
5561024 0.9388627209999999 -0.116084603
5571028 0.9390740993333333 -0.117625291
5581032 0.9390623966666668 -0.11923855033333335
5591036 0.9391641816666666 -0.12080970433333334
5601040 0.9391264516666666 -0.12237446233333334
5611044 0.9393740096666666 -0.123956258
5621048 0.9392867883333333 -0.125479087
5631052 0.9394321643333333 -0.12707968066666667
5641056 0.9394944506666668 -0.12867775566666664
5651060 0.9396304883333334 -0.13025953866666665
5661064 0.9395754536666668 -0.13177817066666667
5671068 0.9396504563333333 -0.133435781
5681072 0.9396463633333333 -0.13495183
5691076 0.9397057296666667 -0.13652557133333335
5701080 0.9397029083333334 -0.138226767
5711084 0.9397619963333333 -0.139638394
5721088 0.939738035 -0.14122105633333334
5731092 0.9395497440000001 -0.14270391566666665
5741096 0.9396813113333332 -0.14437511566666666
5751100 0.9398219983333332 -0.14596249166666667
5761104 0.9396920203333333 -0.1475216
5771108 0.9397392866666666 -0.14928210266666667
5781112 0.939913372 -0.15088898433333334
5791116 0.9398171703333333 -0.15233435766666667
5801120 0.9396279456666666 -0.153857271
5811124 0.9396932916666666 -0.15547907333333333
5821128 0.939550519 -0.15698678766666666
5831132 0.9395872953333333 -0.158641522
5841136 0.9395717183333333 -0.160192122
5851140 0.939486742 -0.1616897283333333
5861144 0.9394021826666666 -0.16326792566666667
5871148 0.939408819 -0.1650852163333333
5881152 0.939535141 -0.166544035
5891156 0.9393010136666667 -0.16807814933333334
5901160 0.9391815066666668 -0.16973258033333335
5911164 0.939411819 -0.17129551899999998
5921168 0.9392300246666667 -0.17283663633333332
5931172 0.9389536776666666 -0.17443577933333332
5941176 0.9390834570000001 -0.17614908533333332
5951180 0.9388506213333333 -0.17755884433333335
5961184 0.9387870036666667 -0.17919980500000002
5971188 0.9386902250000001 -0.18077806633333335
5981192 0.9386497136666666 -0.182266911
5991196 0.9385254980000001 -0.18388962266666664
6001200 0.9383689166666667 -0.18551023833333333
6011204 0.9383947256666666 -0.18706588933333332
6021208 0.9383435846666667 -0.18859231966666667
6031212 0.9387445846666665 -0.1905898996666667
6041216 0.9378436410000001 -0.19175714233333332
6051220 0.937823534 -0.19348347166666668
6061224 0.9377960763333334 -0.19501621033333336
6071228 0.9376050429999999 -0.19659647866666666
6081232 0.937433938 -0.19819366966666666
6091236 0.937346518 -0.19975852500000002
6101240 0.9371818903333334 -0.20133111366666667
6111244 0.936964333 -0.202982515
6121248 0.9369192719999999 -0.20453903066666665
6131252 0.936785837 -0.2061132986666667
6141256 0.9365896783333333 -0.20755279566666665
6151260 0.9364055196666666 -0.20935035266666668
6161264 0.9363748630000001 -0.21086166800000003
6171268 0.9361759426666666 -0.21237161266666668
6181272 0.936064402 -0.21411470600000002
6191276 0.9357099136666666 -0.2155298343333333
6201280 0.9355720083333333 -0.217042635
6211284 0.9354203936666666 -0.21880539233333332
6221288 0.9352641103333333 -0.22033649200000002
6231292 0.9350138706666667 -0.22192133466666666
6241296 0.9347996709999999 -0.22362627566666668
6251300 0.9345873993333335 -0.225148986
6261304 0.9339440066666667 -0.22652782500000002
6271308 0.9340927403333333 -0.228223458
6281312 0.9338892103333333 -0.22980218633333335
6291316 0.93370382 -0.23134961233333332
6301320 0.9335554043333335 -0.233030796
6311324 0.933262229 -0.23460852133333332
6321328 0.9328920643333333 -0.23608923466666668
6331332 0.9328089356666668 -0.23775073900000002
6341336 0.9325609006666666 -0.239238133
6351340 0.932143688 -0.24076679366666667
6361344 0.9319320720000001 -0.24237308400000002
6371348 0.9317267143333333 -0.24401319
6381352 0.9314303596666665 -0.245518635
6391356 0.9312066633333335 -0.247003481
6401360 0.9308183393333334 -0.24857624366666667
6411364 0.9307000836666667 -0.2502016923333334
6421368 0.9304174980000001 -0.25182166699999997
6431372 0.9300644400000001 -0.253242741
6441376 0.929866751 -0.25489603466666666
6451380 0.9294990696666666 -0.2563770216666667
6461384 0.9292630153333334 -0.2580343783333333
6471388 0.9289310376666666 -0.2595723473333333
6481392 0.9285662373333334 -0.26119284800000003
6491396 0.9283276996666666 -0.262714356
6501400 0.9281446536666667 -0.26431936
6511404 0.9277161956666666 -0.2657891113333333
6521408 0.9273386396666666 -0.267348647
6531412 0.9270510676666667 -0.26879680133333334
6541416 0.9265416066666666 -0.270479719
6551420 0.9264240460000001 -0.27216974899999996
6561424 0.9261359769999999 -0.27362781766666666
6571428 0.925757845 -0.27507909133333336
6581432 0.9254644116666667 -0.276764681
6591436 0.9250893793333334 -0.27840601433333334
6601440 0.9247621893333333 -0.2798405686666667
6611444 0.924444755 -0.2813745836666666
6621448 0.924024562 -0.2829575836666666
6631452 0.9236985843333333 -0.28454506399999996
6641456 0.923278153 -0.2861034276666667
6651460 0.9228460589999999 -0.2876304883333333
6661464 0.9226985176666666 -0.28925930466666666
6671468 0.922272106 -0.29070118066666667
6681472 0.921839376 -0.292267253
6691476 0.9215133190000001 -0.2938906153333333
6701480 0.9211651483333334 -0.2953607243333333
6711484 0.9207636516666667 -0.2970015306666667
6721488 0.920448601 -0.29849168633333334
6731492 0.920001229 -0.299915264
6741496 0.9195869563333333 -0.30159310500000003
6751500 0.919139286 -0.3031013906666667
6761504 0.9187803066666667 -0.304637104
6771508 0.9183685779999999 -0.306137552
6781512 0.9179053306666667 -0.3076840343333333
6791516 0.9174665413333334 -0.309117645
6801520 0.917026679 -0.3106596666666667
6811524 0.9165507553333333 -0.31226437333333334
6821528 0.9162645340000001 -0.313791156
6831532 0.9158558053333333 -0.315219462
6841536 0.9151941933333333 -0.3167382283333333
6851540 0.9149320919999999 -0.31833530466666665
6861544 0.9144293666666666 -0.31979419800000003
6871548 0.913877527 -0.32132705033333336
6881552 0.9135392703333333 -0.32294226666666664
6891556 0.9130463006666667 -0.32433557533333335
6901560 0.9125752053333334 -0.32582323766666665
6911564 0.9121159513333333 -0.3274613123333333
6921568 0.9116393926666667 -0.328850786
6931572 0.9111871323333333 -0.3303493456666667
6941576 0.9107152226666667 -0.33191135499999996
6951580 0.9102314113333333 -0.33345835399999996
6961584 0.9097545146666667 -0.3348840376666667
6971588 0.9091857873333332 -0.33646447466666674
6981592 0.90875415 -0.3380205333333333
6991596 0.9083943763333333 -0.3395082853333333
7001600 0.9078564243333332 -0.34098308266666666
7011604 0.907415827 -0.34251399833333335
7021608 0.9067691363333333 -0.34387332200000004
7031612 0.9062178533333333 -0.34541080399999996
7041616 0.9058428603333333 -0.34707904866666667
7051620 0.9056239526666667 -0.34857222466666665
7061624 0.9050039249999999 -0.35004185633333335
7071628 0.9043754540000001 -0.3516037863333333
7081632 0.9041668773333332 -0.35310000199999997
7091636 0.903490583 -0.354479323
7101640 0.9029384653333333 -0.35595108066666664
7111644 0.902337869 -0.3575446406666667
7121648 0.9020156460000001 -0.3590884106666667
7131652 0.9012561243333334 -0.3604428766666666
7141656 0.9007391733333333 -0.3619109786666666
7151660 0.900406162 -0.3635238406666667
7161664 0.8998165726666666 -0.36485074966666664
7171668 0.899103721 -0.3662259876666667
7181672 0.8986542420000001 -0.3678441643333333
7191676 0.8981649876666667 -0.3692647713333333
7201680 0.8975466293333333 -0.370670537
7211684 0.8969723183333332 -0.37221690999999996
7221688 0.8964768846666668 -0.3736369013333333
7231692 0.8958713610000001 -0.3750978013333333
7241696 0.8952784736666667 -0.376600196
7251700 0.8947257796666667 -0.37804890666666663
7261704 0.8940991163333334 -0.3794175286666666
7271708 0.8934742013333333 -0.3809096813333333
7281712 0.8929163816666666 -0.3823791346666667
7291716 0.8925503296666667 -0.38391580166666667
7301720 0.8918655716666666 -0.38528641066666663
7311724 0.8911087116666666 -0.386777977
7321728 0.8905841113333334 -0.388183435
7331732 0.8901377519999999 -0.3896690013333333
7341736 0.8894157806666666 -0.39103673866666666
7351740 0.8888729613333334 -0.39249184733333325
7361744 0.8882256746666667 -0.3938987156666667
7371748 0.8875039220000001 -0.3954212463333333
7381752 0.8870648543333334 -0.39683764166666674
7391756 0.8864590526666666 -0.39816056699999997
7401760 0.88567851 -0.399654478
7411764 0.8851421676666668 -0.40112987133333333
7421768 0.8846261703333335 -0.402545323
7431772 0.883883993 -0.4039174716666667
7441776 0.8831194043333332 -0.40537148733333334
7451780 0.8825038473333334 -0.4066067633333333
7461784 0.8819650610000002 -0.408264955
7471788 0.88143305 -0.4097034833333333
7481792 0.8807401260000001 -0.4109969036666667
7491796 0.8799718219999999 -0.41235431033333336
