# HZ S RI R 50
5250900 0.9344017506666668 -0.06806269066666666
5260904 0.9346475403333333 -0.06972336999999999
5270908 0.9348494013333334 -0.07133080600000001
5280912 0.935171624 -0.072876118
5290916 0.9352636536666666 -0.07427420466666666
5300920 0.9354773363333333 -0.07587929566666668
5310924 0.9355648360000001 -0.077401402
5320928 0.9358351229999999 -0.07893567533333333
5330932 0.9361404179999999 -0.08050918333333333
5340936 0.9362704953333333 -0.08216470466666666
5350940 0.9362707536666667 -0.08353896166666668
5360944 0.9364761509999999 -0.08510847866666667
5370948 0.9365137416666666 -0.08658493066666667
5380952 0.936802288 -0.088198145
5390956 0.9369916916666666 -0.08973045866666667
5400960 0.9371518693333334 -0.09124432766666667
5410964 0.9373431010000001 -0.092773276
5420968 0.9374420243333333 -0.09440489333333334
5430972 0.937555015 -0.09589586133333333
5440976 0.937581817 -0.09750171499999999
