# HZ S RI R 50
14004400 0.023701704333333334 -0.8682604036666667
14014404 0.021982096999999996 -0.8680574696666667
14024408 0.020225963666666666 -0.8677417836666667
14034412 0.018370273333333336 -0.8673043843333333
14044416 0.016426187 -0.8670053683333334
14054420 0.014724685 -0.8666803043333333
14064424 0.012904854 -0.8664501906666667
14074428 0.011083475333333334 -0.8661775193333333
14084432 0.009246909666666666 -0.865725378
14094436 0.007375841666666667 -0.8653638763333333
14104440 0.0053457769999999995 -0.8652417663333333
14114444 -0.0024312523333333332 -0.8656825423333333
14124448 -0.004449778333333334 -0.8649866183333333
14134452 -0.006283027666666667 -0.8650195003333333
14144456 -0.007988869666666667 -0.8646125393333333
14154460 -0.009968923666666666 -0.8641343316666666
14164464 -0.011791720333333333 -0.863798916
14174468 -0.013649842666666667 -0.8633717299999999
14184472 -0.015291990333333333 -0.8628380893333333
14194476 -0.017292743 -0.8625359733333333
14204480 -0.019012171666666664 -0.8619835176666667
14214484 -0.021050157333333333 -0.8616828719999999
14224488 -0.022966999666666665 -0.861197412
14234492 -0.024753447666666668 -0.8607800406666666
14244496 -0.026801922000000002 -0.8603506683333334
14254500 -0.028801795666666668 -0.8598920699999999
14264504 -0.03057964633333333 -0.8594066100000001
14274508 -0.03254795833333333 -0.858940005
14284512 -0.034451666 -0.8584289746666668
14294516 -0.036398616 -0.8578842483333333
14304520 -0.038408410999999996 -0.8574872813333333
14314524 -0.04047057033333334 -0.8570519686666667
14324528 -0.042377680333333334 -0.8565004866666667
14334532 -0.04449531933333334 -0.856083254
14344536 -0.04622477566666666 -0.8554678956666667
