# HZ S RI R 50
3500200 0.86662513 0.100875174
3510204 0.8669908446666668 0.10036081566666666
3520208 0.8672741650000001 0.10009944933333333
3530212 0.8676862516666667 0.09915936200000001
3540216 0.8680344026666665 0.09844648866666666
3550220 0.8682614963333334 0.09776706499999999
3560224 0.8686430653333334 0.09697043633333334
3570228 0.8690390586666666 0.09649969133333332
3580232 0.8692730266666667 0.09589252633333334
3590236 0.8698350983333333 0.09587036066666665
3600240 0.870224257 0.09440198300000001
3610244 0.8707811633333334 0.09456597500000001
3620248 0.870871266 0.09408959499999998
3630252 0.87112087 0.09330347166666668
3640256 0.8715607923333334 0.09261746733333333
3650260 0.871781548 0.09177229533333332
3660264 0.8720870020000001 0.09110551566666668
3670268 0.8725908796666667 0.09065821266666667
3680272 0.8728084566666666 0.08991030866666666
3690276 0.873281777 0.089510026
3700280 0.8735545080000001 0.08872886233333332
3710284 0.8739592236666667 0.08825168733333333
3720288 0.8740747173333334 0.08764660866666667
3730292 0.8745639523333334 0.086872245
3740296 0.8750872613333334 0.086466541
3750300 0.8754621943333333 0.08586769033333334
3760304 0.8756829696666667 0.08498402199999999
3770308 0.8760888379999999 0.084261211
3780312 0.8765141963333334 0.08381518466666667
3790316 0.8763459723333332 0.08272592966666666
3800320 0.8769266406666666 0.082223465
3810324 0.8773688473333333 0.08167883
3820328 0.8775948683333334 0.08094071366666666
3830332 0.8782004913333333 0.08028926466666668
3840336 0.8785040976666667 0.07972020633333333
3850340 0.8788721559999999 0.079156391
3860344 0.8791085483333333 0.07848762733333332
3870348 0.8797739743333334 0.07763943833333332
3880352 0.8803281383333333 0.07722856600000001
3890356 0.880329708 0.07665733000000001
3900360 0.8805340726666667 0.07588906333333334
3910364 0.881146014 0.07560572266666667
3920368 0.8814919790000001 0.075111352
3930372 0.881909589 0.07427553833333334
3940376 0.8824450970000001 0.07386406766666667
3950380 0.8827023506666668 0.073341156
3960384 0.8829291459999999 0.07259044566666667
3970388 0.8833093443333334 0.07185440766666666
3980392 0.8838029703333333 0.071372889
3990396 0.8841539423333332 0.07068818833333333
