# HZ S RI R 50
21007200 0.09632119066666667 -0.736417989
21017204 0.09485646566666665 -0.736915012
21027208 0.093355015 -0.7370161613333334
21037212 0.09138318899999999 -0.7369711996666667
21047216 0.0896994 -0.7374532423333333
21057220 0.08856016900000001 -0.7379649083333334
21067224 0.087398611 -0.7383508883333333
21077228 0.08506869533333333 -0.7383369603333333
21087232 0.083791035 -0.7393449546666666
21097236 0.082157545 -0.7390166126666667
21107240 0.080599661 -0.739248812
21117244 0.07965623566666667 -0.7400593163333333
21127248 0.07833529733333333 -0.7405611276666667
21137252 0.076610605 -0.7405026156666666
21147256 0.07506515566666666 -0.7409908773333335
21157260 0.07376362633333333 -0.7414862913333332
21167264 0.07191758833333334 -0.741459807
21177268 0.070825778 -0.742197891
21187272 0.068553197 -0.7422287860000001
21197276 0.06732588499999999 -0.7432483636666666
21207280 0.06580245233333333 -0.7436527016666666
21217284 0.06455168866666666 -0.7441165446666668
21227288 0.06273166333333334 -0.7440574366666667
21237292 0.061463844 -0.7446848353333334
21247296 0.060293045999999996 -0.7453627983333333
21257300 0.058796443 -0.7455614206666666
21267304 0.05758942266666667 -0.7462029456666667
21277308 0.055762253333333324 -0.7461172143333333
21287312 0.054461402 -0.7465680043333333
21297316 0.05298656966666667 -0.7471639316666666
21307320 0.05200871066666666 -0.7476980286666667
21317324 0.050410212333333336 -0.7485777736666668
21327328 0.049033635666666665 -0.748599887
21337332 0.047646704000000005 -0.7495793699999999
21347336 0.04606917633333333 -0.7497161626666667
21357340 0.044636364000000005 -0.7502825856666666
21367344 0.043227962 -0.750249803
21377348 0.041837768 -0.7510884203333333
21387352 0.04004632166666667 -0.7507958216666667
21397356 0.03868423433333334 -0.7513480983333333
21407360 0.03728613133333333 -0.751756211
21417364 0.035840624 -0.7521737613333334
21427368 0.034388724333333336 -0.75272278
21437372 0.033121803 -0.7533732453333334
21447376 0.03160863366666667 -0.7537169256666667
