# HZ S RI R 50
3000000 0.9799022079999999 -0.022456080333333333
3010004 0.9791068233333333 -0.02340772866666667
3020008 0.9789164663333333 -0.024410287333333336
3030012 0.9790100256666667 -0.025315085333333334
3040016 0.9792059263333334 -0.02639240433333333
3050020 0.979209165 -0.027270363000000002
3060024 0.9790830613333333 -0.028300974333333336
3070028 0.9791428843333333 -0.029218724666666668
3080032 0.9792459806666667 -0.03009905733333333
3090036 0.9791424076666666 -0.031010232666666665
3100040 0.9792542063333333 -0.03197673833333333
3110044 0.979306519 -0.032976569000000004
3120048 0.9792704783333334 -0.03394693866666667
3130052 0.9791200956666667 -0.034854539999999996
3140056 0.9791548453333333 -0.035744393666666666
3150060 0.9792514443333333 -0.03674211733333333
3160064 0.9790990946666667 -0.037670328
3170068 0.9791569116666666 -0.038597521333333336
3180072 0.979252895 -0.03950330866666666
3190076 0.9792799953333334 -0.04040059166666667
3200080 0.9793195723333333 -0.041276169333333335
3210084 0.979231874 -0.042227458333333336
3220088 0.9792046746666667 -0.043219750333333334
3230092 0.9793069759999998 -0.04402845333333333
3240096 0.9792129796666668 -0.044851798666666665
3250100 0.9790095883333333 -0.045809788
3260104 0.9789931973333333 -0.04682978733333334
3270108 0.9790216683333334 -0.047708689
3280112 0.9789993763333333 -0.04853920166666666
3290116 0.9788397153333334 -0.04941685133333334
3300120 0.9790943266666666 -0.050270746
3310124 0.9789868193333332 -0.051140513
3320128 0.9789390563333332 -0.052139611333333336
3330132 0.9788300793333334 -0.053058737
3340136 0.9789545136666667 -0.05413138866666667
3350140 0.9787926873333334 -0.054695412666666665
3360144 0.978688101 -0.055571113000000005
3370148 0.9786658686666666 -0.056412186333333336
3380152 0.978654027 -0.05724905033333333
3390156 0.9786849023333334 -0.05819099133333333
3400160 0.9785554013333333 -0.05913239233333333
3410164 0.9786414899999999 -0.05998239033333333
3420168 0.9785256983333334 -0.06084889933333334
3430172 0.978301446 -0.061745070000000006
3440176 0.9784867363333333 -0.06269759933333334
3450180 0.9783872563333333 -0.06342476366666668
3460184 0.9783999923333333 -0.06438455
3470188 0.978397389 -0.065208505
3480192 0.9783213733333334 -0.066042227
3490196 0.9781923889999998 -0.06695223366666665
3500200 0.9781567853333333 -0.067686662
3510204 0.9782276553333333 -0.06852616866666666
3520208 0.978164653 -0.069353203
3530212 0.9784747163333333 -0.07026639833333333
3540216 0.978297452 -0.07122674566666666
3550220 0.9781726996666666 -0.07209618133333334
3560224 0.9779532353333334 -0.07289051
3570228 0.977982978 -0.07377447466666666
3580232 0.9779261546666667 -0.07445143666666666
3590236 0.9777561026666666 -0.07535665966666667
3600240 0.977975786 -0.07655808333333335
3610244 0.9779206513333333 -0.077134706
3620248 0.9776758353333334 -0.077757761
3630252 0.9775361619999999 -0.07851366966666666
3640256 0.9774688483333334 -0.07957283166666666
3650260 0.9775729576666666 -0.08040871233333334
3660264 0.9773444536666668 -0.08127629766666668
3670268 0.9771496059999999 -0.08204029266666667
3680272 0.977167467 -0.082757853
3690276 0.9769781826666666 -0.08360932233333333
3700280 0.9770528873333332 -0.08449966199999999
3710284 0.9770293236666667 -0.08535980433333334
3720288 0.9768487213333333 -0.086156356
3730292 0.976715664 -0.08687442266666667
3740296 0.9767202336666667 -0.087803272
3750300 0.9767568706666666 -0.088475863
3760304 0.9766249656666667 -0.089395513
3770308 0.976548374 -0.09030647566666666
3780312 0.9764319459999999 -0.09094516200000001
3790316 0.9762416883333334 -0.09175280966666666
3800320 0.976221184 -0.09260083000000001
3810324 0.9763380286666666 -0.09352935333333334
3820328 0.9762317340000001 -0.094257665
3830332 0.976235986 -0.09508260866666667
3840336 0.9762926896666667 -0.09599797666666665
3850340 0.9762443303333334 -0.09660394
3860344 0.9759896996666667 -0.09748368433333333
3870348 0.9759977260000001 -0.09832688666666667
3880352 0.976055145 -0.09917482466666666
3890356 0.9758850333333333 -0.09990937266666666
3900360 0.9755901493333333 -0.10072260833333334
3910364 0.9754719930000001 -0.10138196266666667
3920368 0.9755927916666667 -0.102232451
3930372 0.9755432606666666 -0.10310717933333334
3940376 0.9753399886666667 -0.103937919
3950380 0.975287775 -0.10464409766666667
3960384 0.975109915 -0.10549802066666668
3970388 0.975054741 -0.10624614833333333
3980392 0.9750145673333334 -0.10694245733333334
3990396 0.9750740726666667 -0.10788775266666667
4000400 0.974788745 -0.108734506
4010404 0.9745796919999999 -0.10971385
4020408 0.9748102423333332 -0.11021356266666667
4030412 0.9748361509999999 -0.11116720000000001
4040416 0.9748250446666668 -0.11204277733333334
4050420 0.974692325 -0.11277990066666665
4060424 0.974680563 -0.11359547833333333
4070428 0.9745683473333333 -0.11433881266666668
4080432 0.9744422436666667 -0.11509606500000001
4090436 0.974273523 -0.11588121433333333
4100440 0.9740960396666667 -0.11673078666666666
4110444 0.9741206963333333 -0.11751449866666668
4120448 0.9740292429999999 -0.118245574
4130452 0.9739521543333334 -0.119045069
4140456 0.9738997816666667 -0.11980660300000001
4150460 0.9735138216666668 -0.12050892166666667
4160464 0.973279337 -0.12129540733333333
4170468 0.9731509686666667 -0.12211751933333333
4180472 0.973439018 -0.122934642
4190476 0.973440389 -0.12368355466666665
4200480 0.9730952383333333 -0.12457419933333332
4210484 0.973006288 -0.12534673533333332
4220488 0.9728320043333333 -0.12604282833333336
4230492 0.972759823 -0.12688584633333333
4240496 0.9728003343333332 -0.12771170366666665
4250500 0.9726687666666667 -0.128459637
4260504 0.97216626 -0.129186859
4270508 0.9720108513333333 -0.12992502266666667
4280512 0.9720622496666667 -0.13073367866666666
4290516 0.9722118973333332 -0.131522189
4300520 0.9718918203333334 -0.13224994133333334
4310524 0.9716640710000001 -0.13309866166666667
4320528 0.9716534813333334 -0.13397209866666665
4330532 0.9716679453333333 -0.13475355033333333
4340536 0.9715371133333334 -0.135508766
4350540 0.9713482063333334 -0.13627065233333333
4360544 0.9713556966666667 -0.13706042366666668
4370548 0.9711648030000001 -0.13790150999999998
4380552 0.970900456 -0.13868888199999999
4390556 0.970822354 -0.13940522066666663
4400560 0.9707033236666667 -0.14010653866666667
4410564 0.9708857933333334 -0.14104854566666666
4420568 0.9707335233333333 -0.14182311833333333
4430572 0.9705362716666667 -0.14264048633333332
4440576 0.9702456789999999 -0.14351530366666668
4450580 0.9703206416666667 -0.14424219233333332
4460584 0.9701830346666668 -0.144984941
4470588 0.9699145553333334 -0.145752122
4480592 0.9697038133333334 -0.146560366
4490596 0.9697916113333335 -0.14745407833333332
4500600 0.9693909483333334 -0.14817369466666666
4510604 0.969247659 -0.14954943466666668
4520608 0.9688439366666667 -0.15096699666666666
4530612 0.968610724 -0.15236316633333333
4540616 0.9684126376666667 -0.15388944733333332
4550620 0.9681331116666666 -0.15535812566666665
4560624 0.9678429963333333 -0.15679463233333332
4570628 0.9675413169999999 -0.15818425500000002
4580632 0.9674031136666666 -0.159709573
4590636 0.9671877623333334 -0.16111416133333334
4600640 0.9668138823333333 -0.1626076
4610644 0.9665639599999999 -0.16411053166666667
4620648 0.9664373793333333 -0.165519461
4630652 0.9661388596666667 -0.16700384033333335
4640656 0.9658152063333333 -0.16835962733333332
4650660 0.965575854 -0.16988347466666667
4660664 0.9653464356666667 -0.17132254433333335
4670668 0.9651177526666667 -0.17279011533333333
4680672 0.9647628863333333 -0.17423725633333334
4690676 0.964477758 -0.17568025966666667
4700680 0.9642218353333334 -0.17717775700000002
4710684 0.9639093676666666 -0.17859572166666668
4720688 0.9635345936666666 -0.18000130366666664
4730692 0.963316242 -0.18149285
4740696 0.9630388816666665 -0.18290077633333332
4750700 0.9627118906666666 -0.18433014533333333
4760704 0.962414404 -0.18588638266666668
4770708 0.962112844 -0.18735521033333336
4780712 0.9617787996666666 -0.18879578500000002
4790716 0.9615440966666666 -0.19014418600000002
4800720 0.9612282316666668 -0.19151104500000002
4810724 0.9606338343333333 -0.19305637966666667
4820728 0.9604848026666666 -0.19454518466666668
4830732 0.9602687756666667 -0.19598153766666668
4840736 0.9598873853333334 -0.19737539166666665
4850740 0.959616323 -0.19883780166666667
4860744 0.9591852226666667 -0.20023953399999997
4870748 0.9588799673333334 -0.201709315
4880752 0.9585610430000001 -0.203287115
4890756 0.9583220876666667 -0.20471361266666666
4900760 0.9579896926666667 -0.20612702266666663
4910764 0.957595587 -0.20754962666666665
4920768 0.9572517276666667 -0.20903137333333333
4930772 0.957157731 -0.2105905313333333
4940776 0.9565627973333332 -0.21197380133333332
4950780 0.9562582373333334 -0.21350551166666665
4960784 0.956110378 -0.21490310133333335
4970788 0.9555010993333334 -0.21620393766666668
4980792 0.9551145630000001 -0.2177786976666667
4990796 0.9548170766666667 -0.21924764933333332
5000800 0.954398791 -0.22067032766666664
5010804 0.954150299 -0.22217565766666666
5020808 0.9529824653333333 -0.22359526666666665
5030812 0.9530559583333332 -0.225056534
5040816 0.9527038933333335 -0.22649803766666668
5050820 0.9524164596666665 -0.227826481
5060824 0.9520887533333333 -0.22936419133333333
5070828 0.9516906736666666 -0.230890299
5080832 0.9513170519999999 -0.23227775066666667
5090836 0.9508240023333334 -0.23364223566666667
5100840 0.9504988193333332 -0.23525582233333334
5110844 0.9501589536666666 -0.23665102333333332
5120848 0.9496496516666667 -0.23798035566666664
5130852 0.9492211936666667 -0.23957193366666665
5140856 0.948927919 -0.24101544933333333
5150860 0.9482877053333333 -0.242354552
5160864 0.947983364 -0.24374498933333333
5170868 0.9475621183333333 -0.24536869400000003
5180872 0.9472742276666667 -0.246817261
5190876 0.9467400710000001 -0.24819207166666668
5200880 0.9463711180000001 -0.24970819533333333
5210884 0.9460685653333334 -0.251248618
5220888 0.945639253 -0.2525043786666667
5230892 0.9449845950000001 -0.2540549633333334
5240896 0.9447464546666667 -0.255555282
5250900 0.944331825 -0.2569360136666667
5260904 0.943860849 -0.2584551176666667
5270908 0.9434087673333332 -0.25992297166666667
5280912 0.9429587323333334 -0.2613254883333333
5290916 0.9425393743333333 -0.2628175813333333
5300920 0.9419195253333333 -0.2642098366666667
5310924 0.941581448 -0.2656767666666667
5320928 0.9411504866666666 -0.26708531399999996
5330932 0.9406611523333334 -0.2686378756666667
5340936 0.9402235946666666 -0.270081997
5350940 0.9396887023333335 -0.271538595
5360944 0.9392827746666667 -0.2730115556666667
5370948 0.9388944106666667 -0.274560968
5380952 0.9384457466666666 -0.276029547
5390956 0.9379404983333334 -0.27742577566666665
5400960 0.9375217556666667 -0.2790010373333333
5410964 0.937027951 -0.2803529203333333
5420968 0.9363877973333333 -0.2817990186666666
5430972 0.9360216656666666 -0.283324907
5440976 0.9354641039999999 -0.284748425
5450980 0.9350399973333334 -0.2862139143333333
5460984 0.9344797530000001 -0.28767012566666667
5470988 0.9340251883333334 -0.2892050146666667
5480992 0.9334964753333334 -0.29056462666666666
5490996 0.932962517 -0.292059948
5501000 0.9325182043333333 -0.29363638166666667
5511004 0.9320878389999999 -0.2950806816666667
5521008 0.9314514596666666 -0.29649771266666664
5531012 0.9309018053333333 -0.29802808166666667
5541016 0.9303769866666668 -0.299568067
5551020 0.9298950633333334 -0.3009546496666667
5561024 0.9293243686666667 -0.30244090166666665
5571028 0.9289285340000001 -0.303928147
5581032 0.9282914996666666 -0.30545206866666663
5591036 0.9277947743333333 -0.306821257
5601040 0.9272947313333333 -0.308433175
5611044 0.926660498 -0.3098444146666667
5621048 0.9261169833333334 -0.3113086623333333
5631052 0.9256428083333333 -0.31292809066666666
5641056 0.9251148103333334 -0.3142943086666667
5651060 0.9245798586666667 -0.31582905833333336
5661064 0.923968613 -0.31725301333333333
5671068 0.923355917 -0.318734497
5681072 0.9227703016666666 -0.3202260433333333
5691076 0.922121604 -0.3216427863333333
5701080 0.9215806523333333 -0.32313247533333334
5711084 0.9209816656666666 -0.324735522
5721088 0.9203949370000001 -0.32620669399999996
5731092 0.919735094 -0.3276283743333333
5741096 0.919191917 -0.32917007800000003
5751100 0.918733954 -0.33069069166666665
5761104 0.9180798330000001 -0.33211812366666665
5771108 0.9175176423333333 -0.3336531123333333
5781112 0.9166514873333332 -0.33509421366666664
5791116 0.9162153203333334 -0.336591949
5801120 0.9154903493333334 -0.33809780100000003
5811124 0.914980332 -0.33958386399999996
5821128 0.9143479069999999 -0.341046274
5831132 0.9136964283333334 -0.3426404496666666
5841136 0.913188994 -0.34415797366666667
5851140 0.9124753273333334 -0.3455732166666667
5861144 0.9117335283333334 -0.34709889699999996
5871148 0.911201914 -0.34862041466666666
5881152 0.9104395313333334 -0.35008747366666665
5891156 0.9097986223333333 -0.35152651866666673
5901160 0.9091610313333333 -0.3531370063333334
5911164 0.9084764716666666 -0.3545580906666667
5921168 0.907873432 -0.35606646533333336
5931172 0.9071776866666666 -0.35759010900000004
5941176 0.9063532946666667 -0.3590389786666666
5951180 0.9057359896666668 -0.3605870406666667
5961184 0.9050720733333334 -0.36203437066666666
5971188 0.9043852886666667 -0.36363309600000004
5981192 0.903740426 -0.36512103700000004
5991196 0.9028053680000001 -0.366490384
6001200 0.9021655919999999 -0.368170619
6011204 0.9013535576666666 -0.3695334593333333
6021208 0.9007033703333334 -0.3711479903333333
6031212 0.8992667793333333 -0.3726994493333333
6041216 0.899459044 -0.37434689233333335
6051220 0.898608148 -0.37582166
6061224 0.8978429833333333 -0.37741222966666665
6071228 0.8971786496666668 -0.3789996903333333
6081232 0.896303912 -0.380410959
6091236 0.8955079913333334 -0.3820240796666667
6101240 0.8947785296666666 -0.38339694333333335
6111244 0.8940121733333334 -0.38491364299999997
6121248 0.8930942216666665 -0.38637951033333334
6131252 0.8923142553333334 -0.3880670466666667
6141256 0.8915519316666667 -0.389463047
6151260 0.890768548 -0.3909989493333333
6161264 0.8899208903333333 -0.392594834
6171268 0.8891732493333334 -0.39402431233333335
6181272 0.8882324100000001 -0.3955245713333333
6191276 0.8874647816666666 -0.39720653466666667
6201280 0.8865772883333333 -0.39872394
6211284 0.8858146866666666 -0.400090625
6221288 0.8847474256666668 -0.4015934366666667
6231292 0.8838535346666667 -0.4031965336666667
6241296 0.8830786943333333 -0.4046692946666666
6251300 0.881951292 -0.4061025283333333
6261304 0.88124758 -0.40777758766666666
6271308 0.8802476920000001 -0.4091768863333334
6281312 0.879324913 -0.41063426933333336
6291316 0.8783406616666666 -0.4122339386666667
6301320 0.8774691026666667 -0.413761
6311324 0.8765707813333332 -0.41517823933333337
6321328 0.8754474523333333 -0.41668368333333333
6331332 0.8745719196666667 -0.41815538199999996
6341336 0.8734919630000001 -0.4195623496666667
6351340 0.872426033 -0.4210309483333334
6361344 0.8713903426666666 -0.422590236
6371348 0.870432337 -0.42401907866666666
6381352 0.8693029680000001 -0.4254213473333333
6391356 0.8681557376666666 -0.42679113166666666
6401360 0.8670807479999999 -0.4281846683333333
6411364 0.865990321 -0.4297037226666667
6421368 0.8649077813333333 -0.431055665
6431372 0.863849441 -0.43228972966666673
6441376 0.8626145126666667 -0.4335090613333333
6451380 0.86124897 -0.4347610473333334
6461384 0.860280375 -0.43628782033333335
6471388 0.8592136703333333 -0.43743365
6481392 0.8579537273333333 -0.43861330533333337
6491396 0.8568055033333334 -0.43984926733333335
6501400 0.855674505 -0.44087365233333337
6511404 0.85447975 -0.44200322033333334
6521408 0.8532148996666667 -0.44296277533333334
6531412 0.8521483143333333 -0.44399703533333335
6541416 0.8508868019999999 -0.44477738899999997
6551420 0.849769831 -0.4457223316666667
6561424 0.848731478 -0.4464876053333333
6571428 0.8477012713333334 -0.44714413066666675
6581432 0.8467380803333334 -0.44768579799999997
6591436 0.8459743456666665 -0.44840279233333336
6601440 0.8452902240000001 -0.44887802
6611444 0.844431102 -0.448994895
6621448 0.8440889120000001 -0.44979625933333334
6631452 0.8439775706666667 -0.4501247703333333
6641456 0.8438394069999999 -0.4503665863333333
6651460 0.8440325456666667 -0.45103845
6661464 0.8441560069999999 -0.45173685766666666
6671468 0.844817698 -0.4523514313333333
6681472 0.845291535 -0.45325005066666674
6691476 0.8459956646666665 -0.45480591033333334
6701480 0.846754094 -0.4562455616666667
6711484 0.8476581573333334 -0.4580439923333333
6721488 0.8483463126666667 -0.46010555833333333
6731492 0.8488398593333333 -0.46233562633333336
6741496 0.8492281436666667 -0.4647663633333334
6751500 0.8496076463333333 -0.467464447
6761504 0.8495390413333332 -0.47006358733333337
6771508 0.8494681123333333 -0.4728806716666667
6781512 0.8491825463333335 -0.475788474
6791516 0.8487965463333333 -0.47862609233333336
6801520 0.8481491603333334 -0.48144133866666666
6811524 0.8472401496666665 -0.484166334
6821528 0.8465899226666668 -0.48698188866666664
6831532 0.8454181153333332 -0.4894644023333334
6841536 0.8443111973333334 -0.4922830263333333
6851540 0.8432802756666667 -0.4948736626666667
6861544 0.8420990113333332 -0.4973285893333333
6871548 0.840811034 -0.49979874500000004
6881552 0.8394681610000001 -0.502234161
6891556 0.8383396866666667 -0.5045518873333333
6901560 0.8367313743333332 -0.5068946283333333
6911564 0.8353529973333332 -0.5092628003333334
6921568 0.8340619206666666 -0.511465569
6931572 0.8325516976666666 -0.5137369236666667
6941576 0.831159532 -0.5160250266666666
6951580 0.8297448753333333 -0.5182313719999999
6961584 0.8282740913333333 -0.5203572906666667
6971588 0.8267884853333333 -0.522480468
6981592 0.8254033726666666 -0.5246854226666665
6991596 0.8240347306666668 -0.5268301766666666
7001600 0.8223252893333334 -0.5288322769999999
7011604 0.820860207 -0.5310360786666667
7021608 0.8194185893333333 -0.533169667
7031612 0.8180253703333333 -0.5352110266666666
7041616 0.8154983716666667 -0.5372164646666666
7051620 0.814360241 -0.5391884046666666
7061624 0.8131259283333333 -0.5414851106666667
7071628 0.8116547466666667 -0.5434627333333334
7081632 0.8099265693333333 -0.545624733
7091636 0.808349669 -0.5476461053333334
7101640 0.8069212236666666 -0.5495653553333333
7111644 0.8054171006666667 -0.5517545543333333
7121648 0.8036393523333333 -0.5535572569999999
7131652 0.8018556036666666 -0.5557873246666667
7141656 0.8003330033333333 -0.557960093
7151660 0.7988483510000001 -0.5599565306666666
7161664 0.7972165543333333 -0.561839382
7171668 0.7955287693333334 -0.5638102096666667
7181672 0.7938006916666667 -0.566096147
7191676 0.7920448183333334 -0.568037232
7201680 0.7903628746666667 -0.5702154633333333
7211684 0.7887165546666667 -0.5721940596666667
7221688 0.7869600256666667 -0.5741063953333333
7231692 0.7853255666666668 -0.5762877466666666
7241696 0.7835219700000001 -0.5785850283333334
7251700 0.7817565996666667 -0.5803072056666666
7261704 0.7800916633333334 -0.5825630820000001
7271708 0.778318763 -0.5845544536666667
7281712 0.776470681 -0.5867921713333334
7291716 0.7745689353333334 -0.5888241726666666
7301720 0.7725373703333333 -0.5908865333333333
7311724 0.7707478799999999 -0.593125383
7321728 0.7689751583333333 -0.5952310163333333
7331732 0.7671758333333333 -0.5973275703333334
7341736 0.7651780050000001 -0.5995443263333334
7351740 0.7633538643333333 -0.6017377573333333
7361744 0.761223078 -0.6037530503333333
7371748 0.759280324 -0.6060018143333333
7381752 0.7573864856666667 -0.6082073053333333
7391756 0.7553010383333333 -0.6103373766666667
7401760 0.7532188296666668 -0.6125787896666667
7411764 0.7512349486666667 -0.6148902973333334
7421768 0.7491509120000001 -0.6169585983333333
7431772 0.7469910776666667 -0.6192551456666666
7441776 0.744797329 -0.6214524306666667
7451780 0.7426685096666666 -0.6236961483333333
7461784 0.7404829663333333 -0.625921865
7471788 0.7381990946666667 -0.6282162863333333
