# HZ S RI R 50
5250900 0.944331825 -0.2569360136666667
5260904 0.943860849 -0.2584551176666667
5270908 0.9434087673333332 -0.25992297166666667
5280912 0.9429587323333334 -0.2613254883333333
5290916 0.9425393743333333 -0.2628175813333333
5300920 0.9419195253333333 -0.2642098366666667
5310924 0.941581448 -0.2656767666666667
5320928 0.9411504866666666 -0.26708531399999996
5330932 0.9406611523333334 -0.2686378756666667
5340936 0.9402235946666666 -0.270081997
5350940 0.9396887023333335 -0.271538595
5360944 0.9392827746666667 -0.2730115556666667
5370948 0.9388944106666667 -0.274560968
5380952 0.9384457466666666 -0.276029547
5390956 0.9379404983333334 -0.27742577566666665
5400960 0.9375217556666667 -0.2790010373333333
5410964 0.937027951 -0.2803529203333333
5420968 0.9363877973333333 -0.2817990186666666
5430972 0.9360216656666666 -0.283324907
5440976 0.9354641039999999 -0.284748425
