# HZ S RI R 50
7001600 0.8223252893333334 -0.5288322769999999
7011604 0.820860207 -0.5310360786666667
7021608 0.8194185893333333 -0.533169667
7031612 0.8180253703333333 -0.5352110266666666
7041616 0.8154983716666667 -0.5372164646666666
7051620 0.814360241 -0.5391884046666666
7061624 0.8131259283333333 -0.5414851106666667
7071628 0.8116547466666667 -0.5434627333333334
7081632 0.8099265693333333 -0.545624733
7091636 0.808349669 -0.5476461053333334
7101640 0.8069212236666666 -0.5495653553333333
7111644 0.8054171006666667 -0.5517545543333333
7121648 0.8036393523333333 -0.5535572569999999
7131652 0.8018556036666666 -0.5557873246666667
7141656 0.8003330033333333 -0.557960093
7151660 0.7988483510000001 -0.5599565306666666
7161664 0.7972165543333333 -0.561839382
7171668 0.7955287693333334 -0.5638102096666667
7181672 0.7938006916666667 -0.566096147
7191676 0.7920448183333334 -0.568037232
7201680 0.7903628746666667 -0.5702154633333333
7211684 0.7887165546666667 -0.5721940596666667
7221688 0.7869600256666667 -0.5741063953333333
7231692 0.7853255666666668 -0.5762877466666666
7241696 0.7835219700000001 -0.5785850283333334
7251700 0.7817565996666667 -0.5803072056666666
7261704 0.7800916633333334 -0.5825630820000001
7271708 0.778318763 -0.5845544536666667
7281712 0.776470681 -0.5867921713333334
7291716 0.7745689353333334 -0.5888241726666666
