# HZ S RI R 50
14004400 0.393093407 -0.880867044
14014404 0.391799301 -0.8814185856666666
14024408 0.3903093336666667 -0.8818853496666668
14034412 0.388906936 -0.8825672070000001
14044416 0.3876217103333333 -0.883164227
14054420 0.3862701456666667 -0.8837143183333334
14064424 0.384770314 -0.8841023246666667
14074428 0.383497725 -0.8846399983333333
14084432 0.3821068703333334 -0.8852870066666666
14094436 0.3807216983333333 -0.8857853413333333
14104440 0.379344026 -0.8865074713333333
14114444 0.37764752900000004 -0.8865766329999999
14124448 0.3765216966666667 -0.8875842293333333
14134452 0.37521355333333334 -0.8879418176666666
14144456 0.3736844163333333 -0.8884602193333334
14154460 0.37233000966666663 -0.889178117
14164464 0.3709795873333333 -0.8895557323333333
14174468 0.3694264493333333 -0.8900193173333334
14184472 0.36808398366666667 -0.8907436726666668
14194476 0.36683284233333335 -0.8911664286666667
14204480 0.36525602133333335 -0.8916193843333332
14214484 0.36398373066666667 -0.8923626343333333
14224488 0.3625718356666667 -0.8927518723333333
14234492 0.3611382746666667 -0.8931083476666667
14244496 0.359539598 -0.8936117883333333
14254500 0.35841840499999994 -0.894381682
14264504 0.356944124 -0.8946923413333333
14274508 0.3553681673333333 -0.895265599
14284512 0.353999982 -0.8958702883333333
14294516 0.3527247803333333 -0.8963164886666667
14304520 0.3512135943333334 -0.8966071606666667
14314524 0.34974489599999997 -0.897310436
14324528 0.34848915533333336 -0.8978169560000001
14334532 0.3470523753333333 -0.8982178766666666
14344536 0.34544568233333334 -0.8987776436666666
