# HZ S RI R 50
28010000 -0.6004883049999999 -0.6910083293333334
28020004 -0.6027703683333333 -0.689022382
28030008 -0.605035126 -0.6871692136666666
28040012 -0.6071835760000001 -0.6851945119999999
28050016 -0.609414061 -0.6831301053333334
28060020 -0.6115948756666667 -0.6811829610000001
28070024 -0.6136732693333333 -0.6792303323333333
28080028 -0.6159675516666666 -0.6772865653333334
28090032 -0.6180727483333334 -0.6753807066666667
28100036 -0.6200934053333333 -0.6734271246666667
28110040 -0.6222644446666666 -0.6713443203333332
28120044 -0.6243432363333333 -0.669501424
28130048 -0.626325349 -0.6675232646666668
28140052 -0.6284196973333334 -0.665535589
28150056 -0.6305024823333333 -0.663601776
28160060 -0.6323405903333333 -0.6616859239999999
28170064 -0.6344474750000001 -0.6596066753333333
28180068 -0.6364604833333334 -0.6576533913333333
28190072 -0.6383311353333333 -0.6557328303333333
28200076 -0.6403831243333333 -0.6538243093333334
28210080 -0.6423025723333332 -0.6517667376666667
28220084 -0.644281328 -0.6498364206666667
28230088 -0.646204074 -0.647967597
28240092 -0.648041725 -0.645884931
28250096 -0.6500012476666667 -0.643918733
28260100 -0.6517649096666667 -0.641483406
28270104 -0.6537612676666666 -0.6394850413333334
28280108 -0.6554775436666667 -0.6376534899999999
28290112 -0.6573220493333333 -0.635542194
28300116 -0.6593120496666667 -0.633673668
28310120 -0.6610424716666667 -0.6317454973333333
28320124 -0.662849744 -0.629647394
28330128 -0.6647839546666666 -0.6277368863333334
28340132 -0.666572849 -0.6257647276666667
28350136 -0.668163081 -0.6237050093333334
28360140 -0.6699897643333333 -0.6216534180000001
28370144 -0.6717995206666667 -0.6198604503333334
28380148 -0.6734281179999999 -0.6178756553333334
28390152 -0.6753690043333335 -0.615784784
28400156 -0.6770281396666666 -0.6139755843333333
28410160 -0.6785865226666666 -0.6118386783333333
28420164 -0.6803967756666666 -0.6098524136666666
28430168 -0.6821186340000001 -0.6079006396666666
28440172 -0.683695515 -0.6059333483333333
28450176 -0.685390532 -0.6038734716666666
28460180 -0.6871755323333333 -0.6019015313333335
28470184 -0.6886318126666667 -0.5998444159999999
28480188 -0.6902992326666667 -0.5979224243333333
28490192 -0.6919181543333334 -0.5957189996666666
28500196 -0.6936264233333334 -0.5940924086666667
28510200 -0.6951881843333334 -0.592019399
28520204 -0.6968011856666667 -0.5899387796666667
28530208 -0.6984952093333333 -0.588135421
28540212 -0.6998871166666666 -0.5861234666666667
28550216 -0.7014930443333333 -0.583982309
28560220 -0.7031130000000001 -0.5821358560000001
28570224 -0.7046783763333333 -0.5801932216666666
28580228 -0.7060927946666666 -0.5780475336666666
28590232 -0.7077444793333333 -0.5762046776666667
28600236 -0.7091637253333333 -0.5741949279999999
28610240 -0.710661113 -0.5721801320000001
28620244 -0.71219482 -0.5698901413333334
28630248 -0.71365269 -0.568240027
28640252 -0.715219299 -0.5662789346666667
28650256 -0.7165529133333334 -0.564158837
28660260 -0.7180940313333334 -0.5622897746666667
28670264 -0.7194803156666666 -0.5602674683333333
28680268 -0.7208843429999999 -0.5582074323333334
28690272 -0.7225075363333334 -0.5563520193333332
28700276 -0.7237391670000001 -0.554371953
28710280 -0.7251326043333334 -0.5522805453333334
28720284 -0.7265814540000001 -0.5502130190000001
28730288 -0.727798005 -0.5484499533333334
28740292 -0.7293364006666666 -0.5463646453333334
28750296 -0.7307365933333334 -0.5442873436666665
28760300 -0.732101639 -0.5423392453333333
28770304 -0.733275612 -0.5403864383333333
28780308 -0.7345770596666666 -0.5383003156666667
28790312 -0.735995253 -0.536213537
28800316 -0.7373343706666665 -0.534318765
28810320 -0.7385504843333334 -0.5323729716666666
28820324 -0.7400263943333334 -0.530261338
28830328 -0.7413733006666666 -0.528371453
28840332 -0.7424606083333334 -0.526325643
28850336 -0.7438848216666667 -0.5243039526666666
28860340 -0.745187084 -0.5222826006666667
28870344 -0.7463727396666667 -0.520401955
28880348 -0.747661491 -0.5182491343333334
28890352 -0.7489334343333334 -0.5162622926666667
28900356 -0.7501342693333334 -0.514300724
28910360 -0.7514458696666666 -0.5122816363333333
28920364 -0.752657314 -0.5102322699999999
28930368 -0.7539409993333335 -0.5082808336666668
28940372 -0.7551479536666666 -0.5062734683333333
28950376 -0.7562960386666666 -0.5042023263333334
28960380 -0.7575574319999999 -0.502236287
28970384 -0.7586661776666667 -0.5001852513333334
28980388 -0.759948472 -0.49818821733333335
28990392 -0.7610903183333333 -0.496153732
29000396 -0.7621397576666666 -0.49408880866666666
29010400 -0.763445854 -0.49208377766666667
29020404 -0.7646406293333334 -0.4901842476666667
29030408 -0.7656642000000001 -0.48812636733333337
29040412 -0.7670229473333334 -0.4858493113333333
29050416 -0.768012921 -0.4840810103333333
29060420 -0.7691274086666667 -0.4821152686666667
29070424 -0.770341754 -0.4801153243333333
29080428 -0.7715350786666667 -0.47779005733333335
29090432 -0.7724030613333334 -0.47607617566666666
29100436 -0.7735179263333333 -0.47406679366666665
29110440 -0.7747052113333334 -0.47172862266666665
29120444 -0.775672535 -0.470068236
29130448 -0.7767982879999998 -0.4680541653333334
29140452 -0.7780031163333333 -0.4660503366666667
29150456 -0.778916796 -0.46411419899999995
29160460 -0.779860894 -0.4619759323333333
29170464 -0.7810582323333333 -0.45992650599999996
29180468 -0.7821339369999999 -0.4581031003333333
29190472 -0.7829548916666665 -0.45603052800000005
29200476 -0.7841509583333334 -0.45397044233333333
29210480 -0.7852426966666667 -0.45187014333333336
29220484 -0.786115348 -0.4500422976666667
29230488 -0.787148754 -0.44794469066666665
29240492 -0.788271169 -0.44600109266666665
29250496 -0.7890581486666667 -0.44403442733333337
29260500 -0.7901054423333335 -0.4419679146666667
29270504 -0.7905236880000001 -0.43958691766666663
29280508 -0.7916479906666666 -0.43771948433333335
29290512 -0.7929235299999999 -0.4359416663333333
29300516 -0.7938625813333333 -0.433942169
29310520 -0.7947728036666667 -0.431786865
29320524 -0.7958358726666667 -0.42988042066666665
29330528 -0.7967040936666666 -0.4279013573333333
29340532 -0.797563652 -0.4258300263333333
29350536 -0.798545301 -0.42365163566666664
29360540 -0.7995297513333334 -0.4217998883333333
29370544 -0.800473849 -0.41975708799999994
29380548 -0.801266551 -0.4177447753333334
29390552 -0.8021178243333332 -0.41580904533333335
29400556 -0.80304267 -0.4137025873333333
29410560 -0.8042093516666666 -0.4116144476666667
29420564 -0.8049158253333334 -0.4096553723333334
29430568 -0.805684447 -0.407752037
29440572 -0.8064684473333333 -0.4056243496666667
29450576 -0.8075081506666667 -0.40352817366666666
29460580 -0.8083141646666667 -0.4015256763333333
29470584 -0.809143583 -0.3995683886666666
29480588 -0.8100199896666668 -0.3975300886666666
29490592 -0.8108005723333332 -0.3954517146666667
29500596 -0.8117536306666667 -0.39332694799999995
29510600 -0.8125622273333333 -0.39138642933333334
29520604 -0.8133469223333334 -0.3894296883333333
29530608 -0.8141819236666666 -0.3874416746666667
29540612 -0.8149643343333333 -0.38530944800000005
29550616 -0.8154343963333334 -0.38315516666666666
29560620 -0.8165960513333334 -0.3812966246666667
29570624 -0.8173823953333333 -0.3792340256666667
29580628 -0.8181737066666667 -0.37724792966666665
29590632 -0.8190370003333333 -0.37524648499999996
29600636 -0.8196680946666666 -0.37315885233333335
29610640 -0.8205383023333334 -0.371069173
29620644 -0.8213671246666667 -0.369250238
29630648 -0.8218958773333332 -0.3671360813333333
29640652 -0.822627286 -0.3648081816666667
29650656 -0.8233928876666666 -0.36284103
29660660 -0.8241031963333333 -0.36098805066666667
29670664 -0.8250891766666667 -0.359059572
29680668 -0.8255841136666667 -0.35688345633333335
29690672 -0.8263161976666668 -0.354961971
