# HZ S RI R 50
3500200 0.9781567853333333 -0.067686662
3510204 0.9782276553333333 -0.06852616866666666
3520208 0.978164653 -0.069353203
3530212 0.9784747163333333 -0.07026639833333333
3540216 0.978297452 -0.07122674566666666
3550220 0.9781726996666666 -0.07209618133333334
3560224 0.9779532353333334 -0.07289051
3570228 0.977982978 -0.07377447466666666
3580232 0.9779261546666667 -0.07445143666666666
3590236 0.9777561026666666 -0.07535665966666667
3600240 0.977975786 -0.07655808333333335
3610244 0.9779206513333333 -0.077134706
3620248 0.9776758353333334 -0.077757761
3630252 0.9775361619999999 -0.07851366966666666
3640256 0.9774688483333334 -0.07957283166666666
3650260 0.9775729576666666 -0.08040871233333334
3660264 0.9773444536666668 -0.08127629766666668
3670268 0.9771496059999999 -0.08204029266666667
3680272 0.977167467 -0.082757853
3690276 0.9769781826666666 -0.08360932233333333
3700280 0.9770528873333332 -0.08449966199999999
3710284 0.9770293236666667 -0.08535980433333334
3720288 0.9768487213333333 -0.086156356
3730292 0.976715664 -0.08687442266666667
3740296 0.9767202336666667 -0.087803272
3750300 0.9767568706666666 -0.088475863
3760304 0.9766249656666667 -0.089395513
3770308 0.976548374 -0.09030647566666666
3780312 0.9764319459999999 -0.09094516200000001
3790316 0.9762416883333334 -0.09175280966666666
3800320 0.976221184 -0.09260083000000001
3810324 0.9763380286666666 -0.09352935333333334
3820328 0.9762317340000001 -0.094257665
3830332 0.976235986 -0.09508260866666667
3840336 0.9762926896666667 -0.09599797666666665
3850340 0.9762443303333334 -0.09660394
3860344 0.9759896996666667 -0.09748368433333333
3870348 0.9759977260000001 -0.09832688666666667
3880352 0.976055145 -0.09917482466666666
3890356 0.9758850333333333 -0.09990937266666666
3900360 0.9755901493333333 -0.10072260833333334
3910364 0.9754719930000001 -0.10138196266666667
3920368 0.9755927916666667 -0.102232451
3930372 0.9755432606666666 -0.10310717933333334
3940376 0.9753399886666667 -0.103937919
3950380 0.975287775 -0.10464409766666667
3960384 0.975109915 -0.10549802066666668
3970388 0.975054741 -0.10624614833333333
3980392 0.9750145673333334 -0.10694245733333334
3990396 0.9750740726666667 -0.10788775266666667
