# HZ S RI R 50
21007200 -0.12148722499999999 -0.9068811336666666
21017204 -0.12429073666666667 -0.906607628
21027208 -0.12719249233333332 -0.9063717526666667
21037212 -0.130123784 -0.9061467049999999
21047216 -0.13302434466666666 -0.9057807723333333
21057220 -0.13589540133333333 -0.9055366713333334
21067224 -0.13874881466666666 -0.9053524733333332
21077228 -0.14154790333333334 -0.9048750996666667
21087232 -0.14436290166666665 -0.9045961896666667
21097236 -0.14724624166666667 -0.9043749770000001
21107240 -0.15001472333333332 -0.9039318163333334
21117244 -0.15277039 -0.903562069
21127248 -0.15561924366666666 -0.903279702
21137252 -0.15836200099999997 -0.9027475716666666
21147256 -0.16106546933333335 -0.9025246103333334
21157260 -0.1639418453333333 -0.9020866156666667
21167264 -0.166617493 -0.9015367626666667
21177268 -0.16939234233333333 -0.9011893666666667
21187272 -0.17134890466666666 -0.9000692366666666
21197276 -0.17402016133333334 -0.9002625743333333
21207280 -0.17686765399999996 -0.8998876413333333
21217284 -0.17952472966666666 -0.8994372086666668
21227288 -0.18213940166666664 -0.8987669746666667
21237292 -0.185041676 -0.8982401489999999
21247296 -0.18774579 -0.8979706166666667
21257300 -0.19038235133333334 -0.8975313503333333
21267304 -0.19316118466666665 -0.8967653316666667
21277308 -0.19577096400000002 -0.8963360786666666
21287312 -0.19840998433333334 -0.8958098093333332
21297316 -0.20095377633333333 -0.8950159153333334
21307320 -0.20381968733333333 -0.8947002293333334
21317324 -0.206463302 -0.8942498963333333
21327328 -0.2088778166666667 -0.8935081956666666
21337332 -0.21179209666666665 -0.8928751546666667
21347336 -0.21455575533333335 -0.8923430246666667
21357340 -0.21686834566666668 -0.8917852043333333
21367344 -0.21951144933333333 -0.8910659946666667
21377348 -0.22239668666666668 -0.8904331326666667
21387352 -0.22476163466666668 -0.8898418346666667
21397356 -0.2274085183333333 -0.8891189893333333
21407360 -0.23017091066666664 -0.8885497450000001
21417364 -0.23257169133333333 -0.8876785833333334
21427368 -0.23523839333333332 -0.8870725036666668
21437372 -0.23797874666666666 -0.8863686323333333
21447376 -0.240386173 -0.885550956
