# HZ S RI R 50
3000000 0.9803277056666667 -0.021036159
3010004 0.9798039396666667 -0.022146597666666667
3020008 0.9797495803333334 -0.02308751666666667
3030012 0.9796601533333332 -0.024125353666666665
3040016 0.9798350336666667 -0.025210628666666665
3050020 0.9799252150000001 -0.026143165
3060024 0.979755759 -0.027063077333333335
3070028 0.9797974030000001 -0.02803847433333333
3080032 0.9797763626666667 -0.02901343066666667
3090036 0.9797451893333333 -0.029902304
3100040 0.979807059 -0.030954123666666666
3110044 0.9797709583333334 -0.03203425666666667
3120048 0.9798332256666665 -0.03297418
3130052 0.9797121086666666 -0.033787583333333336
3140056 0.9798033436666667 -0.03472444033333333
3150060 0.9798991680000001 -0.03585967066666667
3160064 0.9798084893333333 -0.036713696
3170068 0.9797759056666667 -0.037657184
3180072 0.9799735743333334 -0.03867352400000001
3190076 0.9799709716666668 -0.039436934
3200080 0.9798357086666666 -0.04033098633333334
3210084 0.9799804486666667 -0.041453466
3220088 0.9798376563333333 -0.042406964666666665
3230092 0.9796697296666667 -0.04326236866666666
3240096 0.9797399046666667 -0.04411373166666666
3250100 0.9796696306666667 -0.04511255166666667
3260104 0.9796848296666667 -0.04608519866666666
3270108 0.9794888299999999 -0.046994629
3280112 0.979558726 -0.04798135166666667
3290116 0.9797796606666666 -0.04888381566666666
3300120 0.9797600110000001 -0.049665446
3310124 0.9797141153333332 -0.050549720666666666
3320128 0.9795423346666666 -0.05153958
3330132 0.979386012 -0.05246213466666666
3340136 0.9793795346666667 -0.053336664
3350140 0.979377548 -0.05422276766666667
3360144 0.979273836 -0.05508352933333333
3370148 0.9791685339999999 -0.055948535333333334
3380152 0.9791378973333332 -0.05675404033333333
3390156 0.9791652363333334 -0.05775218333333334
3400160 0.9790891806666666 -0.05866704366666667
3410164 0.9791010023333332 -0.05963018766666667
3420168 0.9790749353333332 -0.060578253
3430172 0.9790129460000001 -0.061481189
3440176 0.978792747 -0.06231580033333334
3450180 0.978733738 -0.06315107133333334
3460184 0.9787449836666666 -0.06409545966666666
3470188 0.978849828 -0.06496128166666666
3480192 0.978816986 -0.06584133
3490196 0.978683571 -0.066771922
3500200 0.9787742696666667 -0.06765582133333332
3510204 0.9786948363333333 -0.06834253166666666
3520208 0.9787944359999999 -0.06925232199999999
3530212 0.9787460166666667 -0.07018877066666666
3540216 0.9787565073333333 -0.071129235
3550220 0.978618344 -0.07199522366666668
3560224 0.978518506 -0.07288459666666666
3570228 0.978515625 -0.07381356033333333
3580232 0.9783484736666667 -0.07450482233333333
3590236 0.9784019389999999 -0.07551883133333333
3600240 0.9785019356666668 -0.07646570633333334
3610244 0.978299717 -0.07719876866666665
3620248 0.9781175653333333 -0.07790967833333333
3630252 0.9781065183333334 -0.078771904
3640256 0.9780376153333333 -0.07969507333333332
3650260 0.977965613 -0.08059889066666666
3660264 0.9778912663333333 -0.08161529633333335
3670268 0.9778238933333334 -0.082313356
3680272 0.9776632193333333 -0.08303544166666665
3690276 0.9775543013333333 -0.08398118866666666
3700280 0.9775869053333334 -0.08480651466666667
3710284 0.9774684506666667 -0.08568066133333334
3720288 0.9774174293333333 -0.08649330100000001
3730292 0.977279981 -0.08734270933333332
3740296 0.9772893186666667 -0.088180671
3750300 0.9773216843333333 -0.08898043633333334
3760304 0.976959646 -0.08991466433333332
3770308 0.9769456786666666 -0.09073047066666666
3780312 0.9768312773333334 -0.09143527833333333
3790316 0.9768172503333332 -0.092383961
3800320 0.9767855403333333 -0.093176683
3810324 0.9766394496666667 -0.09400604666666668
3820328 0.9765584666666666 -0.094833456
3830332 0.9764901 -0.09576799966666666
3840336 0.9767017363333333 -0.09652455900000001
3850340 0.976452867 -0.097229086
3860344 0.9763293466666667 -0.09814516466666667
3870348 0.9764009913333332 -0.09899978833333334
3880352 0.9762821993333333 -0.099829023
3890356 0.9762612383333332 -0.10072020933333332
3900360 0.9759127893333334 -0.101481639
3910364 0.9758271376666667 -0.102168314
3920368 0.9757698576666667 -0.10299362766666668
3930372 0.9756934046666667 -0.10390244933333333
3940376 0.9756577013333333 -0.104881165
3950380 0.9755560556666666 -0.105591779
3960384 0.9753972886666666 -0.10631731633333334
3970388 0.975341598 -0.10710625833333333
3980392 0.9753034313333334 -0.10797371466666666
3990396 0.9752067723333333 -0.10889335
4000400 0.9749624333333333 -0.10976897166666666
4010404 0.9741110006666668 -0.11059858633333335
4020408 0.974791944 -0.11121355999999999
4030412 0.974902292 -0.11223416533333334
4040416 0.9748836953333333 -0.11299949666666666
4050420 0.9747427306666667 -0.11373958966666665
4060424 0.974642078 -0.11469214900000001
4070428 0.9745473463333334 -0.11537431433333334
4080432 0.9744204880000001 -0.11620037233333332
4090436 0.9743001859999999 -0.11701396333333332
4100440 0.9741519093333334 -0.11781457566666666
4110444 0.9740928413333334 -0.118622159
4120448 0.974020481 -0.11940391366666665
4130452 0.973803401 -0.12029013533333333
4140456 0.9736134609999999 -0.12099139399999999
4150460 0.9734996756666666 -0.121823276
4160464 0.973248561 -0.122547942
4170468 0.9730421106666666 -0.12330513700000001
4180472 0.9733250936666668 -0.12420667966666667
4190476 0.973235329 -0.125081276
4200480 0.9731274839999999 -0.12594782833333332
4210484 0.9729344846666668 -0.12664935
4220488 0.972677946 -0.127467672
4230492 0.9727402726666666 -0.128216535
4240496 0.9726825556666666 -0.12918926266666667
4250500 0.9724759856666667 -0.130008598
4260504 0.972088893 -0.13067848966666665
4270508 0.9721315303333333 -0.13156047933333334
4280512 0.9719928503333333 -0.13228223233333333
4290516 0.9719115693333333 -0.13308710366666665
4300520 0.9717205959999999 -0.133789867
4310524 0.971576512 -0.134686152
4320528 0.971270005 -0.13554198566666667
4330532 0.9714098176666667 -0.13632245366666665
4340536 0.9713136556666666 -0.13714321933333332
4350540 0.9710385403333333 -0.13789822666666665
4360544 0.971168836 -0.138769731
4370548 0.9711323579999999 -0.1396325926666667
4380552 0.9706150493333334 -0.14034954666666666
4390556 0.9705849886666668 -0.14115334566666668
4400560 0.9706050356666666 -0.1419476616666667
4410564 0.9703241186666666 -0.14280493066666666
4420568 0.9704223073333332 -0.14371137333333334
4430572 0.9702434736666667 -0.144514645
4440576 0.9699031513333334 -0.145268048
4450580 0.9700237513333333 -0.14613434666666666
4460584 0.9699097673333332 -0.146890243
4470588 0.9697317083333332 -0.147637402
4480592 0.9693698286666667 -0.14839200200000002
4490596 0.9692734880000001 -0.14935608199999997
4500600 0.9690681096666666 -0.149999301
4510604 0.9687844913333333 -0.15145031099999998
4520608 0.9685527283333334 -0.15309880166666667
4530612 0.968379557 -0.154435853
4540616 0.9680875936666666 -0.15587974066666668
4550620 0.9676825403333332 -0.15737796333333334
4560624 0.967665593 -0.1590134403333333
4570628 0.9673599996666667 -0.16027335333333334
4580632 0.9669251843333333 -0.161807696
4590636 0.9667197866666667 -0.16336665533333336
4600640 0.9664689900000001 -0.164745311
4610644 0.9662857850000001 -0.16623688766666667
4620648 0.965960284 -0.1677497423333333
4630652 0.9657372633333333 -0.16913114466666665
4640656 0.96541512 -0.17062958066666667
4650660 0.9651036263333334 -0.17217758799999996
4660664 0.9649536209999999 -0.17375129933333336
4670668 0.9646109143333333 -0.175096358
4680672 0.9642101923333334 -0.17657375333333333
4690676 0.9640346966666667 -0.17803118133333332
4700680 0.963762581 -0.17953592533333332
4710684 0.9635117653333333 -0.18095801266666667
4720688 0.9631918866666666 -0.18245413433333335
4730692 0.9628965656666667 -0.18399904133333334
4740696 0.962506612 -0.18531778466666668
4750700 0.9621405203333334 -0.18689633400000003
4760704 0.9619332946666667 -0.188373849
4770708 0.9616520206666667 -0.18973285466666667
4780712 0.9611845016666667 -0.19131444899999997
4790716 0.9610321123333332 -0.1927612873333333
4800720 0.9606830083333334 -0.19414292233333333
4810724 0.9602219660000001 -0.19564641000000002
4820728 0.959989409 -0.1971449603333333
4830732 0.9596647816666666 -0.19867096833333334
4840736 0.9594161906666666 -0.20007561633333334
4850740 0.958858808 -0.20157830933333334
4860744 0.9586182236666666 -0.2030143836666667
4870748 0.9582194086666668 -0.20440271499999998
4880752 0.9578408399999999 -0.20597611866666665
4890756 0.9576004939999999 -0.2074656983333333
4900760 0.957342605 -0.20894135033333336
4910764 0.9569073320000001 -0.2103024423333333
4920768 0.9565060733333333 -0.21192085266666663
4930772 0.9562730786666668 -0.21338607399999998
4940776 0.9559940096666667 -0.21475628533333335
4950780 0.9554987550000001 -0.21626061200000002
4960784 0.9552218713333334 -0.21783692166666668
4970788 0.9549016953333332 -0.219196265
4980792 0.9542992513333334 -0.22061970333333333
4990796 0.9540616076666666 -0.22223733366666668
5000800 0.9536964693333333 -0.22359048300000003
5010804 0.9533280333333334 -0.22503331299999998
5020808 0.9530545473333333 -0.22673174766666668
5030812 0.9526648916666667 -0.22806869466666668
5040816 0.9523767033333334 -0.229587232
5050820 0.9520218373333332 -0.231183196
5060824 0.9516236583333333 -0.23257225233333334
5070828 0.9513591923333333 -0.23403316233333335
5080832 0.9508802096666665 -0.23554484566666667
5090836 0.9504440826666666 -0.23704010733333333
5100840 0.9500428636666666 -0.238463938
5110844 0.9496592286666666 -0.239983837
5120848 0.9492035310000001 -0.24144022666666667
5130852 0.9488691686666667 -0.24290084833333334
5140856 0.9485143023333333 -0.24431946866666668
5150860 0.947949171 -0.24583418166666668
5160864 0.9476122459999999 -0.2473402073333333
5170868 0.9471567073333333 -0.24875731766666667
5180872 0.946628372 -0.25020345066666666
5190876 0.946282784 -0.25173824066666667
5200880 0.9458140333333334 -0.25321443866666665
5210884 0.9454519750000001 -0.25468237200000005
5220888 0.94514217 -0.25622019166666665
5230892 0.9446249406666666 -0.257655064
5240896 0.9442357026666667 -0.25906295566666665
5250900 0.943739295 -0.26048690066666663
5260904 0.9431855279999999 -0.26204773766666667
5270908 0.9428681333333334 -0.26355349033333336
5280912 0.9423974553333334 -0.26496557400000004
5290916 0.9419781763333334 -0.2665121156666667
5300920 0.941639384 -0.2678867973333333
5310924 0.9410145086666667 -0.2693661153333334
5320928 0.9406255883333333 -0.27094260866666664
5330932 0.9402134416666668 -0.27246614266666663
5340936 0.9396472573333333 -0.273865789
5350940 0.9392253159999999 -0.27536610766666664
5360944 0.9387627639999999 -0.27687885366666665
5370948 0.9382989406666667 -0.2782877783333333
5380952 0.9377088943333334 -0.2798932693333333
5390956 0.937365015 -0.281426052
5400960 0.9366944833333334 -0.2827830813333333
5410964 0.9362229503333334 -0.28428225733333334
5420968 0.9356862903333333 -0.28575176966666666
5430972 0.9352731506666667 -0.28731736566666666
5440976 0.9347518283333334 -0.288667033
5450980 0.9341776569999999 -0.2902748586666667
5460984 0.9337849220000001 -0.29172716533333337
5470988 0.933306118 -0.29320236033333336
5480992 0.932650288 -0.29472318299999994
5490996 0.9320660633333334 -0.296247373
5501000 0.931654036 -0.29773829366666665
5511004 0.9311172563333333 -0.299249321
5521008 0.9306853016666666 -0.300712049
5531012 0.9301469126666667 -0.3022017576666667
5541016 0.9295898476666666 -0.30372959400000005
5551020 0.9289396406666667 -0.3051989476666667
5561024 0.9283479053333333 -0.3066805303333333
5571028 0.9278698959999999 -0.30817294133333334
5581032 0.927282552 -0.3095430236666667
5591036 0.9266652663333333 -0.31112905366666666
5601040 0.9261322616666666 -0.31265874699999996
5611044 0.925593754 -0.314124008
5621048 0.9251355533333333 -0.3157051503333333
5631052 0.9245634476666668 -0.317127516
5641056 0.9239165583333334 -0.31859073033333335
5651060 0.9234223963333333 -0.3201904096666666
5661064 0.9226819676666667 -0.32164811099999996
5671068 0.9221176903333334 -0.3231141766666667
5681072 0.9215235310000001 -0.32466122533333336
5691076 0.920982897 -0.32623769866666663
5701080 0.9204777083333333 -0.3276366886666667
5711084 0.9197589556666667 -0.3292290766666666
5721088 0.9190752503333334 -0.33073384566666664
5731092 0.9186264076666667 -0.33222885933333335
5741096 0.9180457593333333 -0.3337501683333333
5751100 0.9173388083333333 -0.33527468666666665
5761104 0.9167956909999999 -0.3367826143333333
5771108 0.9161893923333334 -0.33825740233333335
5781112 0.915618956 -0.3397251866666666
5791116 0.9149913590000001 -0.34140214333333335
5801120 0.9143364033333333 -0.342850973
5811124 0.9136302073333334 -0.344338268
5821128 0.9129769006666667 -0.34596284233333335
5831132 0.9122999310000001 -0.3474399746666667
5841136 0.911648055 -0.348771393
5851140 0.9109978476666667 -0.35046666866666665
5861144 0.910393715 -0.3520270683333333
5871148 0.9097921653333333 -0.3534055453333333
5881152 0.9088968236666668 -0.3549848996666667
5891156 0.908301731 -0.3565425176666667
5901160 0.9076519406666668 -0.35803640900000006
5911164 0.9068841933333333 -0.35961522666666673
5921168 0.9062729476666668 -0.3612043663333333
5931172 0.905647993 -0.3626742066666666
5941176 0.9048838416666666 -0.36416725299999997
5951180 0.9040845236666667 -0.3658058243333333
5961184 0.9035293260000001 -0.36733576633333337
5971188 0.9027874273333333 -0.36881240200000004
5981192 0.9019847913333333 -0.37033058199999996
5991196 0.901311616 -0.3719133236666667
6001200 0.9005761743333333 -0.3734008966666667
6011204 0.899852117 -0.374966393
6021208 0.899079283 -0.376456529
6031212 0.898395578 -0.37852683633333334
6041216 0.8975063166666666 -0.379786243
6051220 0.8965224426666666 -0.3813057643333333
6061224 0.8959231179999999 -0.38271037733333335
6071228 0.8951157333333333 -0.38431753733333335
6081232 0.8943434953333332 -0.3858847616666667
6091236 0.8936046163333332 -0.3874193133333333
6101240 0.8927638726666668 -0.3889138103333334
6111244 0.892004033 -0.39062418533333326
6121248 0.8912541666666666 -0.39229252900000006
6131252 0.8903541170000001 -0.3935435413333333
6141256 0.889530619 -0.39520429566666665
6151260 0.8887883423333335 -0.3967867493333333
6161264 0.8879864016666666 -0.398244212
6171268 0.8871275583333333 -0.39984706033333334
6181272 0.8863029476666666 -0.40158374100000005
6191276 0.8854079643333334 -0.403076798
6201280 0.8844628133333333 -0.4044153293333333
6211284 0.8837547103333333 -0.406144957
6221288 0.882950445 -0.4076482653333333
6231292 0.882282873 -0.4091586073333333
6241296 0.8810813423333332 -0.41075623033333336
6251300 0.8802131813333333 -0.41257887066666665
6261304 0.8794893226666667 -0.414158692
6271308 0.878388047 -0.415414204
6281312 0.8777234159999999 -0.4171165723333334
6291316 0.8767492966666667 -0.41866061066666665
6301320 0.8756574393333333 -0.420105626
6311324 0.8745778203333333 -0.42193232999999997
6321328 0.8738976716666667 -0.42343434666666663
6331332 0.8731772700000001 -0.42489134266666667
6341336 0.8719951313333333 -0.426560879
6351340 0.8709542353333334 -0.42811375833333337
6361344 0.8701024453333334 -0.42974033966666664
6371348 0.8689990046666667 -0.431299269
6381352 0.8679551283333334 -0.43286675199999997
6391356 0.8671844206666667 -0.434579402
6401360 0.8658691643333333 -0.4361646473333333
6411364 0.864880542 -0.43760035433333333
6421368 0.8638882636666666 -0.43922206733333335
6431372 0.862816513 -0.4407824276666667
6441376 0.8617428736666666 -0.44238114333333334
6451380 0.860688011 -0.44399787
6461384 0.8597193756666667 -0.4455932776666667
6471388 0.8583429256666667 -0.447186162
6481392 0.857152939 -0.44870030899999996
6491396 0.8561350306666666 -0.45024834066666664
6501400 0.8549567659999999 -0.45182396999999996
6511404 0.8537528116666667 -0.4534288246666667
6521408 0.8524944186666666 -0.4547599553333333
6531412 0.8513824543333334 -0.45628831799999997
6541416 0.8501529696666665 -0.45793277033333335
6551420 0.848864158 -0.459464739
6561424 0.8476183813333334 -0.46096961733333336
6571428 0.8463520806666667 -0.462504337
6581432 0.8450699249999999 -0.4640102883333333
6591436 0.8437625766666667 -0.4655306536666666
6601440 0.8425544500000001 -0.4668797553333333
6611444 0.8411416413333334 -0.46842341633333334
6621448 0.8395822643333334 -0.469780922
6631452 0.8382511340000001 -0.471297433
6641456 0.8368503453333332 -0.47275099166666673
6651460 0.8354048133333333 -0.4739358626666667
6661464 0.8340423506666667 -0.47528053333333337
6671468 0.8325543603333333 -0.47664324466666663
6681472 0.8309690953333334 -0.47795062233333335
6691476 0.8294632236666667 -0.47924901033333334
6701480 0.8279543916666666 -0.4803073903333333
6711484 0.826543331 -0.4815928043333333
6721488 0.824942251 -0.482580344
6731492 0.8233792983333333 -0.48364652199999997
6741496 0.8217101493333333 -0.48468456666666665
6751500 0.8201461433333334 -0.4855181673333333
6761504 0.8185163736666666 -0.48627227566666664
6771508 0.817042768 -0.48696056
6781512 0.815426012 -0.48759026333333333
6791516 0.8139670293333333 -0.48817578933333333
6801520 0.8126279909999999 -0.48868748533333334
6811524 0.8112283943333334 -0.4889633953333334
6821528 0.810063263 -0.4892979263333333
6831532 0.8090005916666666 -0.48936373
6841536 0.808006545 -0.48934954433333333
6851540 0.80712682 -0.48929480733333336
6861544 0.806655407 -0.4893099763333333
6871548 0.8063734573333333 -0.48917757466666667
6881552 0.806317548 -0.489125222
6891556 0.8065277933333332 -0.48914383866666666
6901560 0.8069262703333334 -0.4891950293333333
6911564 0.8077200256666667 -0.48975831266666664
6921568 0.808620711 -0.4903435213333333
6931572 0.8097552853333333 -0.49123095466666666
6941576 0.8109383386666668 -0.49255267766666666
6951580 0.8120793696666667 -0.49417509633333334
6961584 0.8132341503333333 -0.4961741073333334
6971588 0.8142062823333333 -0.498434802
6981592 0.815038999 -0.501015862
6991596 0.8157331943333334 -0.5037401116666667
7001600 0.8161376516666667 -0.5066292086666667
7011604 0.8163893623333333 -0.5098115006666667
7021608 0.8163361746666666 -0.5131058096666666
7031612 0.8162447806666666 -0.5164256096666667
7041616 0.8153348166666667 -0.5207196476666667
7051620 0.8147390883333333 -0.5239281853333334
7061624 0.814132651 -0.527114868
7071628 0.8131218553333334 -0.5303524533333334
7081632 0.8121094503333334 -0.533573707
7091636 0.810952028 -0.5364382266666666
7101640 0.809468925 -0.5394405323333333
7111644 0.8080545663333334 -0.5425064963333334
7121648 0.8067671656666667 -0.5453877843333333
7131652 0.8051457403333334 -0.5480522316666666
7141656 0.8034931816666667 -0.5509083866666666
7151660 0.8020282386666667 -0.5534770686666667
7161664 0.8003169893333334 -0.556227386
7171668 0.7984398009999999 -0.5587717293333334
7181672 0.7969054183333334 -0.5616240103333333
7191676 0.795040965 -0.5640848876666666
7201680 0.7931622666666667 -0.5665285590000001
7211684 0.791275243 -0.5691390630000001
7221688 0.7895575166666666 -0.5715693233333333
7231692 0.7876803476666666 -0.57402883
7241696 0.7857301633333332 -0.5764772493333333
7251700 0.783877055 -0.5791184306666667
7261704 0.7819418313333334 -0.5814103283333333
7271708 0.7800117733333334 -0.583774547
7281712 0.7780561446666666 -0.5861938593333333
7291716 0.776121835 -0.5886108280000001
7301720 0.7741385696666666 -0.5909499526666667
7311724 0.7720597186666667 -0.5933373573333334
7321728 0.770160079 -0.5958241023333334
7331732 0.7680974603333333 -0.598101775
7341736 0.7660226823333334 -0.6004494026666668
7351740 0.763880968 -0.6027316453333332
7361744 0.761832754 -0.6050773463333333
7371748 0.7596660853333335 -0.6073843836666667
7381752 0.7573701540000001 -0.6100399293333334
7391756 0.7551671466666666 -0.611904184
7401760 0.7530716856666667 -0.6143058936666668
7411764 0.7509730656666666 -0.6166839
7421768 0.7487775883333333 -0.619057894
7431772 0.7462242643333333 -0.6216638090000001
7441776 0.744240145 -0.6237694026666666
7451780 0.7418365083333334 -0.6260018746666667
7461784 0.739413182 -0.6287531056666666
7471788 0.7372769513333334 -0.6308484273333334
7481792 0.734940211 -0.6331943666666667
