# HZ S RI R 50
5250900 0.943739295 -0.26048690066666663
5260904 0.9431855279999999 -0.26204773766666667
5270908 0.9428681333333334 -0.26355349033333336
5280912 0.9423974553333334 -0.26496557400000004
5290916 0.9419781763333334 -0.2665121156666667
5300920 0.941639384 -0.2678867973333333
5310924 0.9410145086666667 -0.2693661153333334
5320928 0.9406255883333333 -0.27094260866666664
5330932 0.9402134416666668 -0.27246614266666663
5340936 0.9396472573333333 -0.273865789
5350940 0.9392253159999999 -0.27536610766666664
5360944 0.9387627639999999 -0.27687885366666665
5370948 0.9382989406666667 -0.2782877783333333
5380952 0.9377088943333334 -0.2798932693333333
5390956 0.937365015 -0.281426052
5400960 0.9366944833333334 -0.2827830813333333
5410964 0.9362229503333334 -0.28428225733333334
5420968 0.9356862903333333 -0.28575176966666666
5430972 0.9352731506666667 -0.28731736566666666
5440976 0.9347518283333334 -0.288667033
