# HZ S RI R 50
5250900 0.9741534986666666 -0.07626721766666666
5260904 0.9741533796666667 -0.07817159366666666
5270908 0.9738978943333333 -0.079886541
5280912 0.9738758406666667 -0.08165499300000001
5290916 0.9737689496666667 -0.08340167733333333
5300920 0.9737612803333334 -0.085198452
5310924 0.9732906816666667 -0.086848937
5320928 0.9732186196666666 -0.088704837
5330932 0.973164181 -0.09042631833333332
5340936 0.9729485316666667 -0.09216251199999999
5350940 0.9728534620000001 -0.09394055866666666
5360944 0.9725472926666666 -0.09556843566666666
5370948 0.9723142783333333 -0.09718914333333332
5380952 0.9722094536666667 -0.09906593233333333
5390956 0.9721109073333333 -0.10088453166666667
5400960 0.971909106 -0.10249382733333334
5410964 0.9716519116666666 -0.10428047933333333
5420968 0.9714001813333334 -0.10590877633333333
5430972 0.9713983736666667 -0.10765626033333332
5440976 0.9711119733333334 -0.10941139099999998
