# HZ S RI R 50
3000000 0.9239483873333333 0.2841545343333333
3010004 0.924144586 0.2820426126666667
3020008 0.9246804713333333 0.27991930633333334
3030012 0.9254237016666668 0.2781540453333333
3040016 0.9262720940000001 0.27630984799999997
3050020 0.926852425 0.2745204173333333
3060024 0.9275148113333334 0.272635172
3070028 0.9282497166666667 0.270890643
3080032 0.9287732043333333 0.26913021
3090036 0.929341654 0.26721603666666666
3100040 0.9303594626666666 0.2655723793333334
3110044 0.9310940306666667 0.26362946600000003
3120048 0.9312822423333333 0.2617514033333333
3130052 0.931785325 0.26002127933333335
3140056 0.932529648 0.25847263133333337
3150060 0.9333310126666666 0.256657243
3160064 0.9338131546666667 0.254808714
3170068 0.9344014723333333 0.25301324333333336
3180072 0.9352524079999999 0.25131308033333327
3190076 0.9356783826666666 0.24965023
3200080 0.9362614749999999 0.2479703573333333
3210084 0.9369436106666668 0.2462287546666667
3220088 0.937428832 0.24443619966666666
3230092 0.9380399979999999 0.24273091533333332
3240096 0.9385455646666667 0.24109530933333334
3250100 0.9390143353333333 0.23924287633333333
3260104 0.9394034746666667 0.23752740000000003
3270108 0.9400124550000001 0.23585745166666663
3280112 0.9405001996666668 0.23427982133333333
3290116 0.941242059 0.23256741466666667
3300120 0.941783627 0.230952124
3310124 0.9420859616666667 0.22924877200000002
3320128 0.9424793123333334 0.22751971566666665
3330132 0.9431404273333333 0.22588957366666665
3340136 0.943394224 0.22434524199999997
3350140 0.9440794386666665 0.22253093100000002
3360144 0.94443804 0.22083057966666664
3370148 0.9451052349999999 0.21931349733333336
3380152 0.9453740119999999 0.217758839
3390156 0.9459829330000001 0.2160954773333333
3400160 0.9465017116666666 0.214365527
3410164 0.946898659 0.21280319
3420168 0.9473877549999999 0.21108534933333334
3430172 0.947990894 0.20942750566666665
3440176 0.9483848213333333 0.20782590899999998
3450180 0.9485579730000001 0.20631809033333334
3460184 0.9489915966666667 0.20467588300000003
3470188 0.9494817653333333 0.20305619666666666
3480192 0.9500529963333334 0.20164199200000002
3490196 0.9503626823333334 0.19994606066666668
3500200 0.9508574806666666 0.19827805966666667
3510204 0.9513048729999999 0.1968478513333333
3520208 0.9516842563333333 0.195387741
3530212 0.9522641100000001 0.19369837166666667
3540216 0.9526021876666667 0.19203035033333335
3550220 0.9529417953333333 0.1905079683333333
3560224 0.9534077046666667 0.18881906566666665
3570228 0.953719596 0.18749289233333333
3580232 0.954015414 0.18595159033333333
3590236 0.9544969396666666 0.18436967333333332
3600240 0.9550206063333334 0.18281260633333332
3610244 0.9553216693333333 0.181255713
3620248 0.9555102586666666 0.17985671766666667
3630252 0.9557846583333333 0.178336983
3640256 0.9562537670000001 0.17669491466666665
3650260 0.9566117326666665 0.17519206833333334
3660264 0.9570163093333334 0.1735919863333333
3670268 0.9572292963333333 0.1720525076666667
3680272 0.9573683539999999 0.17069499700000001
3690276 0.9578084746666667 0.169171696
3700280 0.9582947493333333 0.16772519066666666
3710284 0.958436549 0.16627263033333334
3720288 0.9587486586666666 0.164649402
3730292 0.95899415 0.163119182
3740296 0.9594457546666666 0.161786616
3750300 0.9596655369999999 0.16036099666666667
3760304 0.960033099 0.15875459233333333
3770308 0.960415582 0.15718940866666667
3780312 0.9606795903333333 0.15596482166666667
3790316 0.9608226616666666 0.154354468
3800320 0.9612197080000001 0.15278543033333333
3810324 0.9615448710000001 0.151488796
3820328 0.9617810250000001 0.15016197666666667
3830332 0.962127785 0.14854905466666668
3840336 0.9626282453333332 0.147189607
3850340 0.962771992 0.14586645366666665
3860344 0.9629389843333334 0.144413958
3870348 0.9633676806666668 0.14289981166666665
3880352 0.96376731 0.14153172533333336
3890356 0.963863214 0.14011144666666667
3900360 0.9640236893333333 0.13870288900000002
3910364 0.9644352993333333 0.13730308433333335
3920368 0.9647533300000001 0.13600552066666668
3930372 0.9648680886666666 0.13449431466666667
3940376 0.9651219846666667 0.133023098
3950380 0.965334137 0.13166297466666665
3960384 0.9656250476666667 0.13029710966666666
3970388 0.9657699863333334 0.12898427266666665
3980392 0.9659008980000001 0.127599622
3990396 0.9662496846666665 0.12617254233333333
4000400 0.9664277233333333 0.12478820966666666
4010404 0.9659001429999999 0.123217384
4020408 0.9669989746666667 0.122106125
4030412 0.96740971 0.120790196
4040416 0.9678431353333333 0.11923971533333333
4050420 0.967933178 0.11810961833333333
4060424 0.9680536786666667 0.11666570333333333
4070428 0.9683408143333333 0.11535451333333334
4080432 0.9684224330000001 0.11410782233333333
4090436 0.9684931833333333 0.11259916933333332
4100440 0.9689548213333333 0.111257938
4110444 0.9691055616666667 0.11003039033333332
4120448 0.9691671926666666 0.10869119066666666
4130452 0.9692039686666667 0.10734462
4140456 0.96941032 0.10610425466666666
4150460 0.9695172706666667 0.10469419266666667
4160464 0.9696965416666666 0.10333581533333332
4170468 0.9698174796666666 0.10210160400000001
4180472 0.9702420433333333 0.10089694966666667
4190476 0.970512529 0.09947566933333334
4200480 0.9707969823333333 0.097995664
4210484 0.9706935683333334 0.09681667133333333
4220488 0.9708886146666668 0.09555514433333334
4230492 0.9712609053333333 0.09412764266666666
4240496 0.9715044893333333 0.09297268833333333
4250500 0.971271614 0.09170186000000001
4260504 0.9710621836666666 0.090341183
4270508 0.9716377456666666 0.08904625233333334
4280512 0.9717253846666667 0.087946574
4290516 0.9719481866666667 0.08662667366666667
4300520 0.9720934826666666 0.08528434733333334
4310524 0.9722386993333334 0.08417626966666665
4320528 0.9721391396666667 0.08268891033333332
4330532 0.972529769 0.08138576400000001
4340536 0.9727666176666666 0.08020082833333333
4350540 0.9726663033333334 0.07897593566666666
4360544 0.9730111560000001 0.07760498166666667
4370548 0.9731937446666666 0.07633255933333333
4380552 0.9730682773333333 0.07519292566666667
4390556 0.9730391103333335 0.07385388766666667
4400560 0.9735024173333334 0.07257643366666668
4410564 0.9736806353333334 0.07152997933333334
4420568 0.9738678336666666 0.07018857699999999
4430572 0.9739474056666667 0.068799471
4440576 0.9739362196666667 0.06764126566666667
4450580 0.9741086166666667 0.06652873999999999
4460584 0.9741909106666666 0.06511662433333333
4470588 0.9744293096666667 0.06390572366666668
4480592 0.9744361043333334 0.06268293166666668
4490596 0.9745123186666667 0.061444466
4500600 0.974573056 0.06012540066666666
4510604 0.97469755 0.05834043733333333
4520608 0.9746545553333333 0.05637870733333333
4530612 0.9750843443333334 0.05438060166666667
4540616 0.9750934043333334 0.052608104999999995
4550620 0.9750671190000001 0.05076552666666667
4560624 0.9752696753333333 0.048721712333333334
4570628 0.9754731653333334 0.046888443333333335
4580632 0.9754160839999999 0.045072766333333326
4590636 0.9756266873333334 0.043101140333333336
4600640 0.9757687846666667 0.04125212633333333
4610644 0.9759153523333333 0.03942721933333334
4620648 0.9757873413333334 0.03750488533333333
4630652 0.9760077993333334 0.035523145
4640656 0.9760188263333333 0.033743033666666665
4650660 0.9761264523333333 0.03197909
4660664 0.976272285 0.02992468433333333
4670668 0.9764582713333333 0.028006604
4680672 0.9764398533333334 0.026293790666666664
4690676 0.9764474033333334 0.024338898666666667
4700680 0.9767115713333333 0.022501056333333335
4710684 0.9765416186666668 0.020702712
4720688 0.976599077 0.01882309
4730692 0.9766846896666667 0.016789709666666666
4740696 0.9768200916666667 0.015166213333333333
4750700 0.9768422643333333 0.013300953666666665
4760704 0.9769539833333334 0.011323803333333333
4770708 0.9770389596666668 0.009428615999999999
4780712 0.977012833 0.007788339666666667
4790716 0.9769721033333334 0.005851489666666667
4800720 0.9770268596666667 0.003998064
4810724 0.9770525896666666 0.002261439
4820728 0.976832847 0.00029692933333333335
4830732 0.9769541223333333 -0.001651037
4840736 0.9771239956666666 -0.003371146
4850740 0.9770633176666667 -0.005077783666666666
4860744 0.9770046073333333 -0.007124840666666667
4870748 0.9771969516666666 -0.008793771333333334
4880752 0.9770272173333333 -0.010570938
4890756 0.9769552943333334 -0.012487212999999999
4900760 0.9769533676666667 -0.01444906
4910764 0.9770570003333333 -0.016041561666666666
4920768 0.97689571 -0.017800900999999997
4930772 0.9769987859999999 -0.019869998
4940776 0.9771122929999999 -0.021503361999999998
4950780 0.9768807886666666 -0.023333353
4960784 0.9766949216666667 -0.02528081733333333
4970788 0.9770110646666667 -0.026947035999999997
4980792 0.976899405 -0.028699989333333332
4990796 0.9767675996666666 -0.030653367333333334
5000800 0.9768333036666667 -0.032416483999999995
5010804 0.9766989546666668 -0.03408149733333333
5020808 0.9758548340000001 -0.03574423733333333
5030812 0.9764551716666666 -0.03742294233333333
5040816 0.976184269 -0.039134966666666667
5050820 0.9760641853333333 -0.041067085999999996
5060824 0.9761545063333333 -0.04282404466666667
5070828 0.9759501616666667 -0.04458398633333333
5080832 0.9759083786666668 -0.04630714566666667
5090836 0.9758547539999999 -0.04814602666666667
5100840 0.9757672746666667 -0.049985903
5110844 0.9757799506666666 -0.051647313
5120848 0.9755866923333333 -0.053473318666666665
5130852 0.9755056696666667 -0.055315947666666664
5140856 0.9754595359999999 -0.057016143
5150860 0.97526745 -0.058680163
5160864 0.9751726586666667 -0.06060057866666666
5170868 0.9751139086666667 -0.062307884333333334
5180872 0.9750994643333333 -0.06405034666666666
5190876 0.9751283523333334 -0.06582017233333333
5200880 0.9747771623333333 -0.06767458466666666
5210884 0.9746932783333334 -0.06928327399999999
5220888 0.9745353856666666 -0.07105836033333333
5230892 0.9743526976666667 -0.072913314
5240896 0.9744259120000001 -0.07460339133333334
5250900 0.9741534986666666 -0.07626721766666666
5260904 0.9741533796666667 -0.07817159366666666
5270908 0.9738978943333333 -0.079886541
5280912 0.9738758406666667 -0.08165499300000001
5290916 0.9737689496666667 -0.08340167733333333
5300920 0.9737612803333334 -0.085198452
5310924 0.9732906816666667 -0.086848937
5320928 0.9732186196666666 -0.088704837
5330932 0.973164181 -0.09042631833333332
5340936 0.9729485316666667 -0.09216251199999999
5350940 0.9728534620000001 -0.09394055866666666
5360944 0.9725472926666666 -0.09556843566666666
5370948 0.9723142783333333 -0.09718914333333332
5380952 0.9722094536666667 -0.09906593233333333
5390956 0.9721109073333333 -0.10088453166666667
5400960 0.971909106 -0.10249382733333334
5410964 0.9716519116666666 -0.10428047933333333
5420968 0.9714001813333334 -0.10590877633333333
5430972 0.9713983736666667 -0.10765626033333332
5440976 0.9711119733333334 -0.10941139099999998
5450980 0.9711721936666665 -0.111113352
5460984 0.9707081513333332 -0.11282227233333332
5470988 0.9705707426666668 -0.11456340300000001
5480992 0.9703269003333334 -0.116255914
5490996 0.970043381 -0.117926307
5501000 0.9699489676666667 -0.11960628133333333
5511004 0.9696266256666667 -0.12145974
5521008 0.969601611 -0.12315075866666665
5531012 0.96938469 -0.12481021133333332
5541016 0.9690622093333333 -0.12651590000000001
5551020 0.9690381093333333 -0.128331492
5561024 0.968696495 -0.12996826066666667
5571028 0.9684730766666666 -0.13168070233333332
5581032 0.9681716956666667 -0.1333436073333333
5591036 0.967928926 -0.13495576366666664
5601040 0.9677936236666667 -0.13671480133333333
5611044 0.9674157299999999 -0.13841505833333334
5621048 0.967251241 -0.14016183233333332
5631052 0.9670184253333334 -0.14174627233333334
5641056 0.9666319093333332 -0.14348957433333334
5651060 0.9664818246666668 -0.14518020533333334
5661064 0.9662139813333334 -0.146870136
5671068 0.9660861493333334 -0.14860098066666666
5681072 0.9658230346666666 -0.15021594333333332
5691076 0.9654329416666667 -0.15186776733333332
5701080 0.9652467966666668 -0.153567374
5711084 0.9649941723333333 -0.155330931
5721088 0.9646678963333333 -0.156885912
5731092 0.96445477 -0.15866584566666667
5741096 0.9641951123333333 -0.16026251533333333
5751100 0.9640177489999999 -0.16195964333333332
5761104 0.9635330836666668 -0.16355152933333333
5771108 0.9632337889999999 -0.165315752
5781112 0.9630086819999999 -0.166984235
5791116 0.9628172713333334 -0.16862709333333334
5801120 0.9624501666666667 -0.17032017800000002
5811124 0.962168654 -0.17198929200000002
5821128 0.961879293 -0.17349751299999996
5831132 0.9615984956666667 -0.175194035
5841136 0.9613497456666668 -0.17693256333333332
5851140 0.960953037 -0.17848234866666668
5861144 0.960768183 -0.18022075299999998
5871148 0.9604217013333334 -0.18179099766666665
5881152 0.9600269396666666 -0.18334901833333336
5891156 0.959666431 -0.1850759436666667
5901160 0.9594498673333334 -0.186731145
5911164 0.9592241843333333 -0.188315903
5921168 0.9587105513333333 -0.18991418666666668
5931172 0.9582654836666666 -0.19165995700000002
5941176 0.9581485786666667 -0.19333248333333333
5951180 0.957746347 -0.19492244700000003
5961184 0.9574688076666668 -0.19656134166666664
5971188 0.9571527840000001 -0.19825258833333334
5981192 0.9569100540000001 -0.19971458099999997
5991196 0.9564188123333333 -0.20138995333333334
6001200 0.9560709396666667 -0.20313328499999997
6011204 0.955747048 -0.20459642533333333
6021208 0.955360631 -0.20631570600000002
6031212 0.9542128839999999 -0.207928906
6041216 0.954731385 -0.20943449433333336
6051220 0.9542458056666666 -0.211234167
6061224 0.9539871416666666 -0.21289747933333333
6071228 0.953689436 -0.21436312266666668
6081232 0.9530707003333334 -0.21606745800000002
6091236 0.9528557063333333 -0.2177396766666667
6101240 0.9524253013333333 -0.21918438866666667
6111244 0.9519328076666667 -0.22089078033333331
6121248 0.9515429536666665 -0.22255327800000002
6131252 0.9513058663333332 -0.22406781733333334
6141256 0.9509133300000001 -0.2256307253333333
6151260 0.9502962629999999 -0.22731660799999998
6161264 0.9501088659999999 -0.22899018733333334
6171268 0.9496624866666666 -0.23043152199999997
6181272 0.9491590063333334 -0.232089882
6191276 0.948787689 -0.23371351266666665
6201280 0.9484740493333333 -0.23527427
6211284 0.948105852 -0.236926809
6221288 0.9476302266666666 -0.23844521766666668
6231292 0.947242399 -0.24007635800000002
6241296 0.9469335276666667 -0.24167068299999997
6251300 0.94636329 -0.24324209
6261304 0.945974648 -0.244912436
6271308 0.945575138 -0.24642355733333332
6281312 0.9451189636666667 -0.24802471166666665
6291316 0.9447054070000002 -0.24954576800000003
6301320 0.9443334339999999 -0.25119253999999996
6311324 0.9438375033333334 -0.2527731756666667
6321328 0.9432852866666667 -0.25433819500000004
6331332 0.9429965816666667 -0.2559728723333334
6341336 0.94255503 -0.25748398933333333
6351340 0.9420814713333333 -0.25906497233333337
6361344 0.9416858156666666 -0.2607485253333333
6371348 0.9413012663333333 -0.262224545
6381352 0.9407263 -0.263782253
6391356 0.9402405423333334 -0.265376528
6401360 0.9398281970000001 -0.26689832399999996
6411364 0.9394448796666667 -0.26849854999999995
6421368 0.9388653436666666 -0.270003756
6431372 0.938435793 -0.271567593
6441376 0.937996268 -0.27311942966666664
6451380 0.9375326633333333 -0.2747311293333334
6461384 0.9370145996666667 -0.27633990833333333
6471388 0.9366277259999999 -0.277789821
6481392 0.9360992313333334 -0.2793859143333333
6491396 0.935572207 -0.28089810400000004
6501400 0.9351699946666666 -0.2824614446666667
6511404 0.9345855116666667 -0.28396798166666665
6521408 0.9342014790000001 -0.285562128
6531412 0.9337888360000001 -0.28715880699999996
6541416 0.9333147806666666 -0.2885960636666667
6551420 0.9327671526666667 -0.2901557086666667
6561424 0.9321573773333333 -0.29171264166666666
6571428 0.9318005446666667 -0.2932768763333333
6581432 0.9313171109999999 -0.29486400900000004
6591436 0.930859685 -0.29640937866666667
6601440 0.9302387633333332 -0.2978821396666667
6611444 0.9297825693333334 -0.299361537
6621448 0.9292353393333334 -0.3009524143333333
6631452 0.9287937683333333 -0.30253624900000003
6641456 0.9281682173333333 -0.3039777676666667
6651460 0.9276388486666667 -0.30560837166666666
6661464 0.9272144436666667 -0.30715448666666667
6671468 0.9267011286666667 -0.308602492
6681472 0.926241199 -0.31017421666666667
6691476 0.9257838726666666 -0.31166722366666666
6701480 0.9251176916666667 -0.313187629
6711484 0.924606224 -0.314672798
6721488 0.92416358 -0.31625634433333333
6731492 0.9234439333333334 -0.3177184263333333
6741496 0.9228964246666668 -0.31920954566666665
6751500 0.9223706523333334 -0.32070634766666667
6761504 0.9218191903333334 -0.32216665166666664
6771508 0.921406289 -0.32377395999999997
6781512 0.9208971656666666 -0.3253182273333333
6791516 0.9202164806666667 -0.32682869833333333
6801520 0.9198349913333334 -0.32836914066666667
6811524 0.9191769956666667 -0.32984071966666667
6821528 0.9186564686666667 -0.3313646316666667
6831532 0.918125113 -0.332838456
6841536 0.9174349703333333 -0.33437502366666666
6851540 0.917047302 -0.3358716766666667
6861544 0.9163465299999999 -0.3373616236666666
6871548 0.9157966176666666 -0.33888028066666664
6881552 0.915175398 -0.34035246599999996
6891556 0.9147109389999999 -0.34188506
6901560 0.9139881930000001 -0.34330599533333334
6911564 0.9136224193333334 -0.34483933466666666
6921568 0.9129078783333333 -0.34640349933333336
6931572 0.9123311833333334 -0.3478036723333333
6941576 0.9117168386666666 -0.34934880333333335
6951580 0.9111250043333333 -0.350738446
6961584 0.9104618626666666 -0.3522805473333333
6971588 0.9099673033333334 -0.35379568766666664
6981592 0.90931203 -0.3553260663333333
6991596 0.9088364840000001 -0.3568365276666667
7001600 0.908182462 -0.358214438
7011604 0.9076572853333333 -0.3597367306666667
7021608 0.9070098 -0.36133422433333334
7031612 0.9063554206666667 -0.362683187
7041616 0.9051624933333334 -0.36404559966666666
7051620 0.9053549966666666 -0.3655938703333333
7061624 0.9047047096666666 -0.36708768233333333
7071628 0.9042487343333333 -0.368583868
7081632 0.9036415616666668 -0.370023797
7091636 0.9029156963333334 -0.3713372846666667
7101640 0.9022354286666667 -0.37302519866666667
7111644 0.9016002416666667 -0.37450044366666674
7121648 0.9010241033333334 -0.375893533
7131652 0.9004931846666667 -0.3773637513333334
7141656 0.8997400203333333 -0.3788134556666667
7151660 0.8990794220000001 -0.38015892133333334
7161664 0.898525695 -0.3816894593333333
7171668 0.8978273866666667 -0.38311065233333336
7181672 0.8971564766666665 -0.3846490386666666
7191676 0.8967950343333334 -0.3861036793333333
7201680 0.895884236 -0.3874838056666667
7211684 0.8952874340000001 -0.38904224833333334
7221688 0.8946746786666666 -0.39041736699999996
7231692 0.8939960006666666 -0.3918442823333333
7241696 0.893185119 -0.393156399
7251700 0.8927119373333333 -0.394823899
7261704 0.8919263483333334 -0.3960639633333333
7271708 0.8912256163333333 -0.397641033
7281712 0.8906238673333333 -0.399097234
7291716 0.890005092 -0.4004906613333333
7301720 0.8893075983333333 -0.40189531466666667
7311724 0.8885376850000001 -0.4034052986666666
7321728 0.887929062 -0.4048009813333333
7331732 0.8872600596666667 -0.4062563973333333
7341736 0.8866100706666667 -0.407800188
7351740 0.8860940140000001 -0.4091877836666667
7361744 0.8853072326666666 -0.4104226626666667
7371748 0.8844667673333334 -0.4118813376666666
7381752 0.8838222026666666 -0.41345342
7391756 0.8832554023333333 -0.4148223303333333
7401760 0.8823978703333334 -0.4162623783333333
7411764 0.8817345696666666 -0.41768489299999995
7421768 0.8810649713333333 -0.4191495576666666
7431772 0.8802942633333334 -0.42059452366666666
7441776 0.8795931936666667 -0.4219896893333333
7451780 0.8791677753333333 -0.42347556333333336
7461784 0.8782573143333333 -0.4247315526666667
7471788 0.8775007523333334 -0.4263008236666666
7481792 0.876914402 -0.42772665633333334
7491796 0.8761919736666667 -0.42907435666666666
