# HZ S RI R 50
21007200 -0.1890814603333333 -0.9091657996666668
21017204 -0.19139880433333334 -0.908641259
21027208 -0.19362757100000003 -0.9082838293333334
21037212 -0.19578456366666666 -0.9078564446666667
21047216 -0.19800755866666667 -0.9072620473333334
21057220 -0.200280249 -0.9067300556666668
21067224 -0.20247949633333331 -0.9064231513333333
21077228 -0.20470523866666668 -0.905780832
21087232 -0.20689240566666667 -0.9054710266666666
21097236 -0.2089702933333333 -0.9048307143333334
21107240 -0.21126689499999998 -0.9044381776666667
21117244 -0.213508899 -0.9039005836666667
21127248 -0.215592578 -0.9032461643333334
21137252 -0.217853889 -0.9029912153333334
21147256 -0.22003871233333336 -0.9023612139999999
21157260 -0.22216193399999998 -0.9019190866666668
21167264 -0.22435620433333334 -0.9013824863333334
21177268 -0.22657505199999997 -0.9007549483333334
21187272 -0.22843230766666667 -0.8996115923333333
21197276 -0.23057942099999998 -0.899539113
21207280 -0.23268406566666666 -0.8994050026666667
21217284 -0.23477414733333335 -0.8986289306666667
21227288 -0.23703182733333336 -0.8980598253333335
21237292 -0.239192178 -0.8976274329999999
21247296 -0.24124394366666668 -0.8969733516666666
21257300 -0.24349116266666668 -0.896433393
21267304 -0.24560358633333332 -0.8957786560000001
21277308 -0.247655764 -0.8952347240000001
21287312 -0.24984525133333335 -0.894601842
21297316 -0.25206612533333334 -0.8939634366666667
21307320 -0.25411619733333335 -0.8933827083333333
21317324 -0.25619600233333334 -0.8925337986666667
21327328 -0.25834974633333335 -0.8920790953333334
21337332 -0.260502686 -0.8913728796666667
21347336 -0.262552599 -0.8908512393333333
21357340 -0.2646712066666666 -0.8901593286666666
21367344 -0.26682329166666663 -0.8894670606666667
21377348 -0.2688963013333333 -0.8888918756666667
21387352 -0.2708986896666667 -0.8881415723333334
21397356 -0.273092578 -0.8874519863333333
21407360 -0.27521391700000003 -0.8869356516666667
21417364 -0.27715586633333333 -0.8860177
21427368 -0.2792758446666667 -0.885194957
21437372 -0.28143087033333336 -0.8847362203333334
21447376 -0.283346643 -0.883875072
