# HZ S RI R 50
7001600 0.6926044223333333 0.10459181433333332
7011604 0.6856639386666666 0.07082943633333333
7021608 0.6756338876666668 0.036945382666666665
7031612 0.6626674533333333 0.00232401
7041616 0.6470569573333333 -0.03318659833333334
7051620 0.6276944676666667 -0.06729767433333333
7061624 0.603923023 -0.10141326966666668
7071628 0.5766445596666667 -0.1344876833333333
7081632 0.5447749296666666 -0.16553209733333332
7091636 0.5082096453333333 -0.19516932933333334
7101640 0.4672130446666667 -0.22126055266666667
7111644 0.42211127300000006 -0.24300163
7121648 0.37179224699999996 -0.2606649893333333
7131652 0.317887137 -0.27213676766666667
7141656 0.26194496933333333 -0.27596530333333336
7151660 0.20277339233333333 -0.272470395
7161664 0.142336791 -0.26005697266666666
7171668 0.08444698899999999 -0.23812484733333336
7181672 0.028544575333333336 -0.20677277433333333
7191676 -0.023528842333333338 -0.16634399700000002
7201680 -0.06745311633333334 -0.11812746766666667
7211684 -0.10411101066666667 -0.06262748066666667
7221688 -0.13158171866666665 -0.0014047570000000002
7231692 -0.148092394 0.06181251033333333
7241696 -0.15469491966666668 0.12647726133333334
7251700 -0.15125592033333332 0.19085104266666666
7261704 -0.13787419133333334 0.251716544
7271708 -0.11684446066666666 0.3081745603333333
7281712 -0.08838564933333333 0.35972151133333335
7291716 -0.054677472666666664 0.4053125083333333
