# HZ S RI R 50
28010000 -0.046273957 0.208142504
28020004 -0.043822887 0.20655858533333335
28030008 -0.04128804933333333 0.204990993
28040012 -0.038894585 0.20341130600000001
28050016 -0.036664312 0.201876218
28060020 -0.034427588 0.20023421933333338
28070024 -0.032233259 0.198607683
28080028 -0.030178528333333333 0.19708127266666667
28090032 -0.028217050999999996 0.19543561366666665
28100036 -0.026194853 0.19387299333333333
28110040 -0.024382320666666665 0.192267701
28120044 -0.022617216 0.19068292766666664
28130048 -0.020884361 0.18907254433333334
28140052 -0.019255989333333334 0.18760883800000003
28150056 -0.017641005 0.18610898666666667
28160060 -0.016095319666666667 0.18461685900000002
28170064 -0.014602221333333333 0.18320052333333334
28180068 -0.013218745333333332 0.18173810366666665
28190072 -0.011825317333333335 0.180328811
28200076 -0.010478092666666666 0.178913663
28210080 -0.009146939 0.1775932113333333
28220084 -0.007820977666666668 0.17630405733333332
28230088 -0.006724511999999999 0.1749415546666667
28240092 -0.005572407333333332 0.17374034233333333
28250096 -0.004389815 0.17244688200000002
28260100 -0.0033498686666666665 0.17128182966666664
28270104 -0.002314898666666667 0.170188551
28280108 -0.0013287776666666667 0.16897758333333335
28290112 -0.0002605143333333333 0.16786216199999995
28300116 0.000697326 0.16673792399999998
28310120 0.001537678 0.165621062
28320124 0.002448605333333333 0.16464436566666665
28330128 0.003341540666666667 0.16356978833333333
28340132 0.004181863 0.162560617
28350136 0.004939452333333333 0.16163505133333333
28360140 0.005773901666666667 0.16072291633333333
28370144 0.006484605333333333 0.15977625033333334
28380148 0.007224048 0.159062336
28390152 0.008137326666666667 0.158174152
28400156 0.008699065 0.15734982
28410160 0.009316772333333332 0.15658400966666666
28420164 0.010167161666666667 0.15587723266666667
28430168 0.010808265333333336 0.15518715
28440172 0.011380548666666665 0.154560889
28450176 0.012087774 0.15399704366666667
28460180 0.012696670333333333 0.153282886
28470184 0.013349178333333335 0.15275293599999998
28480188 0.013975223666666666 0.15224708633333334
28490192 0.014657615666666665 0.15168225266666666
28500196 0.015186036333333333 0.151268785
28510200 0.015844683333333335 0.15082678733333335
28520204 0.016606238333333332 0.15034378566666665
28530208 0.01713318566666667 0.15004906033333335
28540212 0.017766240333333332 0.14975810033333334
28550216 0.018551808 0.14919194066666666
28560220 0.019125349 0.14907382933333332
28570224 0.019710576333333334 0.14885663
28580228 0.020565755333333335 0.14842749633333333
28590232 0.02119968233333333 0.14826572899999999
28600236 0.021918526666666664 0.14816712333333334
28610240 0.022744830999999997 0.14774646866666666
28620244 0.023317116666666665 0.14757590033333334
28630248 0.024128716333333338 0.14758804933333333
28640252 0.024934713333333334 0.147205025
28650256 0.02576645966666667 0.14706640433333332
28660260 0.026338819333333333 0.1469509403333333
28670264 0.027260058333333333 0.14684822666666666
28680268 0.027900798333333334 0.1465657303333333
28690272 0.028860054333333333 0.14673604566666665
28700276 0.029681116333333337 0.14659919833333332
28710280 0.030301241666666662 0.14628811666666666
28720284 0.031159091666666666 0.14642328533333335
28730288 0.03216622166666667 0.14655244333333334
28740292 0.03298149266666667 0.14626679833333334
28750296 0.033758113666666666 0.14641971399999998
28760300 0.034797987333333336 0.1465089323333333
28770304 0.035583107333333336 0.14626741433333335
28780308 0.03660182766666667 0.146490678
28790312 0.037577422666666666 0.1466359993333333
28800316 0.038345508333333334 0.146479721
28810320 0.039258519666666665 0.14661985666666666
28820324 0.040476106000000005 0.14688951266666664
28830328 0.041247710666666666 0.14670741533333334
28840332 0.04218976566666666 0.146911467
28850336 0.043617329333333336 0.1472099176666667
28860340 0.04444270566666667 0.14720273533333336
28870344 0.04544885966666667 0.14736504866666666
28880348 0.04696512466666666 0.14766637966666665
28890352 0.047871324 0.147811989
28900356 0.048881051333333335 0.1479299416666667
28910360 0.05055278433333333 0.148253431
28920364 0.05163308233333333 0.14848461766666668
28930368 0.05257005233333334 0.14869723199999998
28940372 0.054371538 0.14890971266666667
28950376 0.05571908366666667 0.14921060700000002
28960380 0.05683097866666667 0.14941616333333332
28970384 0.05858568333333333 0.1496447373333333
28980388 0.06013827133333333 0.14993224533333335
28990392 0.06128447 0.15026119866666665
29000396 0.06310255833333334 0.150345643
29010400 0.06492594366666667 0.150609235
29020404 0.06616099199999999 0.15097999066666665
29030408 0.06816631066666667 0.15103142466666666
29040412 0.06998297833333333 0.15114110233333333
29050416 0.07131042333333333 0.15160206466666667
29060420 0.07321048033333333 0.15180889266666667
29070424 0.07537161066666667 0.15168609733333335
29080428 0.076968722 0.15216672933333333
29090432 0.07885998 0.15230548866666668
29100436 0.08116033699999999 0.152160302
29110440 0.08296547833333333 0.15257652600000002
29120444 0.08484253800000001 0.15268432099999998
29130448 0.08726770700000001 0.15238734566666665
29140452 0.08929430466666666 0.15268969066666666
29150456 0.09135762133333332 0.15289035433333334
29160460 0.09372269600000001 0.15268613366666667
29170464 0.09609509000000001 0.152553027
29180468 0.09818544466666668 0.152852416
29190472 0.10076728466666666 0.15222474966666666
29200476 0.103293968 0.15211043266666668
29210480 0.10564183900000002 0.15222910499999998
29220484 0.10812601433333334 0.1518050036666667
29230488 0.11073882666666668 0.15139835066666665
29240492 0.113350811 0.15157342466666668
29250496 0.11592091900000001 0.150942107
29260500 0.11859740299999999 0.15033055333333334
29270504 0.12118343733333332 0.15019718833333331
29280508 0.123975632 0.14997036266666666
29290512 0.12670577033333333 0.14923575033333333
29300516 0.12955007433333335 0.14855279033333332
29310520 0.13239801399999998 0.14802260200000003
29320524 0.13523907466666668 0.14720368366666667
29330528 0.13831894633333333 0.14658699433333333
29340532 0.14129068466666667 0.145789062
29350536 0.14409877366666668 0.14476652933333334
29360540 0.14721043933333333 0.14385143433333333
29370544 0.150351738 0.14290358633333333
29380548 0.15328845866666665 0.14170996866666666
29390552 0.15646439766666667 0.14051618200000002
29400556 0.15949293966666667 0.13913534066666666
29410560 0.162563299 0.13792184
29420564 0.165817668 0.13643523066666666
29430568 0.16881478833333333 0.13486024733333332
29440572 0.1720719483333333 0.13333787
29450576 0.17500888300000003 0.13168203833333333
29460580 0.1781905043333333 0.12988884266666667
29470584 0.18161075766666668 0.12811815733333334
29480588 0.18444106466666665 0.12630662333333334
29490592 0.18752131866666666 0.124226473
29500596 0.19094639533333332 0.12219275033333334
29510600 0.1939038436666667 0.120210131
29520604 0.1969985963333333 0.11798455566666667
29530608 0.20035680599999997 0.11557177933333333
29540612 0.20324415466666668 0.11341536299999999
29550616 0.20635784666666665 0.110960553
29560620 0.20939997833333335 0.10838783033333332
29570624 0.21262604 0.10573871933333334
29580628 0.215537404 0.103298212
29590632 0.2186159143333333 0.100428494
29600636 0.221765101 0.09741338100000001
29610640 0.22489577033333333 0.094754758
29620644 0.227517396 0.09174530466666668
29630648 0.23061776166666667 0.08843680733333333
29640652 0.233493879 0.085399767
29650656 0.23625970366666668 0.08212062466666668
29660660 0.23915189000000003 0.07865848866666668
29670664 0.24203324333333334 0.075104386
29680668 0.244775772 0.07176973666666667
29690672 0.24741176766666664 0.06816200666666668
