# HZ S RI R 50
5250900 -0.6099926433333334 -0.6462092403333334
5260904 -0.6211693286666667 -0.6348366339999999
5270908 -0.6321578423333333 -0.6232057213333334
5280912 -0.642994523 -0.6113975843333334
5290916 -0.6535428763333333 -0.599394103
5300920 -0.6638575396666667 -0.5872028073333334
5310924 -0.6739209493333332 -0.5748702286666667
5320928 -0.6838124789999999 -0.562360088
5330932 -0.693591853 -0.5496790213333334
5340936 -0.7030529773333334 -0.5367049970000001
5350940 -0.7121862769999999 -0.523547431
5360944 -0.7211005486666666 -0.5103869240000001
5370948 -0.7298176486666667 -0.49692153933333333
5380952 -0.7382482293333333 -0.483305931
5390956 -0.7464868626666666 -0.4695409736666667
5400960 -0.7543911336666667 -0.45570452033333336
5410964 -0.7621448436666668 -0.4417191346666667
5420968 -0.769658963 -0.427486877
5430972 -0.7767806646666667 -0.4131569963333333
5440976 -0.7837509713333334 -0.39886867
