# HZ S RI R 50
7001600 0.9058855576666667 -0.36779929199999994
7011604 0.905466815 -0.36903404233333337
7021608 0.9049707453333333 -0.3702221016666667
7031612 0.904370904 -0.371409327
7041616 0.9033611613333333 -0.37250238666666663
7051620 0.903328061 -0.37381516866666664
7061624 0.902630945 -0.3748757243333333
7071628 0.9022550583333334 -0.37624686999999996
7081632 0.901754101 -0.3773449956666666
7091636 0.9011212189999999 -0.37854540366666667
7101640 0.9006033143333333 -0.379750788
7111644 0.9000652233333334 -0.38099499533333336
7121648 0.8996537526666667 -0.3821786346666667
7131652 0.899024248 -0.38346607466666666
7141656 0.8985167343333332 -0.38462975633333335
7151660 0.8980639773333333 -0.38583074
7161664 0.8974367973333335 -0.38704245266666665
7171668 0.8967921336666667 -0.38825651999999994
7181672 0.8963703113333333 -0.38951558866666663
7191676 0.8957587483333334 -0.3905468683333333
7201680 0.895063698 -0.39182627166666667
7211684 0.8947252036666667 -0.39313371966666666
7221688 0.8941931726666668 -0.3942581613333333
7231692 0.893468976 -0.395489037
7241696 0.8928644656666668 -0.396674166
7251700 0.8924747903333333 -0.39791024733333336
7261704 0.8918887576666666 -0.3990604283333334
7271708 0.891234378 -0.40033046433333336
7281712 0.890661021 -0.40160511933333337
7291716 0.8901055856666668 -0.40267757600000004
