# HZ S RI R 50
21007200 0.06781263666666666 -0.9142040413333334
21017204 0.065199169 -0.9146051603333335
21027208 0.062444508333333336 -0.914883852
21037212 0.059541629333333325 -0.9153408803333333
21047216 0.05693184833333333 -0.9156439500000001
21057220 0.054365689333333335 -0.9159804383333334
21067224 0.05157665166666667 -0.9163259266666666
21077228 0.04879130066666667 -0.916662534
21087232 0.046411477 -0.9169309933333333
21097236 0.04358241233333333 -0.9171587226666666
21107240 0.04088131366666667 -0.9174852373333332
21117244 0.03835866466666667 -0.917688588
21127248 0.03576161466666666 -0.9179218410000001
21137252 0.03290769733333333 -0.9180577396666667
21147256 0.030399722666666667 -0.9186091423333332
21157260 0.027923521333333336 -0.9186952509999999
21167264 0.025174549 -0.9187891086666666
21177268 0.022565684333333332 -0.9191072583333334
21187272 0.02001248 -0.9187427563333334
21197276 0.017539581333333335 -0.9195448556666667
21207280 0.014927308333333333 -0.9197442529999998
21217284 0.012424030333333334 -0.9200839596666667
21227288 0.009850501666666666 -0.9201556246666666
21237292 0.007373630333333333 -0.9200415216666666
21247296 0.004574746333333333 -0.920552532
21257300 0.0022914936666666667 -0.920590361
21267304 -0.00034280633333333334 -0.9208106596666666
21277308 -0.002906758666666667 -0.920812885
21287312 -0.005296761 -0.9208038846666667
21297316 -0.007729000666666666 -0.9210359653333334
21307320 -0.010536571333333333 -0.9212573766666666
21317324 -0.012931764 -0.9211874406666666
21327328 -0.015254832000000001 -0.9213379223333334
21337332 -0.017792454333333332 -0.9213544530000001
21347336 -0.020459064333333336 -0.9214123486666667
21357340 -0.022880013 -0.9215459623333334
21367344 -0.02528154 -0.9215804740000001
21377348 -0.027958606 -0.9215289553333332
21387352 -0.030326110666666666 -0.9216284753333334
21397356 -0.032735548 -0.9212108653333333
21407360 -0.035300433666666665 -0.9215835926666668
21417364 -0.03767719 -0.9216611586666666
21427368 -0.040062373000000005 -0.9215217830000001
21437372 -0.042666707000000005 -0.9215397836666667
21447376 -0.044971441333333334 -0.9217104913333335
