# HZ S RI R 50
14004400 0.126221314 -0.9154028893333334
14014404 0.12364324933333333 -0.9144496123333333
14024408 0.12090305966666666 -0.9132684073333334
14034412 0.11811608333333334 -0.9120244583333333
14044416 0.11547983666666667 -0.9106765189999999
14054420 0.11268546466666667 -0.90905418
14064424 0.109971357 -0.9076536693333334
14074428 0.10744747533333333 -0.9058924913333334
14084432 0.10470067733333333 -0.903822919
14094436 0.10197529433333334 -0.901919067
14104440 0.099409707 -0.899775247
14114444 0.09663907199999999 -0.8967333236666667
14124448 0.09452257033333333 -0.894727806
14134452 0.09186835333333333 -0.891650915
14144456 0.090091549 -0.8891868193333333
14154460 0.08798918133333333 -0.8854899206666667
14164464 0.08634248133333333 -0.8826295933333334
14174468 0.08475695533333334 -0.879200558
14184472 0.083445544 -0.874941826
14194476 0.08256639066666666 -0.8714781803333334
14204480 0.08193941199999999 -0.867692113
14214484 0.08185817266666666 -0.86298726
14224488 0.08214917766666667 -0.8593390386666666
14234492 0.08284778866666666 -0.8552691343333333
14244496 0.08415244266666666 -0.8514470263333332
14254500 0.085934679 -0.8472480373333333
14264504 0.08812739966666666 -0.8436872360000001
14274508 0.09086926533333332 -0.84034729
14284512 0.09409980966666666 -0.8374932806666666
14294516 0.09763730300000001 -0.8350987633333333
14304520 0.10148524233333334 -0.8333722153333333
14314524 0.10567279866666666 -0.8322830793333335
14324528 0.109836345 -0.8316044606666667
14334532 0.11403229566666667 -0.8317552606666666
14344536 0.11792046333333334 -0.8321450553333333
