# HZ S RI R 50
3500200 0.9787742696666667 -0.06765582133333332
3510204 0.9786948363333333 -0.06834253166666666
3520208 0.9787944359999999 -0.06925232199999999
3530212 0.9787460166666667 -0.07018877066666666
3540216 0.9787565073333333 -0.071129235
3550220 0.978618344 -0.07199522366666668
3560224 0.978518506 -0.07288459666666666
3570228 0.978515625 -0.07381356033333333
3580232 0.9783484736666667 -0.07450482233333333
3590236 0.9784019389999999 -0.07551883133333333
3600240 0.9785019356666668 -0.07646570633333334
3610244 0.978299717 -0.07719876866666665
3620248 0.9781175653333333 -0.07790967833333333
3630252 0.9781065183333334 -0.078771904
3640256 0.9780376153333333 -0.07969507333333332
3650260 0.977965613 -0.08059889066666666
3660264 0.9778912663333333 -0.08161529633333335
3670268 0.9778238933333334 -0.082313356
3680272 0.9776632193333333 -0.08303544166666665
3690276 0.9775543013333333 -0.08398118866666666
3700280 0.9775869053333334 -0.08480651466666667
3710284 0.9774684506666667 -0.08568066133333334
3720288 0.9774174293333333 -0.08649330100000001
3730292 0.977279981 -0.08734270933333332
3740296 0.9772893186666667 -0.088180671
3750300 0.9773216843333333 -0.08898043633333334
3760304 0.976959646 -0.08991466433333332
3770308 0.9769456786666666 -0.09073047066666666
3780312 0.9768312773333334 -0.09143527833333333
3790316 0.9768172503333332 -0.092383961
3800320 0.9767855403333333 -0.093176683
3810324 0.9766394496666667 -0.09400604666666668
3820328 0.9765584666666666 -0.094833456
3830332 0.9764901 -0.09576799966666666
3840336 0.9767017363333333 -0.09652455900000001
3850340 0.976452867 -0.097229086
3860344 0.9763293466666667 -0.09814516466666667
3870348 0.9764009913333332 -0.09899978833333334
3880352 0.9762821993333333 -0.099829023
3890356 0.9762612383333332 -0.10072020933333332
3900360 0.9759127893333334 -0.101481639
3910364 0.9758271376666667 -0.102168314
3920368 0.9757698576666667 -0.10299362766666668
3930372 0.9756934046666667 -0.10390244933333333
3940376 0.9756577013333333 -0.104881165
3950380 0.9755560556666666 -0.105591779
3960384 0.9753972886666666 -0.10631731633333334
3970388 0.975341598 -0.10710625833333333
3980392 0.9753034313333334 -0.10797371466666666
3990396 0.9752067723333333 -0.10889335
