# HZ S RI R 50
7001600 0.8161376516666667 -0.5066292086666667
7011604 0.8163893623333333 -0.5098115006666667
7021608 0.8163361746666666 -0.5131058096666666
7031612 0.8162447806666666 -0.5164256096666667
7041616 0.8153348166666667 -0.5207196476666667
7051620 0.8147390883333333 -0.5239281853333334
7061624 0.814132651 -0.527114868
7071628 0.8131218553333334 -0.5303524533333334
7081632 0.8121094503333334 -0.533573707
7091636 0.810952028 -0.5364382266666666
7101640 0.809468925 -0.5394405323333333
7111644 0.8080545663333334 -0.5425064963333334
7121648 0.8067671656666667 -0.5453877843333333
7131652 0.8051457403333334 -0.5480522316666666
7141656 0.8034931816666667 -0.5509083866666666
7151660 0.8020282386666667 -0.5534770686666667
7161664 0.8003169893333334 -0.556227386
7171668 0.7984398009999999 -0.5587717293333334
7181672 0.7969054183333334 -0.5616240103333333
7191676 0.795040965 -0.5640848876666666
7201680 0.7931622666666667 -0.5665285590000001
7211684 0.791275243 -0.5691390630000001
7221688 0.7895575166666666 -0.5715693233333333
7231692 0.7876803476666666 -0.57402883
7241696 0.7857301633333332 -0.5764772493333333
7251700 0.783877055 -0.5791184306666667
7261704 0.7819418313333334 -0.5814103283333333
7271708 0.7800117733333334 -0.583774547
7281712 0.7780561446666666 -0.5861938593333333
7291716 0.776121835 -0.5886108280000001
