# HZ S RI R 50
28010000 -0.6162940463333334 -0.672713876
28020004 -0.6184744836666667 -0.6705343526666668
28030008 -0.620600204 -0.6684535146666666
28040012 -0.622913718 -0.666601499
28050016 -0.6248344976666668 -0.664521555
28060020 -0.6273496550000001 -0.6621843973333333
28070024 -0.6295571726666666 -0.6602019863333334
28080028 -0.6313179533333334 -0.6582437753333333
28090032 -0.6334328056666667 -0.6560385623333334
28100036 -0.6358804106666667 -0.6538921593333334
28110040 -0.6379339893333333 -0.651821971
28120044 -0.6400612790000001 -0.6496793033333333
28130048 -0.642187655 -0.6476158103333334
28140052 -0.6440887253333334 -0.6455326873333332
28150056 -0.6462505856666666 -0.6434076426666667
28160060 -0.6483068666666667 -0.6413560906666667
28170064 -0.650210579 -0.6392931540000001
28180068 -0.652131736 -0.6370432376666667
28190072 -0.654224674 -0.6349805793333333
28200076 -0.6560771663333332 -0.6329204836666666
28210080 -0.6580161649999999 -0.6307288606666667
28220084 -0.6601331629999999 -0.6286979713333333
28230088 -0.662016511 -0.6266776123333333
28240092 -0.6638082266666666 -0.6244903406666666
28250096 -0.6658550106666666 -0.6223437589999999
28260100 -0.6676836213333334 -0.6203333536666666
28270104 -0.6696834366666667 -0.6181236306666668
28280108 -0.6715885203333333 -0.6161234576666667
28290112 -0.6733909843333334 -0.6139830350000001
28300116 -0.675121526 -0.611766974
28310120 -0.6770822606666665 -0.6096554593333333
28320124 -0.6788361073333333 -0.6076469026666667
28330128 -0.680575311 -0.6054717106666666
28340132 -0.6824611823333333 -0.6033494073333333
28350136 -0.6842547059999999 -0.6012393036666667
28360140 -0.6858352223333334 -0.599043389
28370144 -0.6875646113333334 -0.5968164803333335
28380148 -0.6895271736666667 -0.5948664743333333
28390152 -0.6911725400000001 -0.5926481883333333
28400156 -0.6928085286666666 -0.590546548
28410160 -0.6945530973333334 -0.5884736973333333
28420164 -0.696314593 -0.586364448
28430168 -0.6978801093333334 -0.584168494
28440172 -0.6997271773333334 -0.5821293396666666
28450176 -0.7013051706666666 -0.5800086656666666
28460180 -0.7029091319999999 -0.5779401063333333
28470184 -0.7045450013333333 -0.5757759610000001
28480188 -0.7062292893333334 -0.5736190083333333
28490192 -0.707765599 -0.5716724196666667
28500196 -0.7091875276666667 -0.5694182516666667
28510200 -0.7107827066666665 -0.5671863156666667
28520204 -0.7125148773333333 -0.5651928983333333
28530208 -0.7139565346666666 -0.5630257129999999
28540212 -0.7155443033333334 -0.5609250266666667
28550216 -0.7171330653333333 -0.558793823
28560220 -0.7185188136666668 -0.55675745
28570224 -0.7201040983333332 -0.5545336403333333
28580228 -0.721740981 -0.5523807406666666
28590232 -0.7231352329999999 -0.5505207576666667
28600236 -0.7247174776666667 -0.5482397673333333
28610240 -0.726211389 -0.5461505853333334
28620244 -0.7276466486666667 -0.543923517
28630248 -0.7291346390000001 -0.5417829753333333
28640252 -0.7306815186666666 -0.5396446783333334
28650256 -0.7321397660000001 -0.5375677743333332
28660260 -0.7334852813333333 -0.5352413056666666
28670264 -0.734867354 -0.5332196753333333
28680268 -0.7362882296666666 -0.5310320856666667
28690272 -0.7377028466666666 -0.5289497176666668
28700276 -0.7391533653333333 -0.5268399120000001
28710280 -0.7405184113333334 -0.5246490239999999
28720284 -0.7419802546666666 -0.5225667159999999
28730288 -0.7432931266666666 -0.52039363
28740292 -0.7447196443333334 -0.5182621276666667
28750296 -0.7461245853333333 -0.5161670246666666
28760300 -0.7474288543333333 -0.5140280126666666
28770304 -0.7488104503333334 -0.5118154286666666
28780308 -0.7500118216666666 -0.5096675156666667
28790312 -0.7514031533333333 -0.5075098476666667
28800316 -0.7527835173333334 -0.5054783423333334
28810320 -0.7538874153333333 -0.5032811363333333
28820324 -0.755314251 -0.5011606813333334
28830328 -0.7565390866666667 -0.499004851
28840332 -0.7578273613333333 -0.4968224463333333
28850336 -0.7591851353333333 -0.49470591566666666
28860340 -0.7603192133333333 -0.4925923546666667
28870344 -0.7614003619999999 -0.49056183299999995
28880348 -0.7628181976666667 -0.4882942936666667
28890352 -0.7639819183333333 -0.4860705733333333
28900356 -0.7653321423333334 -0.4840140343333334
28910360 -0.766459763 -0.48176133633333335
28920364 -0.767576953 -0.47987760099999993
28930368 -0.7687957286666666 -0.4775024456666667
28940372 -0.7699572443333333 -0.47532173000000005
28950376 -0.7711893713333332 -0.4731415606666666
28960380 -0.772396167 -0.4710961283333333
28970384 -0.773552815 -0.46889072666666665
28980388 -0.7746569116666667 -0.46671223666666667
28990392 -0.7758139966666667 -0.464601199
29000396 -0.7769273520000001 -0.46236051133333333
29010400 -0.7782668866666667 -0.460261762
29020404 -0.7792008916666667 -0.45816959966666665
29030408 -0.7803677716666667 -0.4559750556666667
29040412 -0.7814887363333334 -0.45376845166666663
29050416 -0.7825941639999999 -0.45164293066666666
29060420 -0.7837322156666667 -0.4495032030000001
29070424 -0.784746031 -0.44736221433333334
29080428 -0.7858350473333333 -0.44517082
29090432 -0.7868834933333333 -0.44301702566666673
29100436 -0.7879542313333334 -0.44077436166666667
29110440 -0.78907909 -0.4386458793333334
29120444 -0.7901458343333333 -0.4365954696666667
29130448 -0.7910615206666667 -0.434296002
29140452 -0.7921329739999999 -0.43222120433333333
29150456 -0.7932627600000001 -0.43002629266666664
29160460 -0.794289589 -0.42786990599999997
29170464 -0.7951558433333333 -0.42569139599999994
29180468 -0.7962542576666666 -0.42348799133333337
29190472 -0.7971066036666666 -0.4212376076666667
29200476 -0.7982081769999999 -0.4191815753333333
29210480 -0.7992052040000001 -0.41689843900000007
29220484 -0.8001629710000001 -0.414767186
29230488 -0.8010399143333333 -0.412608405
29240492 -0.8020057876666667 -0.41040090700000004
29250496 -0.8029228649999999 -0.4081432323333334
29260500 -0.8039194146666667 -0.4059598146666667
29270504 -0.804510494 -0.40366667533333334
29280508 -0.805784722 -0.4017163913333333
29290512 -0.8066286843333333 -0.39955002100000003
29300516 -0.8076060610000001 -0.3974724213333333
29310520 -0.8084720973333334 -0.39515353233333333
29320524 -0.809333086 -0.3929852843333333
29330528 -0.8101642926666667 -0.390855849
29340532 -0.8111789226666667 -0.3886488476666667
29350536 -0.8120166063333333 -0.38649632533333333
29360540 -0.8129072986666666 -0.384224971
29370544 -0.8136731583333333 -0.38209197933333333
29380548 -0.8145638306666667 -0.37984413866666666
29390552 -0.8155126569999999 -0.37765491
29400556 -0.8163098093333333 -0.375502179
29410560 -0.8170825643333334 -0.373323053
29420564 -0.817946692 -0.371038725
29430568 -0.8187375666666666 -0.368942211
29440572 -0.819556375 -0.36683759099999996
29450576 -0.820368012 -0.36451241366666665
29460580 -0.8211991786666667 -0.362357388
29470584 -0.8219757676666667 -0.36016255599999997
29480588 -0.8228142660000001 -0.35791094100000004
29490592 -0.8234994013333333 -0.35562754666666674
29500596 -0.8243320586666667 -0.3535692293333333
29510600 -0.825102965 -0.35134944333333334
29520604 -0.8257565496666667 -0.34904342866666666
29530608 -0.8265179396666666 -0.34678848599999995
29540612 -0.8271766303333333 -0.3446004489999999
29550616 -0.8279623589999999 -0.34232490266666665
29560620 -0.8285566169999999 -0.34016027033333335
29570624 -0.8294406136666667 -0.3381209273333334
29580628 -0.8301292653333333 -0.33572644
29590632 -0.8308177393333334 -0.33351084599999997
29600636 -0.8315962753333332 -0.3313546676666666
29610640 -0.8321953416666666 -0.32908730700000005
29620644 -0.8329099216666668 -0.32685445733333335
29630648 -0.8335969049999999 -0.32458719599999997
29640652 -0.8341691096666667 -0.32236206566666664
29650656 -0.8348319133333333 -0.31999075400000004
29660660 -0.8356465496666666 -0.31792382366666666
29670664 -0.8362529479999999 -0.315840731
29680668 -0.8367635409999999 -0.3132910033333333
29690672 -0.8374218543333333 -0.3111730316666667
