# HZ S RI R 50
14004400 0.3761139116666667 -0.8878579336666667
14014404 0.3747119606666667 -0.8881918390000001
14024408 0.3732367156666667 -0.8887628716666667
14034412 0.3719335000000001 -0.8894343973333334
14044416 0.37055869900000005 -0.8898175956666666
14054420 0.3690053623333333 -0.8903333346666665
14064424 0.3676476876666666 -0.8910293579999999
14074428 0.366285165 -0.8914075493333332
14084432 0.3647963703333333 -0.8918506103333333
14094436 0.3633423943333334 -0.892528236
14104440 0.362014979 -0.8929226
14114444 0.36020353433333335 -0.8929255406666666
14124448 0.35904184 -0.8937931853333332
14134452 0.35773863366666664 -0.8944170076666667
14144456 0.356479188 -0.89481769
14154460 0.3548351726666667 -0.895185729
14164464 0.35348275300000004 -0.8958866596666667
14174468 0.3520599503333333 -0.8964072866666667
14184472 0.350570818 -0.8967771133333334
14194476 0.3491959173333334 -0.8973826763333334
14204480 0.34785528000000004 -0.8978566326666666
14214484 0.34627967066666665 -0.8982314863333333
14224488 0.3447708986666667 -0.8987297813333334
14234492 0.3433971406666667 -0.8992836473333333
14244496 0.34195943666666667 -0.8996792633333334
14254500 0.34046357833333335 -0.9001307683333334
14264504 0.33893169966666664 -0.9005827306666667
14274508 0.33758388933333333 -0.9011624853333333
14284512 0.336052676 -0.9015979966666666
14294516 0.3346472086666667 -0.902125279
14304520 0.33322568766666666 -0.902514358
14314524 0.331786027 -0.9029484986666666
14324528 0.33017424733333334 -0.9035103916666666
14334532 0.3287929196666666 -0.9040523770000001
14344536 0.32743669533333336 -0.904389481
