# HZ S RI R 50
3000000 0.34355402966666665 -0.02516176466666667
3010004 0.34360732666666666 -0.025603804666666664
3020008 0.3435271483333333 -0.02599338733333333
3030012 0.343500376 -0.026421591666666664
3040016 0.34344794366666664 -0.026850660999999998
3050020 0.34339059366666663 -0.02725728666666667
3060024 0.3433344463333334 -0.02767757
3070028 0.3432727553333333 -0.02809445766666667
3080032 0.34318813666666664 -0.02852655633333333
3090036 0.34314524133333335 -0.028970909666666666
3100040 0.343124886 -0.029388643333333336
3110044 0.34308911366666667 -0.029781265666666668
3120048 0.342998594 -0.03021431033333333
3130052 0.34297417599999996 -0.030635610999999997
3140056 0.342894415 -0.031035332
3150060 0.3428340653333333 -0.031474702
3160064 0.3427760503333333 -0.031888002
3170068 0.34273527066666665 -0.032297717999999996
3180072 0.34268887833333334 -0.032674448333333335
3190076 0.3426380553333333 -0.03310071566666667
3200080 0.34255780766666666 -0.033541462
3210084 0.342509886 -0.033959808333333334
3220088 0.3424480556666667 -0.03436934333333334
3230092 0.34237255666666666 -0.034779997
3240096 0.34234422466666664 -0.03521228333333334
3250100 0.34228389466666664 -0.03560911133333333
3260104 0.342238128 -0.036018438666666666
3270108 0.34220557433333326 -0.036455839999999996
3280112 0.34213430666666667 -0.036861498
3290116 0.342110882 -0.037255579000000004
3300120 0.34203048533333336 -0.037670559
3310124 0.341945827 -0.038094846999999994
3320128 0.3419029416666666 -0.03849797833333333
3330132 0.34186463566666664 -0.038896424
3340136 0.34182383599999994 -0.03927849566666667
3350140 0.34171681633333334 -0.03970503433333333
3360144 0.34165631733333335 -0.04012636
3370148 0.34158648033333333 -0.040523253333333335
3380152 0.3415085176666666 -0.04093509633333334
3390156 0.3414998550000001 -0.04129528266666667
3400160 0.3414447503333333 -0.041713599
3410164 0.3413787883333333 -0.04210462033333334
3420168 0.34132362433333335 -0.04249824666666666
3430172 0.34126882766666666 -0.04290211600000001
3440176 0.34118872899999997 -0.04331251966666667
3450180 0.34115683033333327 -0.043713612000000006
3460184 0.341075083 -0.044123203666666666
3470188 0.34105130066666667 -0.04449978599999999
3480192 0.3409397303333333 -0.044944123333333336
3490196 0.3408940036666667 -0.045326567000000005
3500200 0.3408504923333333 -0.04569942
3510204 0.3407503666666667 -0.04612304766666667
3520208 0.340712567 -0.04652975766666667
3530212 0.34068201966666667 -0.04687947033333334
3540216 0.34059643766666664 -0.047286616000000004
3550220 0.3405038413333334 -0.047692088
3560224 0.3404577473333333 -0.048075764
3570228 0.34043327966666664 -0.04846506566666667
3580232 0.3403853973333333 -0.04884203766666667
3590236 0.3402744629999999 -0.04924860366666667
3600240 0.34020871933333335 -0.049635717
3610244 0.34015118099999997 -0.05001896366666667
3620248 0.34008508933333337 -0.050438116
3630252 0.3400608796666667 -0.050827594
3640256 0.340013047 -0.051198706000000004
3650260 0.33991527533333327 -0.051592745
3660264 0.33987295633333336 -0.052003866333333336
3670268 0.3397982416666667 -0.052382803
3680272 0.33971578866666663 -0.052755783
3690276 0.33963428933333334 -0.05315076333333333
3700280 0.33957700900000004 -0.053539916666666666
3710284 0.33950956633333335 -0.05391543966666667
3720288 0.3394179543333333 -0.05431656266666667
3730292 0.33940510966666665 -0.054734358000000004
3740296 0.3393404386666667 -0.05508426333333333
3750300 0.339244336 -0.055459902
3760304 0.33917989333333337 -0.055871050666666665
3770308 0.33913859733333335 -0.05624980633333334
3780312 0.33904371666666666 -0.05663380166666667
3790316 0.33897314466666667 -0.05703026033333333
3800320 0.33892950433333335 -0.057422425666666665
3810324 0.3388432063333333 -0.05777868133333333
3820328 0.338786711 -0.058179339
3830332 0.3386901713333333 -0.058583013999999996
3840336 0.33867369099999994 -0.058968424666666665
3850340 0.33862076199999996 -0.05933734300000001
3860344 0.33850996699999997 -0.059719590999999995
3870348 0.33845835900000004 -0.060103997666666666
3880352 0.3383975126666667 -0.06048472433333333
3890356 0.33828567466666665 -0.060855468
3900360 0.3382328746666667 -0.06126828
3910364 0.3381869893333333 -0.061635239333333335
3920368 0.3380987246666667 -0.061990451
3930372 0.33799951266666667 -0.06236429233333333
3940376 0.337967793 -0.06277261466666666
3950380 0.3378755546666667 -0.06313305566666666
3960384 0.33782065899999997 -0.06351922433333333
3970388 0.33774398766666663 -0.06389594066666666
3980392 0.3376847903333333 -0.06426088233333334
3990396 0.33761811233333333 -0.064639012
4000400 0.33753546100000004 -0.06501716866666667
4010404 0.33737506466666667 -0.06545322133333333
4020408 0.33742041400000006 -0.06580266366666666
4030412 0.3373528223333333 -0.06619389566666667
4040416 0.337246726 -0.06656759466666667
4050420 0.3372059463333333 -0.066930016
4060424 0.3371714353333333 -0.06732717633333334
4070428 0.33704820266666663 -0.06770857666666667
4080432 0.3370009363333333 -0.06806015966666666
4090436 0.336930086 -0.06842947266666666
4100440 0.3368271686666667 -0.06880642966666667
4110444 0.3367666803333333 -0.06917986533333333
4120448 0.3367239633333334 -0.06955442066666666
4130452 0.3366228043333333 -0.06993004666666668
4140456 0.33656602100000005 -0.07026641033333332
4150460 0.33645718266666663 -0.07065995766666666
4160464 0.3364006976666667 -0.07103979133333334
4170468 0.336323897 -0.071407805
4180472 0.336205423 -0.071783329
4190476 0.3361717956666667 -0.07216108833333333
4200480 0.33610773066666666 -0.07251743966666667
4210484 0.33601951599999996 -0.072883554
4220488 0.335918059 -0.073262046
4230492 0.3358558413333333 -0.07363246633333334
4240496 0.33578483266666664 -0.07399878166666667
4250500 0.3357195556666666 -0.07433513033333333
4260504 0.33564941099999995 -0.07476495466666667
4270508 0.33557588866666666 -0.075072502
4280512 0.3354973593333333 -0.07548108199999999
4290516 0.3354193966666667 -0.075868321
4300520 0.3353543083333333 -0.07620627433333332
4310524 0.335273991 -0.07658936100000001
4320528 0.3351745703333333 -0.07696706533333332
4330532 0.33510246866666665 -0.07730903433333335
4340536 0.335009227 -0.07768940166666667
4350540 0.3349289596666667 -0.07805569466666668
4360544 0.33486322566666665 -0.078435786
4370548 0.3347954256666667 -0.078795972
4380552 0.3347040513333333 -0.07914552833333334
4390556 0.334644397 -0.07953962199999999
4400560 0.334532519 -0.07991043966666667
4410564 0.33448254066666666 -0.08028668666666666
4420568 0.334427744 -0.08063816266666667
4430572 0.3343306976666667 -0.081048568
4440576 0.334231784 -0.081406149
4450580 0.33416982466666667 -0.08176332733333334
4460584 0.3340754506666667 -0.08212513233333334
4470588 0.333942652 -0.08249682933333334
4480592 0.33391493566666663 -0.08289608366666666
4490596 0.33381670733333335 -0.08321570100000002
4500600 0.3337215386666667 -0.08360707266666667
4510604 0.33366824200000006 -0.08399612966666666
4520608 0.3335586386666667 -0.08433101833333334
4530612 0.3334873123333333 -0.084723018
4540616 0.333395183 -0.08511135999999998
4550620 0.3333307403333333 -0.08545697233333334
4560624 0.3332423963333333 -0.08582511566666666
4570628 0.33314283666666666 -0.08619564499999999
4580632 0.333051781 -0.086576186
4590636 0.3330052296666666 -0.08691983166666667
4600640 0.3329170343333333 -0.08730104099999998
4610644 0.3328425586666667 -0.08768116933333332
4620648 0.3327427406666667 -0.08803015200000001
4630652 0.332651506 -0.08839116000000001
4640656 0.33257618533333333 -0.08879277833333334
4650660 0.3325211106666666 -0.08917586
4660664 0.3323964873333333 -0.08949852466666668
4670668 0.3323157133333334 -0.08987805233333333
4680672 0.33224330366666666 -0.09027402600000001
4690676 0.332146734 -0.09065086133333333
4700680 0.33205532033333335 -0.09098077033333334
4710684 0.33193938933333333 -0.09135533366666666
4720688 0.331888457 -0.091725285
4730692 0.33178229133333337 -0.09208501133333334
4740696 0.331679672 -0.09245481333333333
4750700 0.33164832966666663 -0.09284677866666667
4760704 0.3315407336666667 -0.093185261
4770708 0.331406484 -0.09355155866666666
4780712 0.33137431733333333 -0.09396200633333333
4790716 0.33126541 -0.09429192566666666
4800720 0.33114921033333333 -0.09466176233333334
4810724 0.3310864963333333 -0.09504800533333334
4820728 0.3309873343333333 -0.09539993333333334
4830732 0.330884318 -0.09575880799999999
4840736 0.33080941433333333 -0.09612815833333332
4850740 0.3307085336666667 -0.09649782866666666
4860744 0.3306305903333333 -0.09685700133333335
4870748 0.33052227933333334 -0.09722592433333332
4880752 0.33044198133333336 -0.09760020200000001
4890756 0.3303804396666667 -0.09794600566666667
4900760 0.33026276066666665 -0.09830580900000001
4910764 0.33018787699999996 -0.098692089
4920768 0.330098639 -0.09905591600000001
4930772 0.32998452566666664 -0.09938100499999998
4940776 0.3299186723333334 -0.09978822866666666
4950780 0.32981333133333335 -0.10013180199999999
4960784 0.32970470199999996 -0.100491002
4970788 0.3296316166666666 -0.10087298333333333
4980792 0.32953322933333334 -0.10121533266666667
4990796 0.3294631043333333 -0.10158479966666667
5000800 0.32934080600000004 -0.10196875533333333
5010804 0.32924177233333335 -0.10233926533333333
5020808 0.3290892343333333 -0.10273347266666666
5030812 0.32908997933333334 -0.10308829966666666
5040816 0.32897902533333334 -0.10345029066666667
5050820 0.328889688 -0.10381508633333332
5060824 0.32882507666666666 -0.10419480999999998
5070828 0.32869486 -0.10453927766666667
5080832 0.32857810466666665 -0.10492730366666665
5090836 0.32851529133333335 -0.105309305
5100840 0.32840276733333335 -0.10562708733333333
5110844 0.3282849686666667 -0.10600020966666668
5120848 0.32821722833333333 -0.106368902
5130852 0.328137855 -0.10674990733333334
5140856 0.328023364 -0.10710394366666666
5150860 0.32794335466666663 -0.10748131566666667
5160864 0.32782716533333334 -0.10783046233333334
5170868 0.3277273373333333 -0.10819546133333334
5180872 0.32758502166666664 -0.10857208566666665
5190876 0.32754623866666666 -0.10895135499999999
5200880 0.3274421296666667 -0.10931116866666667
5210884 0.327346961 -0.10965100166666668
5220888 0.3272549413333333 -0.11002962533333333
5230892 0.3271746933333333 -0.11037732666666666
5240896 0.3270360726666666 -0.11072702966666666
5250900 0.3269513746666666 -0.11113804066666666
5260904 0.326861769 -0.11150057366666666
5270908 0.3267389436666667 -0.11184900966666667
5280912 0.326637437 -0.11223735666666668
5290916 0.32652989 -0.112612101
5300920 0.32645471866666664 -0.11296702433333335
5310924 0.32632613166666663 -0.11332756533333334
5320928 0.3262330193333333 -0.11370175333333332
5330932 0.326148073 -0.11406712000000001
5340936 0.32605804 -0.114431314
5350940 0.32594388733333335 -0.114829642
5360944 0.3258552453333334 -0.11518368133333334
5370948 0.3257594306666666 -0.115543502
5380952 0.325634688 -0.11593345799999999
5390956 0.325538675 -0.11628378933333333
5400960 0.32545462266666664 -0.116650472
5410964 0.325311472 -0.117026252
5420968 0.32523418499999995 -0.11741565166666668
5430972 0.325149894 -0.11776890133333334
5440976 0.325022171 -0.11814232433333333
5450980 0.32490616033333336 -0.11853118233333333
5460984 0.3248268766666667 -0.11886621000000001
5470988 0.3247118193333334 -0.11923757466666667
5480992 0.3245962956666667 -0.11961926
5490996 0.3245058556666667 -0.119998969
5501000 0.324385335 -0.12033474966666667
5511004 0.32425745300000003 -0.12070561466666667
5521008 0.32414846633333333 -0.12110681599999999
5531012 0.32408386466666667 -0.12145863933333334
5541016 0.323955486 -0.12183968733333334
5551020 0.3238263926666667 -0.12220568700000001
5561024 0.3237459856666667 -0.12258360800000001
5571028 0.32361033566666664 -0.12292643366666667
5581032 0.32350451766666666 -0.12333252766666668
5591036 0.3234083853333333 -0.12373789633333333
5601040 0.3233181236666667 -0.12405409666666667
5611044 0.3232074876666667 -0.12446097299999999
5621048 0.32315244299999996 -0.12485972266666667
5631052 0.3229646183333334 -0.12518472966666666
5641056 0.3228852846666667 -0.1255921276666667
5651060 0.3227570453333333 -0.125984291
5661064 0.3226342 -0.126331955
5671068 0.3225439786666667 -0.126697108
5681072 0.322396328 -0.12708395733333333
5691076 0.322313627 -0.12748198200000002
5701080 0.3221863013333333 -0.127852887
5711084 0.32206348566666665 -0.12821511433333332
5721088 0.321946909 -0.128594483
5731092 0.32185987633333335 -0.12896299366666666
5741096 0.3217146793333333 -0.12934967866666666
5751100 0.32163976633333335 -0.12971774733333333
5761104 0.32152069600000005 -0.130096828
5771108 0.32139199933333334 -0.13049376000000001
5781112 0.32127386333333335 -0.130844429
5791116 0.321166982 -0.13122388699999998
5801120 0.321046829 -0.13160123933333334
5811124 0.32090145333333336 -0.132005786
5821128 0.320793301 -0.13237452
5831132 0.320699056 -0.13272807
5841136 0.320558101 -0.13312300566666668
5851140 0.3204179603333333 -0.13352605166666665
5861144 0.32034796466666665 -0.133936902
5871148 0.3202304836666667 -0.134286051
5881152 0.320104867 -0.13466753066666667
5891156 0.3200019 -0.13506692166666665
5901160 0.31983439099999994 -0.13543072366666667
5911164 0.31969052533333336 -0.13580249266666666
5921168 0.31959914166666664 -0.13620231566666666
5931172 0.31949676099999996 -0.13656417033333335
5941176 0.31934630866666663 -0.13695654766666665
5951180 0.3192284703333333 -0.137361278
5961184 0.3191106816666667 -0.13775040666666669
5971188 0.31905061 -0.13811113466666666
5981192 0.318856607 -0.13850056133333333
5991196 0.318768253 -0.13889065366666667
6001200 0.318639189 -0.13922035200000002
6011204 0.318474263 -0.13962026933333335
6021208 0.318431298 -0.14004292566666665
6031212 0.31814744066666667 -0.14032676833333332
6041216 0.31812817833333334 -0.140740613
6051220 0.31802367200000003 -0.14111130466666666
6061224 0.317875435 -0.14150042833333332
6071228 0.31774601366666666 -0.14189678433333333
6081232 0.31762145933333336 -0.14227997266666667
6091236 0.3175341286666667 -0.14265102633333335
6101240 0.3173586626666667 -0.14306169733333332
6111244 0.3172302243333333 -0.14344350533333333
6121248 0.31712730733333333 -0.143849716
6131252 0.3169700306666667 -0.14423455799999998
6141256 0.3168537316666667 -0.14464390766666665
6151260 0.31673043966666664 -0.145026654
6161264 0.31658059366666663 -0.14542688933333334
6171268 0.3164029516666667 -0.14580071466666666
6181272 0.3162980673333333 -0.146212359
6191276 0.31617860999999997 -0.14661467066666664
6201280 0.31604529400000003 -0.14698733366666666
6211284 0.315915664 -0.14741716266666668
6221288 0.31578622266666667 -0.147768602
6231292 0.315628767 -0.14816755066666668
6241296 0.315484524 -0.14857558399999998
6251300 0.315384994 -0.14899084966666667
6261304 0.31524750566666665 -0.14938207966666664
6271308 0.31510335233333336 -0.14976793
6281312 0.31495440999999996 -0.15019520633333333
6291316 0.3148262996666667 -0.15058994766666667
6301320 0.31468826533333333 -0.150953432
6311324 0.3145473996666666 -0.15137339133333336
6321328 0.314447055 -0.15176842599999998
6331332 0.314276089 -0.15213227766666668
6341336 0.314145764 -0.15257935233333333
6351340 0.3139571943333333 -0.15295904866666665
6361344 0.31387616199999996 -0.153362607
6371348 0.3136929273333333 -0.15377218033333334
6381352 0.3135688406666667 -0.154174303
6391356 0.313438187 -0.15456074966666666
6401360 0.3132878043333333 -0.15499999099999998
6411364 0.31317945333333336 -0.15538528566666665
6421368 0.31302139133333334 -0.15577965966666665
6431372 0.312858482 -0.15617925900000001
6441376 0.312717954 -0.15661599233333334
6451380 0.31258664500000005 -0.15700214099999998
6461384 0.3124539853333333 -0.15738231933333333
6471388 0.3122966883333333 -0.157814875
6481392 0.31218119466666666 -0.15821608899999998
6491396 0.312032958 -0.15860310166666666
6501400 0.31184741833333335 -0.15900769833333334
6511404 0.31171996399999996 -0.159417858
6521408 0.31159833033333334 -0.159820204
6531412 0.31142489100000004 -0.16026518766666664
6541416 0.31128718466666666 -0.16066656999999998
6551420 0.31112804033333336 -0.161031301
6561424 0.31099085033333335 -0.16148014366666666
6571428 0.3108164173333334 -0.161886548
6581432 0.310684939 -0.16231514533333333
6591436 0.310541302 -0.16272652633333332
6601440 0.31037069366666664 -0.16312150666666667
6611444 0.3102263313333333 -0.16357497366666665
6621448 0.31003542766666664 -0.163960934
6631452 0.30990305533333334 -0.16436651866666668
6641456 0.3097466526666667 -0.16480720566666665
6651460 0.30958927666666664 -0.16521722566666666
6661464 0.30945102399999996 -0.16563912233333336
6671468 0.3092379573333333 -0.166041886
6681472 0.30914514233333334 -0.16649500033333334
6691476 0.30897888533333334 -0.16688900699999998
6701480 0.30883495 -0.167302355
6711484 0.30867455433333335 -0.16775176933333333
6721488 0.3085214196666667 -0.16816792400000002
6731492 0.308339874 -0.16857565433333335
6741496 0.308182468 -0.16902322066666667
6751500 0.3080163796666667 -0.16942278033333333
6761504 0.3078437843333333 -0.16986012933333336
6771508 0.30769157399999997 -0.170294598
6781512 0.30755220833333335 -0.170731127
6791516 0.3073857526666666 -0.17115969433333333
6801520 0.307221532 -0.17158786466666665
6811524 0.3070254823333333 -0.17200313466666664
6821528 0.30686503633333334 -0.17245148133333332
6831532 0.3066948156666667 -0.17287247866666666
6841536 0.30650499466666664 -0.17331554466666668
6851540 0.306415369 -0.17375728499999998
6861544 0.30616624166666667 -0.1741909633333333
6871548 0.3060318033333333 -0.17461105700000001
6881552 0.3058331113333333 -0.17508607099999998
6891556 0.3056632973333333 -0.175521468
6901560 0.30548930166666666 -0.17596202566666666
6911564 0.305324425 -0.176433727
6921568 0.30515189 -0.17686156933333333
6931572 0.30494457466666663 -0.17729713533333333
6941576 0.304827273 -0.17778940966666668
6951580 0.3046171166666667 -0.17821851866666663
6961584 0.30443895833333334 -0.17866891133333332
6971588 0.30426230033333335 -0.17912674966666664
6981592 0.30408193666666666 -0.17958224833333333
6991596 0.30385408766666666 -0.1800175953333333
7001600 0.30369383133333333 -0.18048212933333332
7011604 0.3035340306666667 -0.18097394200000003
7021608 0.3033793766666667 -0.18142264066666666
7031612 0.30310708266666664 -0.181855157
7041616 0.3027992543333334 -0.182314475
7051620 0.30278830733333334 -0.182785789
7061624 0.30260133766666664 -0.183233882
7071628 0.30244933566666665 -0.183724925
7081632 0.30226374666666667 -0.184206858
7091636 0.3020436366666667 -0.18466498966666667
7101640 0.3018979726666667 -0.18514426533333336
7111644 0.30168064466666666 -0.18558514133333334
7121648 0.301499605 -0.18610920500000003
7131652 0.3013312023333334 -0.18656309933333334
7141656 0.3011490703333333 -0.18701662133333333
7151660 0.3008707663333334 -0.18750853833333334
7161664 0.300694684 -0.1879969486666667
7171668 0.30051272133333334 -0.18843446666666666
7181672 0.3003066973333333 -0.18892224133333332
7191676 0.300079942 -0.18940662833333333
7201680 0.2998817166666667 -0.18988209
7211684 0.299706608 -0.1903574663333333
7221688 0.29946501033333334 -0.1908636543333333
7231692 0.29931255199999995 -0.19134921333333332
7241696 0.299105217 -0.19180270533333332
7251700 0.29885907966666664 -0.19229536766666666
7261704 0.29865942399999995 -0.192814077
7271708 0.298450172 -0.19325594599999998
7281712 0.298230787 -0.19378252333333332
7291716 0.29804379733333336 -0.19427398333333334
7301720 0.29783264833333334 -0.19476507633333331
7311724 0.29757001033333336 -0.19525756433333333
7321728 0.29741308099999997 -0.19578032666666667
7331732 0.29716513566666664 -0.19625122833333333
7341736 0.2969201106666667 -0.19675164933333333
7351740 0.29672619699999997 -0.1972853343333333
7361744 0.29650822266666665 -0.19774012266666666
7371748 0.2962737576666667 -0.19827638566666664
7381752 0.29606527099999996 -0.19880831733333335
7391756 0.295847843 -0.19928077866666669
7401760 0.29558994366666663 -0.19985328133333335
7411764 0.2953795493333333 -0.20034279433333335
