# HZ S RI R 50
3500200 0.9508574806666666 0.19827805966666667
3510204 0.9513048729999999 0.1968478513333333
3520208 0.9516842563333333 0.195387741
3530212 0.9522641100000001 0.19369837166666667
3540216 0.9526021876666667 0.19203035033333335
3550220 0.9529417953333333 0.1905079683333333
3560224 0.9534077046666667 0.18881906566666665
3570228 0.953719596 0.18749289233333333
3580232 0.954015414 0.18595159033333333
3590236 0.9544969396666666 0.18436967333333332
3600240 0.9550206063333334 0.18281260633333332
3610244 0.9553216693333333 0.181255713
3620248 0.9555102586666666 0.17985671766666667
3630252 0.9557846583333333 0.178336983
3640256 0.9562537670000001 0.17669491466666665
3650260 0.9566117326666665 0.17519206833333334
3660264 0.9570163093333334 0.1735919863333333
3670268 0.9572292963333333 0.1720525076666667
3680272 0.9573683539999999 0.17069499700000001
3690276 0.9578084746666667 0.169171696
3700280 0.9582947493333333 0.16772519066666666
3710284 0.958436549 0.16627263033333334
3720288 0.9587486586666666 0.164649402
3730292 0.95899415 0.163119182
3740296 0.9594457546666666 0.161786616
3750300 0.9596655369999999 0.16036099666666667
3760304 0.960033099 0.15875459233333333
3770308 0.960415582 0.15718940866666667
3780312 0.9606795903333333 0.15596482166666667
3790316 0.9608226616666666 0.154354468
3800320 0.9612197080000001 0.15278543033333333
3810324 0.9615448710000001 0.151488796
3820328 0.9617810250000001 0.15016197666666667
3830332 0.962127785 0.14854905466666668
3840336 0.9626282453333332 0.147189607
3850340 0.962771992 0.14586645366666665
3860344 0.9629389843333334 0.144413958
3870348 0.9633676806666668 0.14289981166666665
3880352 0.96376731 0.14153172533333336
3890356 0.963863214 0.14011144666666667
3900360 0.9640236893333333 0.13870288900000002
3910364 0.9644352993333333 0.13730308433333335
3920368 0.9647533300000001 0.13600552066666668
3930372 0.9648680886666666 0.13449431466666667
3940376 0.9651219846666667 0.133023098
3950380 0.965334137 0.13166297466666665
3960384 0.9656250476666667 0.13029710966666666
3970388 0.9657699863333334 0.12898427266666665
3980392 0.9659008980000001 0.127599622
3990396 0.9662496846666665 0.12617254233333333
