# HZ S RI R 50
28010000 -0.7327451706666667 0.266612053
28020004 -0.7309595346666667 0.26965945933333335
28030008 -0.7293249169999999 0.27283663533333335
28040012 -0.7276891866666667 0.2758636076666667
28050016 -0.725936711 0.278920164
28060020 -0.7241527436666666 0.2821227313333334
28070024 -0.7225049933333333 0.28514547166666665
28080028 -0.7207039796666667 0.28821966033333335
28090032 -0.7190505066666666 0.2913057506666667
28100036 -0.7172622083333332 0.29434923366666665
28110040 -0.7154000796666667 0.29756859966666666
28120044 -0.7136696376666668 0.30049996566666665
28130048 -0.7119790313333333 0.303659191
28140052 -0.709897697 0.30661202466666665
28150056 -0.708177189 0.3096604646666667
28160060 -0.7063260676666667 0.31271256999999997
28170064 -0.7043922343333332 0.3156160713333333
28180068 -0.702499807 0.31871910900000006
28190072 -0.7006575863333334 0.321774105
28200076 -0.6985383233333332 0.32466037066666664
28210080 -0.6965182026666668 0.32767285900000004
28220084 -0.6947882973333334 0.3307901223333333
28230088 -0.6927306253333333 0.33370553466666664
28240092 -0.690700392 0.3367225526666667
28250096 -0.6886431970000001 0.33977051566666666
28260100 -0.685902536 0.34317374233333336
28270104 -0.6840655606666667 0.3461807273333333
28280108 -0.682063242 0.3491232593333333
28290112 -0.6800148886666667 0.35224317499999996
28300116 -0.6779566806666667 0.3552295863333333
28310120 -0.6760401526666667 0.35814015066666666
28320124 -0.6738140983333333 0.36098662000000004
28330128 -0.6717116436666667 0.3640477163333333
28340132 -0.6697179076666666 0.366919488
28350136 -0.6676740646666666 0.36980971700000004
28360140 -0.6651154956666666 0.372491419
28370144 -0.6631950343333334 0.37547705600000003
28380148 -0.66108346 0.37829032533333334
28390152 -0.658800642 0.3811427056666667
28400156 -0.6566156943333334 0.38403406733333334
28410160 -0.6543411016666667 0.3867531716666666
28420164 -0.6519870163333333 0.3896466493333333
28430168 -0.6498927473333334 0.39264421666666666
28440172 -0.6474436916666667 0.395242393
28450176 -0.6451129116666666 0.39818804466666674
28460180 -0.6427424946666667 0.4010975460000001
28470184 -0.6404092313333333 0.4038550456666667
28480188 -0.637951394 0.4065648416666667
28490192 -0.635436952 0.4094064436666667
28500196 -0.6331262590000001 0.412210276
28510200 -0.630687833 0.41491962466666665
28520204 -0.6281436486666667 0.41778878366666666
28530208 -0.625840485 0.4206011596666666
28540212 -0.622965455 0.4234101573333333
28550216 -0.6206976373333334 0.42602394000000005
28560220 -0.6182356476666667 0.42884675666666666
28570224 -0.6157549019999999 0.4314311343333334
28580228 -0.6132268506666666 0.4341398476666667
28590232 -0.610576729 0.43694131599999997
28600236 -0.6079918943333333 0.43948043366666667
28610240 -0.6054311196666666 0.4421562353333333
28620244 -0.6027728123333334 0.4449438053333333
28630248 -0.6000923316666666 0.44743069
28640252 -0.5974678196666666 0.450093627
28650256 -0.5948609309999999 0.452918331
28660260 -0.5922123389999999 0.4553784926666667
28670264 -0.589470943 0.45795404900000003
28680268 -0.586815218 0.4607084293333333
28690272 -0.584111293 0.4632724126666667
28700276 -0.5813426973333333 0.465766082
28710280 -0.5786809323333334 0.46844564866666666
28720284 -0.575800379 0.4709499476666667
28730288 -0.5731027523333333 0.473562777
28740292 -0.5702877443333333 0.4760315123333334
28750296 -0.5673356653333333 0.47852390000000006
28760300 -0.564497888 0.4810755846666666
28770304 -0.5618187586666666 0.483603229
28780308 -0.558946391 0.48599797466666667
28790312 -0.556045115 0.488572349
28800316 -0.5532643993333334 0.491100232
28810320 -0.5503492753333333 0.4934018156666667
28820324 -0.5474154156666667 0.4958908956666666
28830328 -0.5445241333333334 0.4982771476666666
28840332 -0.5416401426666667 0.5006501673333333
28850336 -0.5386258166666668 0.5030466513333333
28860340 -0.5355857413333333 0.5053055089999999
28870344 -0.532828152 0.5078537659999999
28880348 -0.5299374856666667 0.5097865463333333
28890352 -0.526706795 0.5124554236666666
28900356 -0.5237997376666667 0.5146591466666667
28910360 -0.5204431613333332 0.517056048
28920364 -0.5176460543333333 0.519374311
28930368 -0.5146962006666667 0.5216610629999999
28940372 -0.5111132266666666 0.5238796073333333
28950376 -0.5085575383333333 0.5262174806666666
28960380 -0.5052805143333333 0.5286550126666666
28970384 -0.5020700296666666 0.5307402410000001
28980388 -0.49897974733333333 0.5331245066666667
28990392 -0.4959209263333333 0.5353566406666667
29000396 -0.4927340646666667 0.5374022326666666
29010400 -0.489491284 0.5396764476666666
29020404 -0.486397038 0.5419099923333334
29030408 -0.48320917299999994 0.5438961783333333
29040412 -0.4799173176666667 0.545933366
29050416 -0.4768069586666666 0.548230509
29060420 -0.4735932153333333 0.5501977006666666
29070424 -0.4701643386666667 0.552292347
29080428 -0.4669931033333334 0.5545061426666666
29090432 -0.463797788 0.556476116
29100436 -0.46031569433333336 0.558496972
29110440 -0.45704931 0.5606751636666667
29120444 -0.453791241 0.5625453793333334
29130448 -0.4503071406666666 0.5645251276666667
29140452 -0.44704272333333334 0.5666551986666667
29150456 -0.44369846566666665 0.5685193540000001
29160460 -0.440199534 0.5704620283333334
29170464 -0.4368205566666667 0.5723800263333333
29180468 -0.4334461586666667 0.5743068656666668
29190472 -0.429974814 0.5761109590000001
29200476 -0.42647502833333334 0.578080654
29210480 -0.423150301 0.5799762803333334
29220484 -0.41965404133333334 0.5817297296666667
29230488 -0.41607073933333333 0.5835688706666667
29240492 -0.412684341 0.5855163136666667
29250496 -0.40915350100000003 0.5871572296666666
29260500 -0.40549525633333333 0.5888905126666667
29270504 -0.4008930226666667 0.5907610453333334
29280508 -0.39771459500000006 0.5929062366666666
29290512 -0.39421142133333337 0.5945873656666668
29300516 -0.39063332500000003 0.596287906
29310520 -0.38712135966666666 0.5980008046666666
29320524 -0.38355057433333334 0.599588275
29330528 -0.38001639633333334 0.6009946466666666
29340532 -0.37655594966666667 0.6028254826666667
29350536 -0.37299090633333326 0.6043899656666666
29360540 -0.3694059946666666 0.6059755086666667
29370544 -0.365715057 0.6075118186666667
29380548 -0.36208654466666673 0.609143714
29390552 -0.35830543433333334 0.6105851926666667
29400556 -0.35485436533333337 0.612601658
29410560 -0.3511830466666666 0.6140354873333334
29420564 -0.34745110100000004 0.6154713829999999
29430568 -0.3436661263333334 0.6170462766666667
29440572 -0.33992327233333325 0.6185376643333332
29450576 -0.33625625566666667 0.619937082
29460580 -0.3324005603333333 0.621333162
29470584 -0.3287106356666667 0.6227678459999999
29480588 -0.32495998333333337 0.62411805
29490592 -0.321076135 0.6254666246666667
29500596 -0.3171701333333334 0.626700878
29510600 -0.313583126 0.6281599206666666
29520604 -0.30941985033333336 0.629167974
29530608 -0.3057432276666667 0.6306692956666665
29540612 -0.3019802073333333 0.6318689386666667
29550616 -0.29806600999999994 0.633114576
29560620 -0.2941423456666667 0.6343161863333334
29570624 -0.2903820773333334 0.6356063286666666
29580628 -0.2864589493333333 0.636772116
29590632 -0.282461256 0.6378213759999999
29600636 -0.2785884836666667 0.6391646663333334
29610640 -0.2746980783333333 0.6401313936666666
29620644 -0.27072983966666664 0.6412329076666666
29630648 -0.26684686566666665 0.642311295
29640652 -0.262888104 0.6432535646666667
29650656 -0.25902882233333335 0.6444120606666667
29660660 -0.2551136313333333 0.6454021136666667
29670664 -0.251279086 0.646380007
29680668 -0.24730763333333336 0.6473944586666667
29690672 -0.2434342256666667 0.6483927366666666
