# HZ S RI R 50
14004400 -0.09891081866666666 -0.9166706403333333
14014404 -0.10136418800000001 -0.916285594
14024408 -0.10380808266666668 -0.9158435859999999
14034412 -0.10611803333333335 -0.9152272146666666
14044416 -0.10860903533333333 -0.914507568
14054420 -0.11107407266666668 -0.9141616423333333
14064424 -0.11347894133333332 -0.9135419726666667
14074428 -0.11594246833333333 -0.9129901926666667
14084432 -0.11835155400000001 -0.9124777119999999
14094436 -0.12078421066666667 -0.91180557
14104440 -0.12318019833333332 -0.9111931523333333
14114444 -0.12566082666666667 -0.909972608
14124448 -0.12836819866666668 -0.9097257453333333
14134452 -0.13081839166666667 -0.909194688
14144456 -0.13336730500000002 -0.908484022
14154460 -0.13584808 -0.9078582523333334
14164464 -0.13823970133333333 -0.907105903
14174468 -0.14078676199999998 -0.9064122439999999
14184472 -0.14330910133333333 -0.9058795176666666
14194476 -0.14573099199999998 -0.9052510260000001
14204480 -0.148220509 -0.9044775566666666
14214484 -0.15074374766666668 -0.9038154879999999
14224488 -0.15316191333333332 -0.9031356376666667
14234492 -0.15565334733333333 -0.9022684693333334
14244496 -0.158312733 -0.9017966983333333
14254500 -0.1606872726666667 -0.9010168909999999
14264504 -0.16317303966666666 -0.9003296496666667
14274508 -0.165675779 -0.899536888
14284512 -0.16821741566666668 -0.8988305926666668
14294516 -0.17068469533333333 -0.8980205853333333
14304520 -0.17330081233333336 -0.8972532746666667
14314524 -0.17580708833333336 -0.8965243099999999
14324528 -0.1783166873333333 -0.8957247736666667
14334532 -0.18077175833333334 -0.8948327703333333
14344536 -0.18305047366666669 -0.893669526
