# HZ S RI R 50
7001600 0.908182462 -0.358214438
7011604 0.9076572853333333 -0.3597367306666667
7021608 0.9070098 -0.36133422433333334
7031612 0.9063554206666667 -0.362683187
7041616 0.9051624933333334 -0.36404559966666666
7051620 0.9053549966666666 -0.3655938703333333
7061624 0.9047047096666666 -0.36708768233333333
7071628 0.9042487343333333 -0.368583868
7081632 0.9036415616666668 -0.370023797
7091636 0.9029156963333334 -0.3713372846666667
7101640 0.9022354286666667 -0.37302519866666667
7111644 0.9016002416666667 -0.37450044366666674
7121648 0.9010241033333334 -0.375893533
7131652 0.9004931846666667 -0.3773637513333334
7141656 0.8997400203333333 -0.3788134556666667
7151660 0.8990794220000001 -0.38015892133333334
7161664 0.898525695 -0.3816894593333333
7171668 0.8978273866666667 -0.38311065233333336
7181672 0.8971564766666665 -0.3846490386666666
7191676 0.8967950343333334 -0.3861036793333333
7201680 0.895884236 -0.3874838056666667
7211684 0.8952874340000001 -0.38904224833333334
7221688 0.8946746786666666 -0.39041736699999996
7231692 0.8939960006666666 -0.3918442823333333
7241696 0.893185119 -0.393156399
7251700 0.8927119373333333 -0.394823899
7261704 0.8919263483333334 -0.3960639633333333
7271708 0.8912256163333333 -0.397641033
7281712 0.8906238673333333 -0.399097234
7291716 0.890005092 -0.4004906613333333
