# HZ S RI R 50
21007200 0.3902940746666667 -0.7661078373333333
21017204 0.38702282299999996 -0.7684315443333333
21027208 0.3837394216666667 -0.7707467873333335
21037212 0.38053636766666665 -0.7729364036666667
21047216 0.3772965769999999 -0.775051574
21057220 0.373962651 -0.7771228553333334
21067224 0.37068783266666666 -0.7793609103333333
21077228 0.36733206133333335 -0.781455994
21087232 0.364074131 -0.7835452753333333
21097236 0.3608862956666667 -0.7857625883333332
21107240 0.3573192456666667 -0.787145555
21117244 0.35399933666666666 -0.7891338666666666
21127248 0.35112858799999996 -0.7914653420000001
21137252 0.3479808766666667 -0.7933454913333334
21147256 0.3447746136666667 -0.7951775986666667
21157260 0.34144844599999996 -0.7968773046666667
21167264 0.3386138083333334 -0.798849523
21177268 0.33534127466666663 -0.8007207510000001
21187272 0.3342568576666667 -0.8004930416666666
21197276 0.33136371766666667 -0.8029347059999999
21207280 0.32729276 -0.805544734
21217284 0.323961099 -0.8073068856666666
21227288 0.3206900953333333 -0.8091323376666667
21237292 0.3173970876666667 -0.8108448586666667
21247296 0.314210415 -0.8126196466666666
21257300 0.3109532396666666 -0.8143386046666666
21267304 0.307545016 -0.815906326
21277308 0.3042586643333333 -0.8174942136666666
21287312 0.30107503133333335 -0.819364786
21297316 0.29784310866666663 -0.8212598763333333
21307320 0.2944493293333333 -0.82272021
21317324 0.2911289833333333 -0.8243148923333333
21327328 0.287826101 -0.8259605566666667
21337332 0.2845297256666667 -0.8274969853333333
21347336 0.2811515133333333 -0.8290453153333334
21357340 0.2778674463333333 -0.8307041126666667
21367344 0.27458540600000003 -0.8321415186666666
21377348 0.270908425 -0.8333792686666666
21387352 0.26758233699999995 -0.8349630236666666
21397356 0.264183819 -0.8363729713333333
21407360 0.26065171733333337 -0.8379381499999999
21417364 0.2572294273333333 -0.8392844003333334
21427368 0.25390072666666663 -0.8405961196666668
21437372 0.25041207666666665 -0.8420061266666666
21447376 0.24713324 -0.8435434699999999
