# HZ S RI R 50
21007200 0.06352573866666666 -0.9174676536666667
21017204 0.06087757766666666 -0.9177018603333332
21027208 0.058202170000000004 -0.918055296
21037212 0.05553395433333333 -0.9184687733333332
21047216 0.052970377333333325 -0.9187756776666666
21057220 0.05031618233333333 -0.9188788929999999
21067224 0.047571144 -0.9192382296666667
21077228 0.04505211 -0.9195864596666666
21087232 0.04254992533333333 -0.9197673399999999
21097236 0.039794911999999995 -0.9200603959999999
21107240 0.03712104866666667 -0.9203813873333333
21117244 0.034705963 -0.9205782016666667
21127248 0.03214116166666667 -0.9208822846666666
21137252 0.029438274 -0.9209673206666666
21147256 0.026950801333333333 -0.9211767316666667
21157260 0.024427326 -0.9214221440000001
21167264 0.021802195 -0.921559473
21177268 0.019343155 -0.921808362
21187272 0.01669388133333333 -0.9215595126666667
21197276 0.014389747999999999 -0.9221828976666666
21207280 0.011793431666666666 -0.9223196703333333
21217284 0.009276249666666667 -0.922655364
21227288 0.006775533 -0.9226181903333334
21237292 0.004207606 -0.9228923720000001
21247296 0.0018022866666666667 -0.9230529466666667
21257300 -0.0005874506666666666 -0.9230782190000001
21267304 -0.0031945140000000003 -0.9231126903333333
21277308 -0.00572093 -0.9232807553333333
21287312 -0.008199592333333333 -0.9231475590000001
21297316 -0.010614467666666667 -0.923490703
21307320 -0.013092206666666667 -0.9234240453333333
21317324 -0.015480705333333332 -0.9236254293333334
21327328 -0.018083844333333335 -0.9235589303333333
21337332 -0.02052119666666667 -0.923773209
21347336 -0.022944935666666666 -0.923763116
21357340 -0.025349494 -0.9236716033333333
21367344 -0.027815246999999998 -0.9237517913333333
21377348 -0.030272433333333335 -0.9237383803333333
21387352 -0.03269748733333333 -0.9237816133333334
21397356 -0.035201221666666664 -0.9235500493333334
21407360 -0.037544602 -0.9239606463333333
21417364 -0.039826448666666674 -0.923865378
21427368 -0.042341425999999995 -0.923913479
21437372 -0.04469863833333334 -0.9237107436666667
21447376 -0.047013459333333334 -0.9235631426666666
