# HZ S RI R 50
7001600 0.9070687093333333 -0.3670325776666667
7011604 0.9064741733333334 -0.3681689996666666
7021608 0.9060881336666666 -0.369469941
7031612 0.9055107833333333 -0.37058228233333335
7041616 0.9042129119999999 -0.37154945733333333
7051620 0.904120664 -0.37294726566666664
7061624 0.9036913116666666 -0.3741766016666667
7071628 0.903091113 -0.37523573633333335
7081632 0.9025072256666666 -0.3764895396666667
7091636 0.9020455479999999 -0.3778300783333333
7101640 0.9015787840000001 -0.37896041066666664
7111644 0.9009919563333333 -0.3801374833333333
7121648 0.9003964263333334 -0.3813082079999999
7131652 0.8999190726666666 -0.38250360866666666
7141656 0.8992508053333332 -0.38374939566666666
7151660 0.8987931016666666 -0.385037015
7161664 0.8981993396666667 -0.38623350866666667
7171668 0.8977947430000001 -0.38737136133333333
7181672 0.897155007 -0.388567398
7191676 0.896530827 -0.389939616
7201680 0.8960963883333332 -0.3910986383333333
7211684 0.8954283596666667 -0.3922599853333333
7221688 0.8947761253333333 -0.39345972733333334
7231692 0.894283056 -0.3947576483333333
7241696 0.893704971 -0.395879845
7251700 0.8930090666666667 -0.39708119633333333
7261704 0.8923584223333334 -0.398339083
7271708 0.8919090829999999 -0.3995893893333333
7281712 0.8912452060000001 -0.4008722306666667
7291716 0.8906077940000001 -0.402079314
