# HZ S RI R 50
3500200 0.9783436656666668 0.05027082066666667
3510204 0.9784693323333333 0.04924405233333334
3520208 0.978767216 0.048258701999999994
3530212 0.9788629013333333 0.04735032966666667
3540216 0.9788568416666665 0.04623667133333333
3550220 0.9789763690000001 0.04510607566666666
3560224 0.979109029 0.044164335
3570228 0.9790326753333334 0.043234250333333335
3580232 0.979124904 0.04224578066666667
3590236 0.9793195923333333 0.041333297666666664
3600240 0.9793581366666667 0.040353161666666665
3610244 0.9792515636666668 0.039355605
3620248 0.979352772 0.03841813533333333
3630252 0.979399125 0.03758578866666667
3640256 0.9795506593333333 0.036493596999999996
3650260 0.979606231 0.03551360966666667
3660264 0.979653438 0.034466171
3670268 0.97958531 0.03359486033333333
3680272 0.9796205756666666 0.03262542933333333
3690276 0.979714612 0.03174890933333333
3700280 0.9795815546666665 0.030777157
3710284 0.97977078 0.029679546
3720288 0.9797593356666666 0.02883000466666667
3730292 0.9798104363333332 0.027992498
3740296 0.9797498783333333 0.027053023333333332
3750300 0.980075141 0.026111641666666668
3760304 0.9800254703333332 0.025176838000000003
3770308 0.9798745313333334 0.024193246666666668
3780312 0.9798785250000001 0.023355330666666663
3790316 0.9799585936666667 0.022416515333333335
3800320 0.979984264 0.021572838666666667
3810324 0.980130692 0.020460946666666667
3820328 0.980139236 0.019543676333333333
3830332 0.9802997706666666 0.018733297
3840336 0.9803804556666668 0.017792179666666668
3850340 0.980487744 0.01697649866666667
3860344 0.9805327056666666 0.016060393
3870348 0.9806109663333333 0.015193877333333335
3880352 0.980581681 0.014223191000000001
3890356 0.9806746643333333 0.013334429
3900360 0.9803889793333332 0.012470874
3910364 0.9805238446666666 0.011596320666666667
3920368 0.980641663 0.010732523666666667
3930372 0.9806332590000001 0.009882013
3940376 0.980609973 0.008905128666666666
3950380 0.9805099166666666 0.007945633666666667
3960384 0.980635683 0.007214132666666667
3970388 0.9804840483333334 0.006391658666666667
3980392 0.9804980953333334 0.005407320333333333
3990396 0.9806522329999999 0.004525896666666667
