# HZ S RI R 50
14004400 0.16255571433333335 -0.931714972
14014404 0.16054834399999998 -0.931369841
14024408 0.15835091966666667 -0.9314017493333333
14034412 0.15631158666666667 -0.9314296046666666
14044416 0.15431469166666667 -0.9309775633333334
14054420 0.152005131 -0.9305914643333333
14064424 0.14987036099999998 -0.9306554993333332
14074428 0.14794148533333332 -0.9302237826666667
14084432 0.14572702833333334 -0.9297938743333334
14094436 0.14345416433333336 -0.9293867546666666
14104440 0.14147054666666667 -0.928902606
14114444 0.13935223733333332 -0.9279479583333333
14124448 0.13742923733333334 -0.9274381396666667
14134452 0.1351644446666667 -0.926865995
14144456 0.13319464533333333 -0.9262108006666666
14154460 0.131123384 -0.9253608783333332
14164464 0.12909744199999998 -0.9245419900000001
14174468 0.12729916966666668 -0.9235903226666666
14184472 0.12552920466666667 -0.9226796626666666
14194476 0.12358868633333335 -0.9214835763333333
14204480 0.121892477 -0.920413931
14214484 0.12058738633333334 -0.91925778
14224488 0.11908804866666667 -0.9179653326666667
14234492 0.11768496766666668 -0.9167352516666667
14244496 0.11658535133333335 -0.9155894916666667
14254500 0.11563388000000001 -0.9142380356666667
14264504 0.11481452733333335 -0.9131131566666667
14274508 0.11413725966666666 -0.9120803076666667
14284512 0.113813338 -0.9109021026666667
14294516 0.113446536 -0.9099749130000001
14304520 0.11312021033333335 -0.9093104006666667
14314524 0.11311948033333334 -0.9087359306666668
14324528 0.11310300233333333 -0.9084107876666666
14334532 0.11298084500000001 -0.908216377
14344536 0.112955133 -0.908345759
