# HZ S RI R 50
3000000 0.34631158933333334 0.010902012666666667
3010004 0.34645819666666666 0.010429066333333334
3020008 0.34642152966666667 0.009903535666666666
3030012 0.3464665806666667 0.009369336
3040016 0.3463567 0.008906522666666666
3050020 0.34637518733333333 0.008410703
3060024 0.34631986433333334 0.007950143333333333
3070028 0.34631900000000004 0.007423176
3080032 0.3463009893333333 0.006925669
3090036 0.346291602 0.0064276586666666665
3100040 0.34626354800000003 0.005939026
3110044 0.346229474 0.005450322333333334
3120048 0.346241762 0.0049810796666666666
3130052 0.3461867573333333 0.004497802666666666
3140056 0.34617221333333337 0.003983741
3150060 0.3461362620000001 0.003511111666666667
3160064 0.3461078903333334 0.0030423906666666666
3170068 0.3460944893333333 0.0025673793333333334
3180072 0.34605018266666665 0.0021003053333333334
3190076 0.34603512300000006 0.0016305859999999998
3200080 0.34595685200000004 0.001139238
3210084 0.34592579799999995 0.0006533499999999999
3220088 0.34593082466666664 0.00018496233333333334
3230092 0.34588381633333337 -0.000254278
3240096 0.345837921 -0.0007284506666666666
3250100 0.34582834433333326 -0.001198032
3260104 0.3458055553333333 -0.0016592336666666667
3270108 0.34577457133333334 -0.0021314986666666666
3280112 0.34574182833333333 -0.0025987393333333332
3290116 0.345710625 -0.003064094333333333
3300120 0.3456773956666667 -0.0035081686666666666
3310124 0.34561262533333337 -0.003961682
3320128 0.34561043966666666 -0.004455195333333333
3330132 0.34553602333333333 -0.004857638
3340136 0.3455130656666667 -0.005339488
3350140 0.3454937533333333 -0.005800571333333333
3360144 0.34545407666666667 -0.006239929000000001
3370148 0.34544026866666666 -0.006677951333333334
3380152 0.34539072733333337 -0.007172932
3390156 0.34536100433333333 -0.007611694333333333
3400160 0.34532366233333334 -0.008027612666666668
3410164 0.3452724116666667 -0.008479300666666667
3420168 0.3452196616666667 -0.008952294
3430172 0.345207751 -0.009375074666666667
3440176 0.34515371899999997 -0.009803806333333333
3450180 0.34508210433333336 -0.010251521000000001
3460184 0.34507391833333334 -0.010687359
3470188 0.34501845633333333 -0.011111327666666665
3480192 0.34497872966666665 -0.011556162666666666
3490196 0.34495634833333333 -0.012018451666666666
3500200 0.344932437 -0.012453612333333334
3510204 0.3448562419999999 -0.012882859333333335
3520208 0.34485284499999996 -0.013304032
3530212 0.34477741533333334 -0.013746159666666667
3540216 0.34475856033333335 -0.014155496666666668
3550220 0.3446997106666667 -0.014616072333333332
3560224 0.344686498 -0.015025016
3570228 0.344625642 -0.015466206333333335
3580232 0.344595442 -0.01590321633333333
3590236 0.34458371 -0.016287694333333335
3600240 0.344537238 -0.016735262
3610244 0.34447201099999997 -0.017170721666666666
3620248 0.3444491923333333 -0.017596978666666666
3630252 0.34442531066666665 -0.017974819333333333
3640256 0.34431026366666667 -0.018396157
3650260 0.3442877926666667 -0.018855385666666665
3660264 0.34426827200000004 -0.019269782
3670268 0.3442189793333333 -0.019678764666666664
3680272 0.34420802199999995 -0.020110238
3690276 0.3441468976666667 -0.02051847433333333
3700280 0.344070375 -0.020910888000000002
3710284 0.3440569243333333 -0.021355719333333332
3720288 0.3439717393333333 -0.021760422
3730292 0.34398286566666664 -0.02217807366666667
3740296 0.3439052106666667 -0.022562299999999997
3750300 0.343850543 -0.022982654333333335
3760304 0.343833228 -0.023413238000000003
3770308 0.34377039466666665 -0.023813241333333332
3780312 0.34372601933333335 -0.024205740333333333
3790316 0.34369394200000003 -0.024640511
3800320 0.34364748 -0.025029523
3810324 0.34358902766666666 -0.025419843666666667
3820328 0.343537758 -0.02586355933333333
3830332 0.3434865773333334 -0.026258807333333332
3840336 0.34344031433333333 -0.026659405999999997
3850340 0.34337538466666667 -0.027062986333333334
3860344 0.34332237633333335 -0.027470985000000003
3870348 0.3432931206666667 -0.027862239333333334
3880352 0.3432414533333334 -0.028286639000000002
3890356 0.34320187566666666 -0.02869114266666667
3900360 0.34315725133333336 -0.029086895333333335
3910364 0.3431117633333333 -0.029471729
3920368 0.3430286046666667 -0.029870348666666668
3930372 0.34299740166666665 -0.030267826
3940376 0.34292106799999994 -0.030658964666666667
3950380 0.3428895473333333 -0.03107451333333333
3960384 0.3428457083333334 -0.031472416
3970388 0.34279098133333336 -0.031828901666666666
3980392 0.34273640333333333 -0.032238041333333335
3990396 0.3426614403333333 -0.03264718766666667
4000400 0.3426557083333333 -0.03304802133333334
4010404 0.34245754300000003 -0.033481128666666665
4020408 0.34257581833333334 -0.03386325766666667
4030412 0.34250596166666664 -0.03423890233333333
4040416 0.3424421053333333 -0.034622284333333336
4050420 0.3424325883333334 -0.03503315266666667
4060424 0.342343102 -0.03537621133333333
4070428 0.34228611966666667 -0.03578885266666667
4080432 0.34222864133333336 -0.03618810066666667
4090436 0.34218631166666663 -0.036568417
4100440 0.34213497233333334 -0.036944667333333334
4110444 0.34205896666666663 -0.037333579000000006
4120448 0.342026939 -0.03774033633333333
4130452 0.3419751423333333 -0.038117849333333335
4140456 0.3419033886666667 -0.038503001
4150460 0.34188808033333334 -0.038895148666666664
4160464 0.341850748 -0.039264739666666666
4170468 0.34175931433333334 -0.039626427
4180472 0.3416816493333333 -0.040036517
4190476 0.3416543306666667 -0.040434188333333336
4200480 0.3416066566666667 -0.04077869933333333
4210484 0.3415331543333333 -0.04116380333333333
4220488 0.3415074943333334 -0.041577842000000004
4230492 0.34143233300000003 -0.04191266733333333
4240496 0.341359963 -0.042281096
4250500 0.3412908716666667 -0.04266254833333333
4260504 0.3412538966666667 -0.04307186233333333
4270508 0.3412143093333333 -0.04342345633333333
4280512 0.34112158433333334 -0.04380774366666667
4290516 0.341087957 -0.04419297966666667
4300520 0.341050307 -0.044553134333333334
4310524 0.34096150566666666 -0.044935841
4320528 0.34090635166666666 -0.04532146066666667
4330532 0.34085280700000004 -0.04567624666666666
4340536 0.34078558299999995 -0.046041200666666664
4350540 0.3407598236666667 -0.046435632
4360544 0.34069583833333333 -0.046805690000000004
4370548 0.34063159433333334 -0.047168868333333336
4380552 0.340555201 -0.04754378866666667
4390556 0.34048306933333333 -0.047935428999999995
4400560 0.3404679596666667 -0.048290624000000004
4410564 0.34037723166666667 -0.048654075666666664
4420568 0.3402985236666667 -0.049026569
4430572 0.340272069 -0.049392978
4440576 0.340201487 -0.04975829033333334
4450580 0.3401171763333333 -0.050141929333333335
4460584 0.3400960663333333 -0.050506297666666665
4470588 0.3400047816666667 -0.050869309333333335
4480592 0.33992578566666665 -0.05122977633333333
4490596 0.3398970563333334 -0.051629224
4500600 0.3398410676666667 -0.05196499433333333
4510604 0.3397785723333333 -0.05233126133333333
4520608 0.3397105436666667 -0.05272756266666667
4530612 0.339667608 -0.053078283999999996
4540616 0.339582334 -0.05343127633333333
4550620 0.339518289 -0.05380119133333333
4560624 0.33947445933333337 -0.05418067666666667
4570628 0.3394067783333334 -0.054514780333333325
4580632 0.3393251796666667 -0.054877277333333335
4590636 0.33929543666666667 -0.055254148999999995
4600640 0.33923706433333334 -0.05560681866666667
4610644 0.339161267 -0.055975992
4620648 0.3390743136666667 -0.05632186933333333
4630652 0.33902637166666666 -0.05670130866666667
4640656 0.3389444746666666 -0.05703413633333334
4650660 0.338878711 -0.05742805933333334
4660664 0.33882978533333336 -0.057781327333333334
4670668 0.3387927313333334 -0.05811815933333333
4680672 0.33871636800000005 -0.058481015
4690676 0.3386570813333334 -0.05887450633333333
4700680 0.33860051633333327 -0.05919189466666666
4710684 0.3385135926666667 -0.05955840766666667
4720688 0.3384573163333333 -0.05992429566666666
4730692 0.338417232 -0.06027745933333334
4740696 0.33830479766666666 -0.060617339
4750700 0.3382397793333333 -0.060990343333333336
4760704 0.33819641666666667 -0.061344180666666664
4770708 0.33813382166666667 -0.061679301
4780712 0.33803682499999993 -0.062053881666666665
4790716 0.3380177916666667 -0.062409443333333335
4800720 0.3379449446666667 -0.062756789
4810724 0.337873449 -0.063102352
4820728 0.337799718 -0.06348028533333333
4830732 0.3377295533333333 -0.06382001166666666
4840736 0.3376860716666667 -0.06415759033333335
4850740 0.3375726636666667 -0.064497118
4860744 0.33752660966666664 -0.06486308833333333
4870748 0.33748606833333333 -0.06522047766666667
4880752 0.33737561099999996 -0.065571348
4890756 0.337331136 -0.06593220933333332
4900760 0.33731007566666665 -0.066275162
4910764 0.3371887203333333 -0.06661186866666667
4920768 0.3371248343333333 -0.06696503133333333
4930772 0.33706686900000005 -0.06731493766666667
4940776 0.33700153233333335 -0.06764258166666666
4950780 0.33694787833333334 -0.06802700966666668
4960784 0.33687163366666667 -0.06838728
4970788 0.33681717533333333 -0.068698751
4980792 0.33670716466666667 -0.06905622
4990796 0.33667202766666665 -0.06941811233333334
5000800 0.3365926543333333 -0.06973204300000001
5010804 0.3364637693333334 -0.07008813066666668
5020808 0.336351812 -0.07048679166666666
5030812 0.336414963 -0.070799552
5040816 0.3363262413333334 -0.07114490866666667
5050820 0.33627022300000003 -0.07149827233333333
5060824 0.336215476 -0.07183554533333332
5070828 0.3361111186666667 -0.072169016
5080832 0.33604434133333333 -0.07252113266666667
5090836 0.33598219366666665 -0.07288569233333334
5100840 0.33592179400000005 -0.07320766166666666
5110844 0.33583959933333335 -0.07354775566666667
5120848 0.33579545233333336 -0.07390747733333333
5130852 0.335701545 -0.074243106
5140856 0.335621844 -0.074587996
5150860 0.335550646 -0.07492816966666667
5160864 0.3354938426666667 -0.07527839166666667
5170868 0.33539997533333327 -0.075606279
5180872 0.33534158266666664 -0.07596185066666668
5190876 0.33526849766666666 -0.07631080833333333
5200880 0.33522589966666666 -0.07665937633333332
5210884 0.335110277 -0.07695331433333334
5220888 0.3350548743333333 -0.077337752
5230892 0.3350204826666667 -0.07767996933333333
5240896 0.3349186976666667 -0.07800341400000001
5250900 0.3348353703333333 -0.07833399633333334
5260904 0.33476954733333336 -0.07868377133333333
5270908 0.33470745900000004 -0.07902818933333333
5280912 0.33465439099999994 -0.079372081
5290916 0.33456475533333335 -0.07970534733333333
5300920 0.3344762723333334 -0.080025591
5310924 0.33440433933333336 -0.08035977666666667
5320928 0.33432325700000004 -0.08071343333333333
5330932 0.33425658933333335 -0.08104351933333333
5340936 0.3342316246666666 -0.08138141033333333
5350940 0.33410779633333326 -0.08169452866666667
5360944 0.3340497613333333 -0.082060029
5370948 0.333996862 -0.08240600166666667
5380952 0.3339040576666667 -0.08273051933333332
5390956 0.3338330786666667 -0.08307201633333333
5400960 0.33376347033333337 -0.083406168
5410964 0.3336690963333333 -0.08373373466666667
5420968 0.33361382300000003 -0.08408763733333334
5430972 0.33351943866666667 -0.084398339
5440976 0.33346549666666664 -0.08471893533333334
5450980 0.33337381466666666 -0.08506690700000001
5460984 0.3332972926666667 -0.085401279
5470988 0.333230843 -0.085748722
5480992 0.3331628343333333 -0.08606781566666667
5490996 0.33305737366666666 -0.08641078033333334
5501000 0.3329755663333333 -0.08672450733333333
5511004 0.332909733 -0.08704974733333333
5521008 0.332833648 -0.08739541966666665
5531012 0.33281824 -0.087743762
5541016 0.33270119633333334 -0.08804138733333333
5551020 0.332621634 -0.08841109266666668
5561024 0.332547327 -0.08873963366666666
5571028 0.33242262399999994 -0.08905655633333336
5581032 0.3323993583333333 -0.08940159766666667
5591036 0.332330922 -0.089729324
5601040 0.332277745 -0.09005756666666666
5611044 0.33217051633333333 -0.09040736399999999
5621048 0.332083583 -0.090723964
5631052 0.3320285183333333 -0.091061813
5641056 0.3319462736666667 -0.09137310066666667
5651060 0.3318255643333333 -0.09170702333333332
5661064 0.33178553 -0.092045871
5671068 0.331705193 -0.09238876166666665
5681072 0.331584841 -0.09269765766666667
5691076 0.33153211066666666 -0.09303721799999999
5701080 0.33146154899999997 -0.09336526666666667
5711084 0.331385046 -0.09368983666666668
5721088 0.331299643 -0.09401898333333332
5731092 0.3311969936666666 -0.09434152933333333
5741096 0.33115708833333335 -0.094682942
5751100 0.33105606800000004 -0.09499448566666667
5761104 0.3309659363333333 -0.09530753400000001
5771108 0.33090992766666666 -0.095642723
5781112 0.3308022916666667 -0.09597983233333333
5791116 0.33072267966666663 -0.09632803000000001
5801120 0.330679993 -0.09664698433333334
5811124 0.33055893566666666 -0.09694934633333334
5821128 0.33050332466666665 -0.09731125066666667
5831132 0.33040759966666666 -0.09762588133333333
5841136 0.3303339083333333 -0.09794632833333333
5851140 0.33025826033333333 -0.09829366700000002
5861144 0.33016402533333333 -0.09858098633333334
5871148 0.3301068046666667 -0.098910853
5881152 0.33003862700000003 -0.09925418066666668
5891156 0.329916189 -0.09957028933333334
5901160 0.3298345706666666 -0.09990439566666666
5911164 0.32974608766666663 -0.100224969
5921168 0.32969063533333337 -0.10055541533333334
5931172 0.32960676166666664 -0.100863586
5941176 0.32949482366666666 -0.10119834033333334
5951180 0.32943057033333334 -0.10152922566666667
5961184 0.3293717006666667 -0.10185789066666666
5971188 0.3292891683333334 -0.10218191866666666
5981192 0.3291763266666667 -0.10249357199999999
5991196 0.3291308183333333 -0.10282490366666668
6001200 0.329040736 -0.10314573833333333
6011204 0.3289588493333333 -0.10347101366666667
6021208 0.3288575706666666 -0.10376765333333332
6031212 0.32871597999999996 -0.10409403833333335
6041216 0.3286468186666667 -0.10440879800000001
6051220 0.32857056433333337 -0.104737175
6061224 0.32845596466666666 -0.10505663866666666
6071228 0.328410546 -0.105386168
6081232 0.328287532 -0.10569743800000002
6091236 0.3282450143333333 -0.10601577166666666
6101240 0.3281363646666666 -0.106341387
6111244 0.328066925 -0.10666868833333333
6121248 0.3279830613333334 -0.10700000066666666
6131252 0.32789558166666666 -0.10731084166666667
6141256 0.3278150063333333 -0.10762635133333333
6151260 0.32771939033333336 -0.10794608066666667
6161264 0.3276409506666667 -0.10826233033333332
6171268 0.32752789066666665 -0.10862475366666667
6181272 0.32746882233333335 -0.10892171899999999
6191276 0.32739360133333334 -0.10922289866666668
6201280 0.3272784653333333 -0.10954960933333334
6211284 0.3272060353333333 -0.10987742499999999
6221288 0.32714200033333335 -0.11021729533333334
6231292 0.32705189799999995 -0.11051379633333332
6241296 0.32697249433333336 -0.110852336
6251300 0.326863259 -0.111172758
6261304 0.3267950613333333 -0.11147311566666666
6271308 0.32669572 -0.11180119466666666
6281312 0.32659949866666665 -0.112133513
6291316 0.326557964 -0.11245667433333333
6301320 0.32643794 -0.11275372133333332
6311324 0.326337904 -0.11307711666666666
6321328 0.3262445133333333 -0.11339616533333334
6331332 0.32614226133333335 -0.11371270333333333
6341336 0.3260756633333333 -0.11403963466666667
6351340 0.3260168233333333 -0.11437604566666666
6361344 0.32589123633333333 -0.11467077599999999
6371348 0.32582267133333337 -0.11499265833333333
6381352 0.32576322533333335 -0.11533593399999999
6391356 0.3256798683333333 -0.11565047766666665
6401360 0.3255591393333333 -0.11595865100000001
6411364 0.32549203433333335 -0.11628765633333334
6421368 0.325421234 -0.11659295833333333
6431372 0.32535532133333334 -0.11691030866666667
6441376 0.3252077896666667 -0.11722033700000001
6451380 0.32513289666666667 -0.11756242566666668
6461384 0.325052321 -0.11786696066666667
6471388 0.3249439796666667 -0.11817905033333333
6481392 0.324870606 -0.11852018033333334
6491396 0.32478993133333334 -0.11882381866666665
6501400 0.32468263300000005 -0.11914537600000001
6511404 0.32459285866666665 -0.11948313566666667
6521408 0.32452717433333333 -0.119775233
6531412 0.32443162799999997 -0.12007618933333332
6541416 0.32435696333333336 -0.12045102333333334
6551420 0.324251612 -0.12073714033333333
6561424 0.32415568866666666 -0.121045413
6571428 0.324083517 -0.12138233066666666
6581432 0.32399372233333334 -0.12171472366666665
6591436 0.32388144733333335 -0.12197941533333334
6601440 0.3237842423333333 -0.12231226766666665
6611444 0.3237146636666666 -0.12264505533333332
6621448 0.32363702866666666 -0.12296581733333334
6631452 0.3235151866666666 -0.12325575466666666
6641456 0.323430866 -0.12358742433333332
6651460 0.32333182299999996 -0.12389006966666667
6661464 0.3232139546666667 -0.12419770166666666
6671468 0.32312882933333337 -0.124530281
6681472 0.32304630700000003 -0.12484023733333334
6691476 0.3229662973333333 -0.12514808766666666
6701480 0.322856198 -0.12545185299999997
6711484 0.32280043766666666 -0.12580302866666668
6721488 0.32266958566666665 -0.12609096900000002
6731492 0.32257673133333337 -0.12640862666666666
6741496 0.32248949033333335 -0.126749153
6751500 0.322423071 -0.12706747166666668
6761504 0.32232343166666666 -0.12735480566666665
6771508 0.32220387466666667 -0.127670894
6781512 0.32214551166666666 -0.12801546833333333
6791516 0.32202858733333334 -0.12830044333333335
6801520 0.32193252466666666 -0.12860535066666667
6811524 0.3218645056666667 -0.12892926733333332
6821528 0.32176308833333334 -0.12924216199999997
6831532 0.32167703900000005 -0.12956201066666664
6841536 0.3215506576666667 -0.12988476466666668
6851540 0.3214804726666667 -0.13018744200000001
6861544 0.321377764 -0.13048440233333333
6871548 0.32125073666666665 -0.13081449266666667
6881552 0.3211862346666667 -0.131138007
6891556 0.3210968376666667 -0.13143031266666666
6901560 0.32097578066666665 -0.131753231
6911564 0.32089695366666665 -0.13208327666666667
6921568 0.32080342366666664 -0.13237490266666666
6931572 0.320677539 -0.132700915
6941576 0.32061101 -0.13301986466666668
6951580 0.32052743433333336 -0.133321017
6961584 0.320410659 -0.133622547
6971588 0.32029996333333327 -0.13396214466666667
6981592 0.32022376866666663 -0.134252633
6991596 0.32011259599999997 -0.13457692633333332
7001600 0.31998857833333333 -0.134886851
7011604 0.31988880033333333 -0.13520163799999999
7021608 0.319856296 -0.13552012533333332
7031612 0.3197347023333333 -0.135799269
7041616 0.31960881766666666 -0.13618803033333332
7051620 0.3195749816666667 -0.13645343466666668
7061624 0.319445193 -0.13677220066666665
7071628 0.319400132 -0.13711426166666665
7081632 0.31930106866666663 -0.13739491533333334
7091636 0.31920669499999993 -0.13770307566666665
7101640 0.3190491893333333 -0.13803016633333332
7111644 0.318994145 -0.13834281766666665
7121648 0.31888056800000003 -0.13863040000000001
7131652 0.3187292216666666 -0.13895394900000002
7141656 0.31867424633333336 -0.13929121200000003
7151660 0.3185901643333333 -0.139567832
7161664 0.318463425 -0.13989676033333334
7171668 0.31835171566666665 -0.14021457733333334
7181672 0.318296621 -0.14050609366666666
7191676 0.31816109033333334 -0.14080571633333333
7201680 0.3180416326666667 -0.141130512
7211684 0.31799846866666664 -0.14146780966666664
7221688 0.3178628683333333 -0.14173249433333332
7231692 0.3177456556666667 -0.14207387466666666
7241696 0.3176807166666667 -0.14239835733333334
7251700 0.31759019699999996 -0.14266863966666665
7261704 0.31746076533333334 -0.14299212433333333
7271708 0.317355802 -0.14333834266666667
7281712 0.317290326 -0.143626809
7291716 0.31715452666666666 -0.14392042166666666
7301720 0.31704276766666667 -0.14425078533333333
7311724 0.3169469436666667 -0.14455495733333332
7321728 0.316852411 -0.144840454
7331732 0.3167336086666666 -0.1451843926666667
7341736 0.3166464466666667 -0.1455013603333333
7351740 0.3165565033333333 -0.14578012133333335
7361744 0.31644754633333333 -0.14611226333333335
7371748 0.31633759533333333 -0.14643647766666668
7381752 0.3162341713333333 -0.146712437
