# HZ S RI R 50
3000000 0.3464160363333333 0.010905423333333336
3010004 0.3464646636666667 0.010408676
3020008 0.34647441900000003 0.009931966666666665
3030012 0.3463867006666667 0.009420323333333334
3040016 0.34643295399999996 0.008919224333333335
3050020 0.3463833033333333 0.008420506000000001
3060024 0.34640728466666665 0.007938794666666667
3070028 0.34634524600000005 0.007443807333333333
3080032 0.34633898733333335 0.00692559
3090036 0.34632978833333333 0.0064383439999999995
3100040 0.3462931713333333 0.005982025666666667
3110044 0.34627393866666667 0.005491067
3120048 0.3462302583333334 0.004955179333333333
3130052 0.3462264636666667 0.004498678
3140056 0.346261213 0.004014472666666667
3150060 0.3461599153333333 0.0035277763333333334
3160064 0.34618398533333333 0.003040896333333333
3170068 0.346134593 0.002580933
3180072 0.34611085066666664 0.0020866716666666668
3190076 0.34610286333333334 0.0016248923333333333
3200080 0.3460757933333333 0.0011375486666666667
3210084 0.34603510266666665 0.0006728736666666667
3220088 0.34601228466666667 0.00017012966666666665
3230092 0.34599672766666667 -0.000279749
3240096 0.34596196799999995 -0.0007441263333333334
3250100 0.34589557866666665 -0.0012206336666666668
3260104 0.345891456 -0.0017140606666666669
3270108 0.345859925 -0.0021465643333333337
3280112 0.34577135266666664 -0.002610924666666667
3290116 0.34578189233333334 -0.003102678666666667
3300120 0.34575130533333337 -0.0035492133333333334
3310124 0.3457309206666667 -0.003988187666666666
3320128 0.34572497999999996 -0.004470824666666666
3330132 0.3457235496666667 -0.004925680666666667
3340136 0.34562630433333336 -0.005359656666666666
3350140 0.345591416 -0.005826739333333334
3360144 0.345594754 -0.006295636
3370148 0.34556779233333335 -0.0067116883333333335
3380152 0.34547628 -0.007182254999999999
3390156 0.34546972300000006 -0.007656160666666666
3400160 0.34539536633333334 -0.008050067666666667
3410164 0.34533103299999995 -0.00850846
3420168 0.345309685 -0.008963803333333333
3430172 0.345282356 -0.009397500666666668
3440176 0.34526010333333335 -0.009842437333333334
3450180 0.3452212213333333 -0.010257816000000001
3460184 0.345140457 -0.010749660666666666
3470188 0.3451388576666667 -0.011164262
3480192 0.3450767696666666 -0.011599867
3490196 0.34505564966666663 -0.012055638
3500200 0.3450105786666666 -0.01250997
3510204 0.3449651796666666 -0.012842823333333331
3520208 0.34502595666666663 -0.012850371333333332
3530212 0.3448818523333333 -0.013840202333333334
3540216 0.34485868599999997 -0.014227976333333335
3550220 0.3447184663333333 -0.014666559333333334
3560224 0.3447560566666667 -0.015126549000000001
3570228 0.3447246746666666 -0.015568581666666666
3580232 0.3446574506666667 -0.016009180666666668
3590236 0.34465579199999996 -0.016484749666666666
3600240 0.344604572 -0.016837279
3610244 0.344554345 -0.017278957666666667
3620248 0.34449978666666664 -0.017697881333333335
3630252 0.3444447316666667 -0.018149727666666667
3640256 0.34445651366666663 -0.01855868166666667
3650260 0.3443650006666667 -0.018954138
3660264 0.34431531033333335 -0.019350759666666665
3670268 0.34426058333333337 -0.019765762666666666
3680272 0.3441335556666667 -0.020163786333333333
3690276 0.34409048133333336 -0.020598124666666665
3700280 0.34405722233333336 -0.021013556333333332
3710284 0.3440582253333333 -0.021428865333333335
3720288 0.34396500366666666 -0.021820313000000004
3730292 0.3439389963333333 -0.022274191666666665
3740296 0.343948245 -0.02266342
3750300 0.34385093066666667 -0.02308494233333333
3760304 0.34379874633333335 -0.023484969333333338
3770308 0.343804995 -0.023886747
3780312 0.34372735033333335 -0.02430062033333333
3790316 0.34366430833333333 -0.024726628666666667
3800320 0.3436643383333333 -0.025141453999999997
3810324 0.3435622056666667 -0.025536596999999998
3820328 0.34352575766666665 -0.025965954333333333
3830332 0.34350420033333334 -0.02637136933333333
3840336 0.34343513833333333 -0.026753974333333333
3850340 0.3434002696666667 -0.027155276000000002
3860344 0.34335837733333335 -0.027581099666666664
3870348 0.3432710173333333 -0.027976003
3880352 0.34327844766666665 -0.028381295333333334
3890356 0.34321565433333334 -0.028793147333333335
3900360 0.3431720833333333 -0.029222829999999995
3910364 0.34311436633333336 -0.029559247333333333
3920368 0.34301867066666664 -0.02998940333333333
3930372 0.34299752133333333 -0.030392185
3940376 0.34295628466666667 -0.030769253
3950380 0.34289881566666675 -0.031175893333333333
3960384 0.3428478836666667 -0.03157512066666667
3970388 0.3427279886666667 -0.03195929166666667
3980392 0.34273468466666673 -0.03234671533333333
3990396 0.3427153326666667 -0.03276564033333333
4000400 0.34264667833333334 -0.033178861
4010404 0.34224251933333333 -0.033578232
4020408 0.342447301 -0.033953113
4030412 0.34239919966666665 -0.03435960766666667
4040416 0.3423615 -0.034746424666666664
4050420 0.34228053666666663 -0.03512283766666666
4060424 0.34222721066666667 -0.035537747
4070428 0.3422187766666666 -0.03591967366666667
4080432 0.34212777033333336 -0.036299504333333336
4090436 0.34207885466666665 -0.03668620433333333
4100440 0.34204597266666664 -0.037093719000000004
4110444 0.3419795036666667 -0.03747933133333333
4120448 0.341926972 -0.037860646666666664
4130452 0.34185578433333336 -0.038246826666666664
4140456 0.3418055473333333 -0.03863775966666667
4150460 0.3417637743333333 -0.039017939
4160464 0.341688782 -0.039398736
4170468 0.3416666286666667 -0.039796100333333334
4180472 0.3415867586666667 -0.040171859
4190476 0.3414970236666666 -0.040544246666666665
4200480 0.3414805433333333 -0.04092231033333333
4210484 0.3414159913333334 -0.041307184999999996
4220488 0.3413711286666667 -0.04170730566666666
4230492 0.3413235843333333 -0.04208487033333333
4240496 0.34123594566666665 -0.042441524666666675
4250500 0.3411709766666666 -0.04283676533333333
4260504 0.34114713466666674 -0.04321028266666666
4270508 0.341084967 -0.04358563066666666
4280512 0.34103120366666667 -0.04395962866666667
4290516 0.3409723736666666 -0.044350108666666666
4300520 0.34089368600000003 -0.04470972733333334
4310524 0.340859284 -0.045107450333333333
4320528 0.34079451366666663 -0.045439802
4330532 0.34074735633333336 -0.045848439
4340536 0.34068038066666667 -0.04622770500000001
4350540 0.34061657366666664 -0.04656207666666667
4360544 0.34056924766666663 -0.046968515999999995
4370548 0.3405085106666667 -0.04733086466666667
4380552 0.34043291233333334 -0.04770908866666667
4390556 0.34038594333333333 -0.04806470733333334
4400560 0.340274503 -0.04843951
4410564 0.34026669466666665 -0.048807435
4420568 0.34019151333333336 -0.04919469466666667
4430572 0.3401263456666666 -0.049549007
4440576 0.3400497436666667 -0.04991268366666667
4450580 0.3399794993333334 -0.05029600966666666
4460584 0.33993740866666666 -0.05066486433333334
4470588 0.339870572 -0.05102368300000001
4480592 0.3398205636666667 -0.05138968533333333
4490596 0.33970258633333333 -0.05176379033333334
4500600 0.33969573200000003 -0.052136396333333335
4510604 0.3396274746666667 -0.052478851
4520608 0.33957733733333334 -0.052849965666666665
4530612 0.33950082466666665 -0.053254799333333325
4540616 0.33945926 -0.053598887000000005
4550620 0.33941324533333334 -0.05395753666666666
4560624 0.3393369316666666 -0.05432187399999999
4570628 0.33927926399999997 -0.054680143666666674
4580632 0.33922947466666664 -0.055034162
4590636 0.33915382633333335 -0.05540279933333333
4600640 0.339089612 -0.055759045
4610644 0.33903188500000003 -0.056136070333333336
4620648 0.33896134333333333 -0.056494279333333335
4630652 0.3389236033333333 -0.056856559
4640656 0.3388549686666667 -0.057211121
4650660 0.3387907346666667 -0.05759332933333333
4660664 0.3386948206666667 -0.057942367
4670668 0.33864438533333335 -0.058294090333333326
4680672 0.338555465 -0.05862499633333334
4690676 0.338504215 -0.05901548266666667
4700680 0.3384459816666667 -0.05938602233333332
4710684 0.3383277056666667 -0.05972264466666666
4720688 0.3382913273333334 -0.06009460366666666
4730692 0.33821703999999997 -0.06046455333333334
4740696 0.33814216666666663 -0.060812887
4750700 0.338084201 -0.061185879
4760704 0.33803827566666667 -0.061523890666666664
4770708 0.3379872046666667 -0.06190783266666666
4780712 0.33789182733333334 -0.062229965
4790716 0.33782484166666665 -0.062593311
4800720 0.33778238299999996 -0.06298448400000001
4810724 0.337699006 -0.06329072000000001
4820728 0.33761042366666666 -0.06365020333333334
4830732 0.3375721973333334 -0.06401973466666668
4840736 0.337490459 -0.06433629733333333
4850740 0.33739387000000004 -0.06470134133333333
4860744 0.3373388153333334 -0.06506362066666667
4870748 0.3372923136666666 -0.06542275833333333
4880752 0.33724927899999996 -0.065774225
4890756 0.337167154 -0.06612295133333333
4900760 0.337078462 -0.06646608066666666
4910764 0.33703047999999997 -0.066827014
4920768 0.33690944333333334 -0.06717452666666666
4930772 0.33690872800000005 -0.06754534933333334
4940776 0.3368173239999999 -0.06786935033333334
4950780 0.33675984533333336 -0.06820846600000001
4960784 0.33670422433333336 -0.06859628833333332
4970788 0.33662395700000003 -0.06893167900000001
4980792 0.33655466633333336 -0.06929227233333334
4990796 0.336491406 -0.06963475066666668
5000800 0.33641842 -0.06998334833333335
5010804 0.33633110933333327 -0.07033708933333334
5020808 0.336256822 -0.07068832233333333
5030812 0.33618929966666666 -0.07103575000000001
5040816 0.33612618833333335 -0.07137994933333335
5050820 0.33607747166666674 -0.071706325
5060824 0.33599717433333326 -0.07204939933333333
5070828 0.33594287399999995 -0.07240911833333334
5080832 0.3358894983333333 -0.07274516633333333
5090836 0.33577918033333337 -0.073059154
5100840 0.33570481333333335 -0.073448231
5110844 0.335658322 -0.07379135766666667
5120848 0.33556730566666665 -0.07410330566666666
5130852 0.3354898096666667 -0.07449013733333333
5140856 0.3354496756666667 -0.074825359
5150860 0.33535398033333336 -0.07513670866666666
5160864 0.33524085066666665 -0.075494431
5170868 0.3352306683333333 -0.07585746066666667
5180872 0.335118284 -0.07618375866666667
5190876 0.3350673616666667 -0.07653219
5200880 0.3350114923333334 -0.07688862866666667
5210884 0.3349275093333333 -0.07720826066666668
5220888 0.334842205 -0.07754502166666667
5230892 0.33476624866666665 -0.07790891366666666
5240896 0.3347096246666667 -0.07823728766666667
5250900 0.33465985466666665 -0.07856867433333332
5260904 0.3345393536666667 -0.07891026366666666
5270908 0.33447574566666666 -0.07925893866666665
5280912 0.33441624033333334 -0.079584544
5290916 0.33431025366666667 -0.07990448433333333
5300920 0.3342625396666666 -0.080274952
5310924 0.3342280983333333 -0.08060216633333332
5320928 0.3340927063333334 -0.08093476266666666
5330932 0.33403120399999997 -0.08130453533333333
5340936 0.3340063293333333 -0.081642002
5350940 0.333931913 -0.081953868
5360944 0.3338239393333333 -0.08228323366666666
5370948 0.3337614933333333 -0.08266301966666667
5380952 0.33367666599999996 -0.082973905
5390956 0.333621432 -0.08331325166666667
5400960 0.33351648866666667 -0.08365954966666667
5410964 0.333476017 -0.08398179700000001
5420968 0.33337310933333336 -0.084325696
5430972 0.33328898766666665 -0.08467759433333333
5440976 0.33324106533333336 -0.08500741666666667
5450980 0.33321249466666664 -0.08534154533333332
5460984 0.33307986466666667 -0.085679705
5470988 0.33302039899999997 -0.08602428433333335
5480992 0.33297735433333336 -0.08635056
5490996 0.332825899 -0.08667373633333332
5501000 0.33276087033333335 -0.08702497933333332
5511004 0.33272242533333335 -0.08733505000000001
5521008 0.33263806500000004 -0.087683114
5531012 0.33253881366666665 -0.08804086333333333
5541016 0.3324528533333333 -0.08835998666666667
5551020 0.33244107166666664 -0.08869310933333334
5561024 0.33229438466666666 -0.08901788566666664
5571028 0.33223522699999997 -0.08935936300000001
5581032 0.33222983266666667 -0.08970205233333334
5591036 0.332063357 -0.09002020433333331
5601040 0.33202711766666665 -0.09036337099999998
5611044 0.33193888233333335 -0.09067138266666668
5621048 0.3318165043333334 -0.09101682666666666
5631052 0.331743727 -0.09135741233333333
5641056 0.3316625753333334 -0.09169465066666667
5651060 0.3315850493333334 -0.09199997566666666
5661064 0.3314977983333333 -0.09233062966666666
5671068 0.331440101 -0.09268335766666667
5681072 0.33136423400000004 -0.092987371
5691076 0.33128125466666664 -0.09334742766666666
5701080 0.33118942366666665 -0.09368348133333333
5711084 0.33110308666666666 -0.09399525599999999
5721088 0.331034362 -0.09431386000000001
5731092 0.33094851166666667 -0.09466130300000002
5741096 0.33091876866666664 -0.09501228499999999
5751100 0.33077269800000003 -0.09533132100000001
5761104 0.330705255 -0.09565453233333333
5771108 0.330660701 -0.096007727
5781112 0.33057348933333336 -0.09628314533333333
5791116 0.330473284 -0.09662188566666667
5801120 0.330389758 -0.09698190566666666
5811124 0.330320239 -0.09728422233333334
5821128 0.33025384933333335 -0.097600495
5831132 0.3301507833333333 -0.09795079633333333
5841136 0.33004121966666666 -0.09824692966666666
5851140 0.3300005793333333 -0.09858413766666667
5861144 0.3299082816666667 -0.09891547266666667
5871148 0.32982893766666666 -0.09925732766666667
5881152 0.32977375400000003 -0.09958135833333333
5891156 0.329659581 -0.09990303233333332
5901160 0.32956426333333333 -0.100222853
5911164 0.3294926086666667 -0.10055778433333333
5921168 0.32942505699999997 -0.10089691733333334
5931172 0.32935968033333335 -0.10122026266666666
5941176 0.329256872 -0.101527502
5951180 0.329191893 -0.10185436399999999
5961184 0.32907488966666665 -0.10218354833333332
5971188 0.329012066 -0.10252797133333331
5981192 0.32894300433333334 -0.10283343466666667
5991196 0.3288348716666667 -0.10313703366666667
6001200 0.328765869 -0.10350207966666668
6011204 0.328695814 -0.103822122
6021208 0.3285883166666666 -0.10413042966666668
6031212 0.32831042 -0.10444511199999999
6041216 0.32841016866666667 -0.10478744633333333
6051220 0.32832867866666665 -0.10509419433333334
6061224 0.328236699 -0.10539954633333333
6071228 0.32815985900000005 -0.10575266433333334
6081232 0.32808283 -0.10606099433333332
6091236 0.3279793363333333 -0.10637495199999998
6101240 0.3278770246666667 -0.10672294833333333
6111244 0.32783892766666667 -0.10705675199999999
6121248 0.32771496966666663 -0.10734372066666668
6131252 0.3276276786666667 -0.10768678566666667
6141256 0.3275559446666667 -0.108040807
6151260 0.327511996 -0.10832070066666666
6161264 0.3273411986666666 -0.10862343766666667
6171268 0.32730326066666665 -0.108998038
6181272 0.3272261126666667 -0.10928702833333333
6191276 0.32712024433333337 -0.10959971233333334
6201280 0.32703043033333334 -0.10993397966666667
6211284 0.32696124899999995 -0.11026319333333333
6221288 0.326866259 -0.11058979966666667
6231292 0.3267757496666666 -0.11089848233333333
6241296 0.3267059526666667 -0.11123116799999999
6251300 0.326620956 -0.11155712866666667
6261304 0.32649000499999997 -0.11186162399999999
6271308 0.32644978166666666 -0.11223262299999999
6281312 0.3263098896666667 -0.112503782
6291316 0.326251527 -0.112824708
6301320 0.326188147 -0.11315943566666666
6311324 0.32606606666666665 -0.11348197866666666
6321328 0.32598946466666673 -0.11378631033333332
6331332 0.3259043396666667 -0.11413692933333335
6341336 0.32583690666666665 -0.11446125033333333
6351340 0.3257475493333333 -0.114782962
6361344 0.32564035033333333 -0.11508437766666668
6371348 0.32553662833333336 -0.11543022633333333
6381352 0.3254875643333333 -0.11572233800000002
6391356 0.3253664176666667 -0.11604472966666667
6401360 0.3252752323333333 -0.11640668166666666
6411364 0.32522912800000003 -0.116704166
6421368 0.32512336966666666 -0.11701732633333334
6431372 0.325011591 -0.11734246466666666
6441376 0.32494560866666666 -0.11768360166666665
6451380 0.32484265133333334 -0.117988415
6461384 0.32477496066666667 -0.11830957466666665
6471388 0.32463858533333334 -0.11864357399999999
6481392 0.3245780366666667 -0.11894204233333334
6491396 0.32447523866666667 -0.11926229333333334
6501400 0.32439779266666663 -0.119611231
6511404 0.324310124 -0.11991106233333333
6521408 0.3242129186666667 -0.12021780233333335
6531412 0.32413585 -0.12056408566666665
6541416 0.324067692 -0.12088926633333334
6551420 0.323947688 -0.121192326
6561424 0.32383945566666666 -0.12148647
6571428 0.32377394033333334 -0.121839747
6581432 0.3237034283333333 -0.12215497599999998
6591436 0.3235884706666667 -0.12246288866666667
6601440 0.32350738833333337 -0.122788238
6611444 0.3234326046666667 -0.12308678033333335
6621448 0.3233036693333333 -0.12340243933333334
6631452 0.32322976966666667 -0.12372695133333333
6641456 0.323149711 -0.12404430166666668
6651460 0.3230548203333333 -0.12434871466666665
6661464 0.32293291900000004 -0.12467912366666667
6671468 0.32285399233333334 -0.12498873466666667
6681472 0.322762569 -0.12527853233333333
6691476 0.32263374333333333 -0.12562443833333334
6701480 0.3225708503333333 -0.12594250833333334
6711484 0.322471629 -0.12626161666666666
6721488 0.32236967466666666 -0.12656200399999998
6731492 0.3222928746666667 -0.12688337766666666
6741496 0.32220436133333336 -0.12720715999999999
6751500 0.322105944 -0.127526417
6761504 0.322004785 -0.12782896566666666
6771508 0.3219107786666667 -0.1281433703333333
6781512 0.321847151 -0.12845123333333333
6791516 0.32172897433333336 -0.12878058833333333
6801520 0.32164514066666666 -0.12910819033333332
6811524 0.32155172033333335 -0.129401947
6821528 0.32141759 -0.129704048
6831532 0.3213336763333334 -0.13006010166666668
6841536 0.32126581666666665 -0.13036149733333335
6851540 0.32117621133333335 -0.130659814
6861544 0.32101731533333333 -0.13098821033333333
6871548 0.3209702073333333 -0.13130918633333333
6881552 0.32087927066666666 -0.131599734
6891556 0.320770234 -0.13194415966666667
6901560 0.3206567166666667 -0.132262354
6911564 0.3205542266666667 -0.13251419866666667
6921568 0.3204417626666667 -0.132866765
6931572 0.32031830133333333 -0.13316653166666667
6941576 0.320255498 -0.133495758
6951580 0.32016567366666665 -0.13380771333333333
6961584 0.3200525046666667 -0.13414208066666666
6971588 0.3199894523333333 -0.13444442566666667
6981592 0.31988146933333333 -0.13474550833333332
6991596 0.31974878866666673 -0.13506426400000002
7001600 0.3196583686666667 -0.13537145166666667
7011604 0.3196059566666667 -0.13569050033333332
7021608 0.31946121666666666 -0.13599956033333335
7031612 0.3193722566666667 -0.13634908199999998
7041616 0.3192842106666667 -0.13668659800000002
7051620 0.31921921166666667 -0.136951367
7061624 0.3190898 -0.13727254666666666
7071628 0.3190350336666667 -0.137621701
7081632 0.318907738 -0.13790006933333332
7091636 0.31876091133333334 -0.13821436466666667
7101640 0.31871364500000005 -0.13855993766666666
7111644 0.318627437 -0.13885837799999998
7121648 0.31851376066666665 -0.13915089733333333
7131652 0.31838740933333337 -0.139494578
7141656 0.3182976743333333 -0.13978287566666667
7151660 0.3181783853333333 -0.14009189633333333
7161664 0.3180719316666667 -0.14041916533333335
7171668 0.3179717063333333 -0.14074564466666664
7181672 0.3179039656666667 -0.14104568466666667
7191676 0.31777348133333333 -0.14134628066666666
7201680 0.31766555700000004 -0.14169063666666668
7211684 0.31759229299999997 -0.14199260366666666
7221688 0.317484359 -0.14227678366666666
7231692 0.31733347 -0.14261539266666665
7241696 0.3172650633333333 -0.14293511233333334
7251700 0.317155868 -0.14322676766666664
7261704 0.31704652299999997 -0.14355361966666666
7271708 0.3169534803333333 -0.14387350766666665
7281712 0.3168735803333333 -0.144190793
7291716 0.3167564276666667 -0.14447187366666667
7301720 0.316657702 -0.14481944333333333
7311724 0.3165719906666667 -0.14513331166666665
7321728 0.31643645966666667 -0.145440613
7331732 0.31633431733333334 -0.14572301
7341736 0.3162465096666666 -0.14606126666666666
7351740 0.31614258900000003 -0.14636906933333335
7361744 0.31600205099999995 -0.14664109066666667
7371748 0.31592704833333335 -0.14700043666666665
