# HZ S RI R 50
3000000 -0.009567597333333332 -0.0007661193333333335 -0.33899613266666667 0.897248129 0 0 0 0
3010004 -0.009663901 -0.0017666973333333334 -0.32544845333333333 0.9023853339999999 0 0 0 0
3020008 -0.009887469666666667 -0.0016740843333333333 -0.311224858 0.9070119856666667 0 0 0 0
3030012 -0.009957180333333334 -0.001754648 -0.2970300613333334 0.9117959536666667 0 0 0 0
3040016 -0.009941293999999998 -0.0015860253333333334 -0.282654226 0.9161117870000001 0 0 0 0
3050020 -0.009919925000000001 -0.0013566896666666666 -0.26821211000000006 0.9203854003333333 0 0 0 0
3060024 -0.010161803333333332 -0.0012932269999999999 -0.25382341933333336 0.9245084126666668 0 0 0 0
3070028 -0.010257325999999999 -0.001330782 -0.23932486266666667 0.9282830753333334 0 0 0 0
3080032 -0.010168696 -0.0012024593333333335 -0.22468994066666667 0.9317268533333333 0 0 0 0
3090036 -0.010251693 -0.0009594593333333333 -0.210074996 0.9352383216666666 0 0 0 0
3100040 -0.010415521333333332 -0.0008504463333333332 -0.19536800666666668 0.938217501 0 0 0 0
3110044 -0.010327539000000002 -0.0009389736666666667 -0.18072905633333333 0.9411392410000001 0 0 0 0
3120048 -0.010395438666666666 -0.000880524 -0.16595415766666669 0.9437626203333332 0 0 0 0
3130052 -0.010405648333333331 -0.0004396843333333333 -0.15111181166666665 0.9461687803333333 0 0 0 0
3140056 -0.010574447666666667 -0.0003162556666666667 -0.13629256666666667 0.9483459193333333 0 0 0 0
3150060 -0.010668327666666666 -0.0003880863333333333 -0.12140671400000001 0.9502768119999999 0 0 0 0
3160064 -0.010467804666666665 -0.00030411466666666666 -0.10652746766666667 0.9518622556666667 0 0 0 0
3170068 -0.010533795666666667 5.1705999999999996e-05 -0.09155121433333334 0.9534900786666668 0 0 0 0
3180072 -0.010747978 0.00011986833333333333 -0.07661449933333332 0.9546315073333332 0 0 0 0
3190076 -0.010659252666666667 5.355066666666667e-05 -0.06170196333333333 0.955533226 0 0 0 0
3200080 -0.010500948333333334 0.0003809376666666666 -0.04666963233333334 0.9564173020000001 0 0 0 0
3210084 -0.010499531666666667 0.00043943899999999996 -0.031701366333333335 0.9567710556666666 0 0 0 0
3220088 -0.010788026666666667 0.0006505716666666666 -0.016693870333333333 0.9571688573333333 0 0 0 0
3230092 -0.010718742000000002 0.0006249333333333333 -0.001755029 0.9571894406666667 0 0 0 0
3240096 -0.010526232666666668 0.0008422053333333334 0.013289898666666666 0.9569608966666667 0 0 0 0
3250100 -0.010470860333333333 0.0009976913333333334 0.02825235333333333 0.956543684 0 0 0 0
3260104 -0.010690303 0.0011781866666666667 0.043247689666666665 0.9558919070000002 0 0 0 0
3270108 -0.010694240666666667 0.0012150916666666667 0.05815136433333334 0.954949498 0 0 0 0
3280112 -0.010598452 0.001409604 0.07312190566666667 0.9539075693333333 0 0 0 0
3290116 -0.010604318666666668 0.0016688976666666669 0.08804895466666667 0.952473859 0 0 0 0
3300120 -0.010645493333333334 0.001674168 0.10290774700000001 0.9508844613333333 0 0 0 0
3310124 -0.010506506333333332 0.0017016933333333332 0.11779818933333334 0.94900918 0 0 0 0
3320128 -0.010426622000000002 0.0019921403333333335 0.13262893766666667 0.9469528990000001 0 0 0 0
3330132 -0.010506811999999999 0.002138511666666667 0.14741087966666666 0.9446419676666666 0 0 0 0
3340136 -0.010582482999999998 0.002307799666666667 0.16219601033333333 0.9422597486666667 0 0 0 0
3350140 -0.010347888 0.0023640496666666663 0.17687724033333332 0.9392741920000001 0 0 0 0
3360144 -0.010409482666666667 0.002537161333333333 0.19151252500000002 0.9362749653333333 0 0 0 0
3370148 -0.010348712666666668 0.002564782 0.20619158933333334 0.9332059026666667 0 0 0 0
3380152 -0.010292212666666667 0.0027234353333333333 0.220670412 0.9296222726666666 0 0 0 0
3390156 -0.010168866333333334 0.0027830793333333335 0.23518610033333331 0.9259759586666666 0 0 0 0
3400160 -0.010064836666666667 0.0030643370000000003 0.249631087 0.9220408999999999 0 0 0 0
3410164 -0.009911436666666667 0.003265096 0.26402404900000004 0.917901178 0 0 0 0
3420168 -0.010108908333333333 0.0033198236666666663 0.27834212766666666 0.9136818446666668 0 0 0 0
3430172 -0.009999398 0.003203184 0.2924875816666667 0.9089664616666666 0 0 0 0
3440176 -0.009713682 0.0033708886666666666 0.3066513343333333 0.9040675760000001 0 0 0 0
3450180 -0.009677779999999999 0.003639514333333333 0.3207522826666666 0.8990795213333334 0 0 0 0
3460184 -0.009639864 0.003753226 0.3347085613333333 0.8937978943333333 0 0 0 0
3470188 -0.009522588666666667 0.0038100233333333336 0.3485754033333334 0.8882582783333333 0 0 0 0
3480192 -0.009512467 0.004082409666666667 0.362403075 0.8826868729999999 0 0 0 0
3490196 -0.009459074333333333 0.004157304333333333 0.3761442803333333 0.8768204056666667 0 0 0 0
3500200 -0.009392577 0.004066092666666667 0.3897312683333333 0.8706377943333333 0 0 0 0
3510204 -0.009265570666666665 0.0041578809999999996 0.4032405413333333 0.8643576306666666 0 0 0 0
3520208 -0.008964629333333333 0.004266758999999999 0.4166403113333333 0.8577281833333333 0 0 0 0
3530212 -0.008914605333333332 0.004515170666666667 0.4299758473333333 0.8510046400000001 0 0 0 0
3540216 -0.008949660666666666 0.004576602333333333 0.44312330066666666 0.8440296453333334 0 0 0 0
3550220 -0.008685604000000001 0.004613422666666666 0.45622183899999996 0.8368948500000001 0 0 0 0
3560224 -0.008519844666666667 0.004838643333333333 0.46918905766666663 0.8295539020000001 0 0 0 0
3570228 -0.008637722666666667 0.004845848666666666 0.48201355333333334 0.8219536343333332 0 0 0 0
3580232 -0.008449532333333334 0.004692675666666667 0.4948079186666667 0.8142833706666667 0 0 0 0
3590236 -0.008044566333333333 0.004938191333333334 0.5073304966666666 0.8062443336666667 0 0 0 0
3600240 -0.008084526666666668 0.0051703596666666666 0.5197728476666666 0.7981019816666667 0 0 0 0
3610244 -0.008167427666666666 0.005109440333333333 0.5320838293333333 0.7897925576666666 0 0 0 0
3620248 -0.007916225333333334 0.004997549333333334 0.5442443686666667 0.7811541556666667 0 0 0 0
3630252 -0.007619564333333333 0.005151525333333333 0.5563374163333333 0.772501568 0 0 0 0
3640256 -0.007674386666666667 0.005368732000000001 0.5683463413333333 0.7637022533333333 0 0 0 0
3650260 -0.007557447666666667 0.0052360336666666665 0.5800006786666666 0.7545543313333334 0 0 0 0
3660264 -0.007135954999999999 0.005271527000000001 0.5916289686666666 0.7452494103333334 0 0 0 0
3670268 -0.007080291999999999 0.005567840666666666 0.6031580566666667 0.735785484 0 0 0 0
3680272 -0.007153700666666668 0.005544708666666666 0.6143856843333334 0.7261468966666667 0 0 0 0
3690276 -0.006947252333333334 0.005377733333333333 0.625611961 0.7164497776666666 0 0 0 0
3700280 -0.0065746749999999994 0.005565130333333334 0.6365473073333333 0.7063726186666667 0 0 0 0
3710284 -0.006641224666666667 0.005733161333333334 0.6473909616666668 0.6962631146666666 0 0 0 0
3720288 -0.006625054000000001 0.005611089 0.658129096 0.6860622166666667 0 0 0 0
3730292 -0.006406118333333333 0.005535537666666666 0.6685521406666667 0.6755275726666666 0 0 0 0
3740296 -0.006007332 0.005714421666666667 0.6789479653333332 0.6648693083333334 0 0 0 0
3750300 -0.005985719333333334 0.005840628666666667 0.6891392270000001 0.6540455223333334 0 0 0 0
3760304 -0.005994244 0.0056394083333333326 0.6990645526666667 0.6431438923333334 0 0 0 0
3770308 -0.005544026666666667 0.005600124333333334 0.7089296580000001 0.6320667663333334 0 0 0 0
3780312 -0.005446095333333334 0.005801224000000001 0.7185900213333333 0.6207926073333333 0 0 0 0
3790316 -0.005447185333333333 0.005701858666666667 0.7280583580000001 0.6093894839999999 0 0 0 0
3800320 -0.005232289333333333 0.0056403289999999995 0.7374963363333333 0.5979746380000001 0 0 0 0
3810324 -0.005103329333333333 0.0056051623333333335 0.7463676926666666 0.5861784416666667 0 0 0 0
3820328 -0.004911910333333333 0.005602772 0.7553969223333333 0.5744906266666666 0 0 0 0
3830332 -0.004961541666666666 0.00560633 0.7641282080000001 0.562598328 0 0 0 0
3840336 -0.004707427333333333 0.005546519666666666 0.7725756766666666 0.5505329369999999 0 0 0 0
3850340 -0.004631245 0.005491556000000001 0.7810241379999999 0.5382916133333333 0 0 0 0
3860344 -0.004346512666666667 0.005562829000000001 0.7891088126666667 0.5259717306666666 0 0 0 0
3870348 -0.004264351666666667 0.005415489999999999 0.797063768 0.5134848156666667 0 0 0 0
3880352 -0.004038412666666666 0.005476947333333333 0.8048999710000001 0.5009249646666667 0 0 0 0
3890356 -0.004112734333333333 0.005481553333333333 0.8125139673333334 0.48827180266666664 0 0 0 0
3900360 -0.003939519999999999 0.005208079666666666 0.8199000556666668 0.47554081666666664 0 0 0 0
3910364 -0.003486446666666667 0.005253655666666667 0.82702142 0.462603122 0 0 0 0
3920368 -0.0035260973333333333 0.005371381333333334 0.8340001899999999 0.44964676100000006 0 0 0 0
3930372 -0.0034194589999999997 0.005036049999999999 0.8407515686666667 0.4365965823333333 0 0 0 0
3940376 -0.0032234796666666663 0.005131141 0.8471885323333334 0.42340954133333336 0 0 0 0
3950380 -0.0031262613333333336 0.005195969333333334 0.8535923163333333 0.41003448766666667 0 0 0 0
3960384 -0.003161554 0.004941972333333333 0.8598151206666667 0.396668504 0 0 0 0
3970388 -0.0027742283333333333 0.004713800333333333 0.86569794 0.383215914 0 0 0 0
3980392 -0.0025932023333333333 0.004856676666666667 0.8714367946666667 0.369599998 0 0 0 0
3990396 -0.0025497746666666666 0.004834524666666666 0.8770142393333332 0.35585564366666667 0 0 0 0
4000400 -0.002363106 0.004509164666666667 0.8822072943333333 0.3421379623333333 0 0 0 0
4010404 -0.0031910370000000003 0.004235562666666667 0.8877702353333333 0.3286662 0 0 0 0
4020408 -0.002161208333333333 0.004298500666666667 0.8923902316666666 0.31453437599999995 0 0 0 0
4030412 -0.001914128 0.004361171666666667 0.8969808416666667 0.3005331553333333 0 0 0 0
4040416 -0.0019516639999999999 0.004402853666666667 0.9014772573333333 0.28653284900000003 0 0 0 0
4050420 -0.002079625 0.0042804240000000006 0.9056522449999999 0.2725286086666667 0 0 0 0
4060424 -0.0019798776666666664 0.003983952 0.9096350273333332 0.258476943 0 0 0 0
4070428 -0.0016609223333333334 0.0038250776666666664 0.913456837 0.24426027166666667 0 0 0 0
4080432 -0.0015088716666666665 0.003817338333333333 0.9169658023333334 0.22999075066666666 0 0 0 0
4090436 -0.0013440700000000002 0.0037739026666666667 0.9202835956666667 0.2156698406666667 0 0 0 0
4100440 -0.001400113 0.003672983 0.9234481453333334 0.2013332196666667 0 0 0 0
4110444 -0.001513703 0.0034686620000000004 0.9263650179999999 0.18698997299999998 0 0 0 0
4120448 -0.0013005806666666667 0.003326886 0.928983351 0.17255472166666666 0 0 0 0
4130452 -0.0011742486666666667 0.003202133 0.9313502906666667 0.15805299566666667 0 0 0 0
4140456 -0.0009562999999999999 0.0030245399999999996 0.9336184263333335 0.14357032866666666 0 0 0 0
4150460 -0.000939106 0.0031913740000000003 0.93561848 0.12909255933333333 0 0 0 0
4160464 -0.0010866623333333333 0.0030011580000000003 0.937424799 0.11453822266666668 0 0 0 0
4170468 -0.0010567463333333333 0.0026875846666666666 0.9388832846666667 0.09990480066666667 0 0 0 0
4180472 -0.000833482 0.002586502666666667 0.9402115146666666 0.08529685933333332 0 0 0 0
4190476 -0.0008016416666666667 0.002451548333333333 0.9413531623333333 0.07075861066666667 0 0 0 0
4200480 -0.0005509076666666666 0.0022376856666666664 0.9421412546666666 0.056158950000000006 0 0 0 0
4210484 -0.0006742170000000001 0.002302552333333333 0.942866087 0.041448960666666666 0 0 0 0
4220488 -0.0007912183333333334 0.0021976973333333333 0.9432100453333333 0.02681615933333333 0 0 0 0
4230492 -0.0007178313333333332 0.001799135 0.94349132 0.012225111666666668 0 0 0 0
4240496 -0.00044996366666666664 0.0016529456666666666 0.9433042603333334 -0.0024089016666666665 0 0 0 0
4250500 -0.000293184 0.0017168510000000001 0.9430630803333333 -0.01709846633333333 0 0 0 0
4260504 -0.00048021833333333335 0.0016389696666666669 0.9427244466666668 -0.031752348333333326 0 0 0 0
4270508 -0.00041428233333333335 0.001353634 0.9418809213333333 -0.04628297666666667 0 0 0 0
4280512 -0.00047469 0.0012324506666666667 0.9410594703333333 -0.06088688 0 0 0 0
4290516 -0.00034124666666666666 0.001284464 0.9397112726666667 -0.07552736 0 0 0 0
4300520 -0.0003566823333333333 0.0010565163333333333 0.9383559226666667 -0.08999670533333333 0 0 0 0
4310524 -0.00040363199999999996 0.000714095 0.9369677903333334 -0.104529788 0 0 0 0
4320528 -0.00042299666666666667 0.0006219343333333334 0.9350597856666667 -0.11908619599999999 0 0 0 0
4330532 -0.00042844166666666664 0.0006660860000000001 0.9329917033333333 -0.13360422833333332 0 0 0 0
4340536 -0.0005226826666666666 0.00040412 0.9307023483333333 -0.14801173433333334 0 0 0 0
4350540 -0.00033058233333333327 3.6837666666666675e-05 0.928284049 -0.16226654266666665 0 0 0 0
4360544 -0.00015282666666666667 5.8300333333333335e-05 0.9255431293333333 -0.17670690033333333 0 0 0 0
4370548 -0.0002633033333333333 -1.2456666666666649e-06 0.9225906726666665 -0.19106499333333335 0 0 0 0
4380552 -0.00033564933333333336 -0.00019815899999999997 0.9195435046666667 -0.20537425066666667 0 0 0 0
4390556 -0.00023725933333333332 -0.000443803 0.9159882069999999 -0.2194816966666667 0 0 0 0
4400560 -0.000259686 -0.0003242666666666666 0.9123761853333333 -0.23373967400000004 0 0 0 0
4410564 -0.0005981686666666667 -0.0005042719999999999 0.908634921 -0.24777684599999997 0 0 0 0
4420568 -0.0005890296666666667 -0.0008575190000000001 0.9046343563333332 -0.26176083099999997 0 0 0 0
4430572 -0.000294851 -0.0009709140000000001 0.9003743133333333 -0.2757861616666667 0 0 0 0
4440576 -0.00044252399999999997 -0.0008425153333333333 0.8958061536666667 -0.28970540566666664 0 0 0 0
4450580 -0.000703376 -0.0010320693333333334 0.8912630676666667 -0.3035725656666666 0 0 0 0
4460584 -0.0005717706666666667 -0.0014863539999999998 0.8864010769999999 -0.3171703816666666 0 0 0 0
4470588 -0.0005941503333333334 -0.0014999986666666667 0.8811897236666666 -0.3309131463333333 0 0 0 0
4480592 -0.0006058326666666666 -0.0015085613333333334 0.8760273253333333 -0.3446355163333334 0 0 0 0
4490596 -0.0007540133333333333 -0.0015114916666666665 0.870389819 -0.35811487866666675 0 0 0 0
4500600 -0.0008824973333333334 -0.001613723 0.8647384446666667 -0.371514221 0 0 0 0
4510604 -0.001000429 -0.0020165630000000003 0.8587914309999999 -0.3849181136666666 0 0 0 0
4520608 -0.0008434606666666666 -0.0022044223333333337 0.8526154360000001 -0.3980460166666666 0 0 0 0
4530612 -0.0007750826666666667 -0.002121889 0.8464492363333332 -0.41131694099999994 0 0 0 0
4540616 -0.0009553013333333332 -0.002134392666666667 0.839845101 -0.4243656493333334 0 0 0 0
4550620 -0.0011703526666666667 -0.0021946216666666666 0.8330692053333332 -0.437419166 0 0 0 0
4560624 -0.0013842646666666668 -0.0025189783333333334 0.8263307809999999 -0.45023200900000004 0 0 0 0
4570628 -0.0012185586666666668 -0.002802578 0.819084406 -0.462808132 0 0 0 0
4580632 -0.0011563426666666666 -0.0027435036666666663 0.8116314213333333 -0.47544793300000004 0 0 0 0
4590636 -0.0013633156666666667 -0.0026104116666666667 0.8041464886666666 -0.48807898166666663 0 0 0 0
4600640 -0.0016481609999999998 -0.0028832429999999993 0.7964788476666667 -0.5004296699999999 0 0 0 0
4610644 -0.0016066636666666667 -0.0031720729999999996 0.7885812520000001 -0.5126924713333333 0 0 0 0
4620648 -0.0016305936666666666 -0.0032223530000000003 0.7804196280000001 -0.5248353876666667 0 0 0 0
4630652 -0.001767573 -0.003196686666666667 0.7722371223333333 -0.5369380116666665 0 0 0 0
4640656 -0.0017088 -0.0033094979999999997 0.7637983359999999 -0.5488115746666667 0 0 0 0
4650660 -0.001873152 -0.003331058333333333 0.7551631133333333 -0.5605924523333333 0 0 0 0
4660664 -0.0022032716666666665 -0.003341766666666667 0.7462550800000001 -0.5723209183333333 0 0 0 0
4670668 -0.0022747083333333334 -0.0035499153333333334 0.7373526096666666 -0.583854874 0 0 0 0
4680672 -0.0023100566666666663 -0.003793488333333334 0.7282172836666666 -0.595180472 0 0 0 0
4690676 -0.0022392023333333336 -0.0038185100000000002 0.718866785 -0.606367429 0 0 0 0
4700680 -0.002313085 -0.0036534156666666665 0.7092234890000001 -0.617527485 0 0 0 0
4710684 -0.0027282453333333334 -0.0037520233333333333 0.6995954116666666 -0.6284622156666667 0 0 0 0
4720688 -0.002806465666666666 -0.004048340666666666 0.6897556186666667 -0.6390965183333334 0 0 0 0
4730692 -0.0026432279999999996 -0.004074508333333333 0.6795653303333333 -0.649693052 0 0 0 0
4740696 -0.002758838333333333 -0.003985577333333333 0.6693172656666667 -0.6601794360000001 0 0 0 0
4750700 -0.0029731040000000003 -0.003938779 0.6589871646666666 -0.670519829 0 0 0 0
4760704 -0.003102047 -0.004076282333333334 0.6484442553333333 -0.6806303263333332 0 0 0 0
4770708 -0.0034242300000000003 -0.004155495333333333 0.6378606556666666 -0.6906648080000001 0 0 0 0
4780712 -0.0033358713333333334 -0.004465661 0.6269836026666668 -0.7005058923333333 0 0 0 0
4790716 -0.003403386 -0.004392407666666666 0.6160193286666668 -0.7100524903333333 0 0 0 0
4800720 -0.0034464856666666667 -0.004295256666666667 0.6049113673333334 -0.7195353903333334 0 0 0 0
4810724 -0.003694715333333333 -0.004189604333333334 0.593508919 -0.728947083 0 0 0 0
4820728 -0.003929505 -0.004304471666666667 0.5821983216666666 -0.738142093 0 0 0 0
4830732 -0.004042133666666666 -0.004496687666666666 0.5706637303333334 -0.7469757596666667 0 0 0 0
4840736 -0.0038750940000000004 -0.004562506666666667 0.5589775046666666 -0.7556608320000001 0 0 0 0
4850740 -0.003960299666666666 -0.004475728333333334 0.5470125076666666 -0.7643287576666666 0 0 0 0
4860744 -0.004193929333333333 -0.004325046666666667 0.5351148643333333 -0.772958815 0 0 0 0
4870748 -0.004456300333333333 -0.004640196666666666 0.5230059426666667 -0.7810553113333333 0 0 0 0
4880752 -0.004521162999999999 -0.00459909 0.5108231503333333 -0.7890056566666668 0 0 0 0
4890756 -0.004649709333333333 -0.004678829333333333 0.49839960533333333 -0.79691122 0 0 0 0
4900760 -0.004579792 -0.004627177 0.48595833800000005 -0.804518342 0 0 0 0
4910764 -0.0046897630000000004 -0.0045968779999999996 0.4733204146666667 -0.811863144 0 0 0 0
4920768 -0.004887919666666666 -0.004402223333333333 0.4605840446666667 -0.8191913566666668 0 0 0 0
4930772 -0.005143500333333334 -0.004353518333333333 0.44771484566666664 -0.8263396026666667 0 0 0 0
4940776 -0.005237200333333333 -0.004663813333333333 0.43488888933333336 -0.8331049083333334 0 0 0 0
4950780 -0.0051810143333333334 -0.004638567333333334 0.4219316043333334 -0.8397319716666667 0 0 0 0
4960784 -0.005194923666666666 -0.0044030223333333335 0.4086280663333333 -0.8461339076666667 0 0 0 0
4970788 -0.005626918333333334 -0.004383798666666667 0.3953710993333333 -0.8525137106666666 0 0 0 0
4980792 -0.005694147666666666 -0.004620307666666667 0.3821342486666666 -0.8583786686666667 0 0 0 0
4990796 -0.0056255490000000005 -0.004521844666666666 0.368593921 -0.8642068303333333 0 0 0 0
5000800 -0.005780850333333334 -0.004251688 0.3550465406666667 -0.8699903486666667 0 0 0 0
5010804 -0.0059200550000000005 -0.004535036 0.34156783399999996 -0.8752707243333333 0 0 0 0
5020808 -0.006351796 -0.0027318259999999997 0.32721649599999997 -0.8809123633333334 0 0 0 0
5030812 -0.006016977 -0.0044208726666666665 0.314022263 -0.8854091566666668 0 0 0 0
5040816 -0.006267399333333333 -0.004217357333333334 0.3002104263333334 -0.8902090390000001 0 0 0 0
5050820 -0.006266768333333333 -0.004458765333333334 0.2862549623333333 -0.8947060706666666 0 0 0 0
5060824 -0.006484294666666667 -0.004251582666666667 0.27220942566666667 -0.8991086486666667 0 0 0 0
5070828 -0.006404143333333334 -0.0042253406666666665 0.2582144536666667 -0.9032220839999999 0 0 0 0
5080832 -0.006451959 -0.004114413333333333 0.24413727733333335 -0.907027185 0 0 0 0
5090836 -0.006676152 -0.004166685666666666 0.22987208766666667 -0.910826544 0 0 0 0
5100840 -0.006699244 -0.004068143333333334 0.21569371699999998 -0.9142486653333334 0 0 0 0
5110844 -0.006748272 -0.004055433666666667 0.201393187 -0.9173673196666666 0 0 0 0
