# HZ S RI R 50
14000000 -0.006477652 -0.003005718 -0.76335001 -0.450753033 0 0 0 0
14003500 -0.004462887 -0.003153937 -0.765036523 -0.446115196 0 0 0 0
14007000 -0.004491448 -0.003248481 -0.767348588 -0.44195354 0 0 0 0
14010500 -0.004552146 -0.003175355 -0.769944906 -0.437813193 0 0 0 0
14014000 -0.004558658 -0.003194331 -0.772148252 -0.433556229 0 0 0 0
14017500 -0.004651867 -0.003216762 -0.774424136 -0.4293015 0 0 0 0
14021000 -0.004691767 -0.003297206 -0.776904941 -0.425198197 0 0 0 0
14024500 -0.004725993 -0.003225932 -0.779314399 -0.420990825 0 0 0 0
14028000 -0.004912526 -0.003236344 -0.781534731 -0.416723162 0 0 0 0
14031500 -0.005046579 -0.003291536 -0.783786476 -0.412548274 0 0 0 0
14035000 -0.005073731 -0.003326086 -0.786058068 -0.408264905 0 0 0 0
14038500 -0.005246564 -0.003374561 -0.788141429 -0.40397501 0 0 0 0
14042000 -0.005915277 -0.003320973 -0.790838182 -0.399926871 0 0 0 0
14045500 -0.005319076 -0.003482171 -0.792749286 -0.395534635 0 0 0 0
14049000 -0.005479888 -0.00355997 -0.794798732 -0.391259044 0 0 0 0
14052500 -0.005534497 -0.003715546 -0.797133386 -0.387061149 0 0 0 0
14056000 -0.005581188 -0.003757772 -0.79903698 -0.38268891 0 0 0 0
14059500 -0.005674914 -0.003815524 -0.801084697 -0.378370315 0 0 0 0
14063000 -0.005686743 -0.003811599 -0.803260326 -0.374022216 0 0 0 0
14066500 -0.005764676 -0.003989357 -0.805218339 -0.369736671 0 0 0 0
14070000 -0.005796565 -0.004035166 -0.807130098 -0.365353107 0 0 0 0
14073500 -0.0058518 -0.004143244 -0.809186757 -0.361034364 0 0 0 0
14077000 -0.005906003 -0.004151621 -0.811118543 -0.356636852 0 0 0 0
14080500 -0.005868454 -0.004252835 -0.812909901 -0.352232128 0 0 0 0
14084000 -0.005909642 -0.004312939 -0.814701736 -0.347780406 0 0 0 0
14087500 -0.00597708 -0.004345063 -0.816777945 -0.343442202 0 0 0 0
14091000 -0.00595122 -0.004384709 -0.818611026 -0.338999391 0 0 0 0
14094500 -0.005983219 -0.004418904 -0.820276022 -0.334530413 0 0 0 0
14098000 -0.006010378 -0.004433428 -0.822044849 -0.330072731 0 0 0 0
14101500 -0.006039171 -0.004409 -0.824115813 -0.325659662 0 0 0 0
14105000 -0.006094156 -0.004467994 -0.825629115 -0.321141362 0 0 0 0
14108500 -0.006127556 -0.004482721 -0.827411592 -0.316697538 0 0 0 0
14112000 -0.006169544 -0.004444556 -0.829095781 -0.312161803 0 0 0 0
14115500 -0.006274084 -0.004487794 -0.830729961 -0.307660908 0 0 0 0
14119000 -0.00633299 -0.00446322 -0.832564354 -0.303186774 0 0 0 0
14122500 -0.006433569 -0.004425016 -0.834217131 -0.298668414 0 0 0 0
14126000 -0.006467919 -0.004429949 -0.835728705 -0.294117093 0 0 0 0
14129500 -0.006554086 -0.004448926 -0.837358534 -0.289617181 0 0 0 0
14133000 -0.006619764 -0.004468986 -0.838843822 -0.285048932 0 0 0 0
14136500 -0.006774455 -0.004450991 -0.840592206 -0.280565917 0 0 0 0
14140000 -0.006849093 -0.004507216 -0.842210531 -0.276052803 0 0 0 0
14143500 -0.006909507 -0.004504764 -0.84340477 -0.271425784 0 0 0 0
14147000 -0.007087599 -0.004553632 -0.845114589 -0.266925186 0 0 0 0
14150500 -0.007283702 -0.004681315 -0.846628428 -0.262437016 0 0 0 0
14154000 -0.00739543 -0.004682788 -0.847846508 -0.257836193 0 0 0 0
14157500 -0.007438552 -0.004772234 -0.849203229 -0.253250539 0 0 0 0
14161000 -0.007447336 -0.004813543 -0.850734055 -0.248684019 0 0 0 0
14164500 -0.007531628 -0.00486525 -0.85183531 -0.244067758 0 0 0 0
14168000 -0.007672312 -0.00494592 -0.853381753 -0.239531338 0 0 0 0
14171500 -0.007687304 -0.004991351 -0.854635715 -0.23491323 0 0 0 0
14175000 -0.007778509 -0.005077566 -0.855931222 -0.230360091 0 0 0 0
14178500 -0.007743443 -0.005090596 -0.857269108 -0.225703269 0 0 0 0
14182000 -0.007819539 -0.005203637 -0.858140647 -0.221063703 0 0 0 0
14185500 -0.007841845 -0.005221591 -0.859413266 -0.216477841 0 0 0 0
14189000 -0.007887719 -0.005244635 -0.860637963 -0.211821228 0 0 0 0
14192500 -0.007949241 -0.005219805 -0.861808121 -0.207146481 0 0 0 0
14196000 -0.00798348 -0.005265988 -0.862983584 -0.202524692 0 0 0 0
14199500 -0.008037365 -0.00527888 -0.864012063 -0.197835654 0 0 0 0
14203000 -0.008013706 -0.005276478 -0.864901364 -0.193090707 0 0 0 0
14206500 -0.008024966 -0.005206368 -0.86601907 -0.188405201 0 0 0 0
14210000 -0.008156659 -0.005152876 -0.866954267 -0.183662012 0 0 0 0
14213500 -0.008241107 -0.005161898 -0.867934048 -0.178961858 0 0 0 0
14217000 -0.008322476 -0.005143644 -0.869158149 -0.174250886 0 0 0 0
14220500 -0.008498364 -0.005082507 -0.870002627 -0.169538006 0 0 0 0
14224000 -0.008476443 -0.005086326 -0.870957136 -0.164805621 0 0 0 0
14227500 -0.008583554 -0.005109622 -0.871830225 -0.160065889 0 0 0 0
14231000 -0.008696862 -0.005136412 -0.872724593 -0.155361235 0 0 0 0
14234500 -0.008808246 -0.005105043 -0.873529077 -0.150614873 0 0 0 0
14238000 -0.008931807 -0.005122738 -0.874184966 -0.145864651 0 0 0 0
14241500 -0.009065812 -0.005080474 -0.875187814 -0.141153768 0 0 0 0
14245000 -0.009225265 -0.005123186 -0.875967741 -0.136406496 0 0 0 0
14248500 -0.009365705 -0.005150873 -0.876623273 -0.131661519 0 0 0 0
14252000 -0.009483323 -0.005233494 -0.877399266 -0.126948133 0 0 0 0
14255500 -0.009477273 -0.005258095 -0.878225327 -0.122195289 0 0 0 0
14259000 -0.009614924 -0.005249944 -0.878638923 -0.11742948 0 0 0 0
14262500 -0.009682398 -0.0052567 -0.879546463 -0.11264573 0 0 0 0
14266000 -0.009754982 -0.005349453 -0.880048156 -0.107912749 0 0 0 0
14269500 -0.009882984 -0.005412125 -0.880601048 -0.10317497 0 0 0 0
14273000 -0.009890443 -0.005434448 -0.88139683 -0.098395526 0 0 0 0
14276500 -0.009957574 -0.005513056 -0.881659389 -0.093625188 0 0 0 0
14280000 -0.010057298 -0.005563605 -0.882492304 -0.08885923 0 0 0 0
14283500 -0.010136582 -0.005492347 -0.882900596 -0.084054068 0 0 0 0
14287000 -0.010147667 -0.00558586 -0.883033335 -0.07931298 0 0 0 0
14290500 -0.010141329 -0.005558394 -0.883627295 -0.074470729 0 0 0 0
14294000 -0.010233538 -0.005554725 -0.884013295 -0.069693685 0 0 0 0
14297500 -0.010359807 -0.005575082 -0.884278119 -0.064877719 0 0 0 0
14301000 -0.010406536 -0.005540831 -0.885012746 -0.060083002 0 0 0 0
14304500 -0.010411888 -0.005528312 -0.884924591 -0.05527024 0 0 0 0
14308000 -0.010456133 -0.00546309 -0.885249853 -0.050409511 0 0 0 0
14311500 -0.01054826 -0.005419189 -0.885692716 -0.045590311 0 0 0 0
14315000 -0.010601716 -0.005440083 -0.885908365 -0.040794134 0 0 0 0
14318500 -0.010698373 -0.005434623 -0.886019766 -0.035963535 0 0 0 0
14322000 -0.010786546 -0.005430496 -0.886264741 -0.031182021 0 0 0 0
14325500 -0.010856836 -0.005447711 -0.886451721 -0.026354909 0 0 0 0
14329000 -0.010972745 -0.005407584 -0.886765063 -0.021557212 0 0 0 0
14332500 -0.011065414 -0.005417116 -0.886782885 -0.016721398 0 0 0 0
14336000 -0.011134725 -0.0053781 -0.886899352 -0.011890858 0 0 0 0
14339500 -0.011148533 -0.005376061 -0.887067676 -0.007065088 0 0 0 0
14343000 -0.011292893 -0.005367093 -0.886942506 -0.002273798 0 0 0 0
14346500 -0.011396607 -0.005352443 -0.887205243 0.002572209 0 0 0 0
14350000 -0.011441748 -0.005312749 -0.887116253 0.007421225 0 0 0 0
