# HZ S RI R 50
7000000 -0.012491711 0.002418777 -0.374408484 0.849263191 0 0 0 0
7003000 -0.012593018 0.001565555 -0.370886683 0.851126432 0 0 0 0
7006000 -0.012399275 0.001657009 -0.366784632 0.852634072 0 0 0 0
7009000 -0.012413562 0.001864472 -0.362745702 0.854281127 0 0 0 0
7012000 -0.012559304 0.002061615 -0.358784735 0.856210649 0 0 0 0
7015000 -0.012722938 0.002055793 -0.354713947 0.857649326 0 0 0 0
7018000 -0.012794902 0.001872375 -0.350770414 0.85928005 0 0 0 0
7021000 -0.012622473 0.0018388 -0.346697092 0.860965192 0 0 0 0
7024000 -0.012480135 0.001797639 -0.34262675 0.862314284 0 0 0 0
7027000 -0.012345588 0.001922627 -0.338613927 0.864150167 0 0 0 0
7030000 -0.012393071 0.002232065 -0.334482431 0.86571908 0 0 0 0
7033000 -0.012542604 0.002327336 -0.3303684 0.867145717 0 0 0 0
7036000 -0.012362916 0.001841332 -0.326479286 0.868607759 0 0 0 0
7039000 -0.012345276 0.002348316 -0.322255969 0.870311618 0 0 0 0
7042000 -0.012519093 0.002433821 -0.318136871 0.87162751 0 0 0 0
7045000 -0.012705271 0.002347372 -0.31408599 0.87305063 0 0 0 0
7048000 -0.012663446 0.002249579 -0.310020804 0.874470413 0 0 0 0
7051000 -0.01258375 0.0021225 -0.305931449 0.875829518 0 0 0 0
7054000 -0.012450369 0.002230419 -0.301845878 0.8775298 0 0 0 0
7057000 -0.012263094 0.002490043 -0.297610641 0.878750026 0 0 0 0
7060000 -0.012376481 0.002607689 -0.293468982 0.880027831 0 0 0 0
7063000 -0.012584773 0.002682564 -0.289358288 0.881517708 0 0 0 0
7066000 -0.01266403 0.002552708 -0.285283625 0.882945836 0 0 0 0
7069000 -0.012566539 0.002415749 -0.281115681 0.884034097 0 0 0 0
7072000 -0.012413456 0.002440732 -0.276962906 0.885409594 0 0 0 0
7075000 -0.012260389 0.002530965 -0.272806793 0.88649565 0 0 0 0
7078000 -0.012349818 0.002801543 -0.268550456 0.887752831 0 0 0 0
7081000 -0.012477402 0.002885015 -0.264415652 0.889165163 0 0 0 0
7084000 -0.012647679 0.002789048 -0.260268241 0.890366614 0 0 0 0
7087000 -0.012548129 0.002606906 -0.256147742 0.891523004 0 0 0 0
7090000 -0.012300667 0.002637878 -0.251925647 0.892677724 0 0 0 0
7093000 -0.012237477 0.002844656 -0.24770382 0.893728793 0 0 0 0
7096000 -0.012261573 0.003001588 -0.243464947 0.895006597 0 0 0 0
7099000 -0.01247164 0.003152244 -0.239258453 0.89608556 0 0 0 0
7102000 -0.01253181 0.003045776 -0.235107511 0.89716363 0 0 0 0
7105000 -0.012534956 0.002888163 -0.230931699 0.898294151 0 0 0 0
7108000 -0.012314174 0.002842051 -0.226738796 0.899401307 0 0 0 0
7111000 -0.012185849 0.003019943 -0.222432077 0.900297523 0 0 0 0
7114000 -0.012166677 0.003235741 -0.218160972 0.90132767 0 0 0 0
7117000 -0.012335022 0.003412214 -0.213925183 0.902282357 0 0 0 0
7120000 -0.012514275 0.003305379 -0.209739283 0.903275669 0 0 0 0
7123000 -0.012435259 0.003110535 -0.205531478 0.904279649 0 0 0 0
7126000 -0.012288058 0.003054494 -0.201338887 0.905264318 0 0 0 0
7129000 -0.012138381 0.003153203 -0.197070807 0.90623647 0 0 0 0
7132000 -0.012051781 0.003395596 -0.19271943 0.906890154 0 0 0 0
7135000 -0.012217649 0.003564232 -0.188480318 0.907822847 0 0 0 0
7138000 -0.012389529 0.003554597 -0.184203163 0.908815086 0 0 0 0
7141000 -0.012376794 0.003335683 -0.179987863 0.909251213 0 0 0 0
7144000 -0.012180289 0.003285716 -0.17577444 0.910377324 0 0 0 0
7147000 -0.011991269 0.003447862 -0.171453536 0.911108851 0 0 0 0
7150000 -0.012008313 0.003632157 -0.167125702 0.911663651 0 0 0 0
7153000 -0.012135924 0.003826511 -0.162834197 0.912715554 0 0 0 0
7156000 -0.012327128 0.003744998 -0.158584952 0.913452566 0 0 0 0
7159000 -0.012285709 0.003593339 -0.154339448 0.914013743 0 0 0 0
7162000 -0.012186318 0.003475999 -0.150078267 0.914789557 0 0 0 0
7165000 -0.011963302 0.003591366 -0.145728439 0.915246069 0 0 0 0
7168000 -0.011850583 0.003782014 -0.141442776 0.915720165 0 0 0 0
7171000 -0.012011956 0.00403881 -0.137107089 0.916763783 0 0 0 0
7174000 -0.012156445 0.004027563 -0.132831097 0.917237818 0 0 0 0
7177000 -0.012224047 0.003824424 -0.128592819 0.91772157 0 0 0 0
7180000 -0.012122682 0.003704342 -0.124306113 0.91839236 0 0 0 0
7183000 -0.011829811 0.003718511 -0.119982794 0.918693125 0 0 0 0
7186000 -0.011753416 0.003995185 -0.115620777 0.919422746 0 0 0 0
7189000 -0.011829633 0.004190741 -0.111301497 0.919796109 0 0 0 0
7192000 -0.012017207 0.004213595 -0.107007414 0.920298398 0 0 0 0
7195000 -0.012077034 0.004076019 -0.102714151 0.920918345 0 0 0 0
7198000 -0.011937105 0.003904967 -0.098425508 0.921282351 0 0 0 0
7201000 -0.011728959 0.004021382 -0.094100207 0.921510696 0 0 0 0
7204000 -0.011654228 0.004223255 -0.089739263 0.922035575 0 0 0 0
7207000 -0.011716872 0.004331989 -0.085437194 0.922486186 0 0 0 0
7210000 -0.011863642 0.004359057 -0.081093743 0.922848701 0 0 0 0
7213000 -0.01193141 0.004306022 -0.076763123 0.923104703 0 0 0 0
7216000 -0.011845369 0.004111929 -0.07251507 0.923640251 0 0 0 0
7219000 -0.011616138 0.004153475 -0.068148538 0.923796952 0 0 0 0
7222000 -0.011502032 0.004368622 -0.063784644 0.92420119 0 0 0 0
7225000 -0.011580406 0.004588404 -0.059435889 0.924662948 0 0 0 0
7228000 -0.011767155 0.004664422 -0.055079788 0.924781501 0 0 0 0
7231000 -0.011839566 0.004464486 -0.050811112 0.924903989 0 0 0 0
7234000 -0.011691567 0.00432548 -0.046492875 0.925318539 0 0 0 0
7237000 -0.011437977 0.004384974 -0.042126805 0.925338387 0 0 0 0
7240000 -0.011371033 0.004529685 -0.037828475 0.925236464 0 0 0 0
7243000 -0.011428914 0.004763839 -0.033424765 0.925631106 0 0 0 0
7246000 -0.011634925 0.004808656 -0.029100329 0.925629854 0 0 0 0
7249000 -0.011679399 0.004628071 -0.024826616 0.925749838 0 0 0 0
7252000 -0.011504024 0.004515095 -0.020496964 0.925774753 0 0 0 0
7255000 -0.011297466 0.004625771 -0.016139567 0.925684333 0 0 0 0
7258000 -0.011196114 0.00486301 -0.011727363 0.925870121 0 0 0 0
7261000 -0.011331026 0.004944229 -0.007427216 0.925903976 0 0 0 0
7264000 -0.011487182 0.004918545 -0.00311026 0.925858974 0 0 0 0
7267000 -0.011531403 0.004819482 0.001200676 0.925969899 0 0 0 0
7270000 -0.011438058 0.004688935 0.005555123 0.925897896 0 0 0 0
7273000 -0.011156337 0.00478457 0.009881169 0.925519109 0 0 0 0
7276000 -0.011048558 0.005027202 0.014273703 0.925614595 0 0 0 0
7279000 -0.011193371 0.005167405 0.01862663 0.925610125 0 0 0 0
7282000 -0.011345134 0.005110992 0.022921056 0.925427198 0 0 0 0
7285000 -0.011363202 0.00495941 0.027261972 0.925581098 0 0 0 0
7288000 -0.011171818 0.004860165 0.031571507 0.925181329 0 0 0 0
7291000 -0.010928284 0.004993175 0.035933048 0.924869418 0 0 0 0
7294000 -0.01091295 0.005163107 0.040272474 0.924745381 0 0 0 0
7297000 -0.011010577 0.005303261 0.044584423 0.924417794 0 0 0 0
7300000 -0.011150521 0.005292859 0.048930168 0.92425257 0 0 0 0
