# HZ S RI R 50
3500000 -0.008512841 0.004806498 0.389653921 0.870238662 0 0 0 0
3505000 -0.009318724 0.004282812 0.396001399 0.867279887 0 0 0 0
3510000 -0.008941305 0.004218535 0.402722687 0.863951564 0 0 0 0
3515000 -0.009292917 0.004136073 0.409542441 0.861081302 0 0 0 0
3520000 -0.009016121 0.004507635 0.416336596 0.857741177 0 0 0 0
3525000 -0.008882683 0.004210826 0.42283082 0.854331136 0 0 0 0
3530000 -0.009108501 0.004458562 0.429575264 0.851029515 0 0 0 0
3535000 -0.00869217 0.004579767 0.436182499 0.847511172 0 0 0 0
3540000 -0.008920552 0.004311878 0.442664415 0.844020009 0 0 0 0
3545000 -0.008837825 0.004744024 0.449331284 0.840480566 0 0 0 0
3550000 -0.008542378 0.004487215 0.45577091 0.836852431 0 0 0 0
3555000 -0.008875592 0.00462278 0.462309122 0.833251238 0 0 0 0
3560000 -0.00889468 0.004314998 0.468660772 0.829765916 0 0 0 0
3565000 -0.008494672 0.004527469 0.475250006 0.825905681 0 0 0 0
3570000 -0.0086051 0.004890825 0.481660604 0.822020948 0 0 0 0
3575000 -0.008205325 0.004754813 0.487963647 0.818134665 0 0 0 0
3580000 -0.008574704 0.004734621 0.494212925 0.8142097 0 0 0 0
3585000 -0.008205375 0.005014425 0.500647306 0.810264707 0 0 0 0
3590000 -0.008230758 0.004676388 0.506810188 0.806308627 0 0 0 0
3595000 -0.008373033 0.005058867 0.513124526 0.802208543 0 0 0 0
3600000 -0.007941734 0.005073242 0.519290268 0.798036337 0 0 0 0
3605000 -0.008124002 0.00487492 0.525523663 0.794134736 0 0 0 0
3610000 -0.008014969 0.005256267 0.531725645 0.789823532 0 0 0 0
3615000 -0.007793287 0.004917009 0.537661791 0.785573006 0 0 0 0
3620000 -0.008070089 0.005142395 0.543926239 0.781416535 0 0 0 0
3625000 -0.007612158 0.005283173 0.549989223 0.777031064 0 0 0 0
3630000 -0.007803917 0.004989275 0.555939198 0.772747517 0 0 0 0
3635000 -0.00772106 0.005400257 0.562097728 0.768364191 0 0 0 0
3640000 -0.0073872 0.005224437 0.56774801 0.763620079 0 0 0 0
3645000 -0.00774198 0.005188523 0.573686481 0.759258151 0 0 0 0
3650000 -0.007327775 0.005488974 0.579628468 0.754550219 0 0 0 0
3655000 -0.007272199 0.005202281 0.58526063 0.749923706 0 0 0 0
3660000 -0.007489393 0.005388522 0.591244102 0.745434046 0 0 0 0
3665000 -0.007034264 0.005462036 0.597071588 0.740744114 0 0 0 0
3670000 -0.007354849 0.005187767 0.602577746 0.735976934 0 0 0 0
3675000 -0.007126397 0.005560475 0.608373404 0.731122255 0 0 0 0
3680000 -0.006921604 0.005315612 0.613748729 0.726184845 0 0 0 0
3685000 -0.007138756 0.005425637 0.619581342 0.721478283 0 0 0 0
3690000 -0.006799413 0.005612192 0.625101686 0.716496408 0 0 0 0
3695000 -0.006789037 0.005285259 0.63059634 0.711603343 0 0 0 0
3700000 -0.006899337 0.005593924 0.636246204 0.706687093 0 0 0 0
3705000 -0.006444867 0.00557154 0.641656041 0.701607227 0 0 0 0
3710000 -0.006778066 0.005373194 0.646916687 0.696537614 0 0 0 0
3715000 -0.00651469 0.005756295 0.652623892 0.691477418 0 0 0 0
3720000 -0.006437656 0.005355054 0.657523751 0.68622762 0 0 0 0
3725000 -0.00657322 0.005669689 0.662982583 0.681029618 0 0 0 0
3730000 -0.006097468 0.00565958 0.668150485 0.675673723 0 0 0 0
3735000 -0.006325153 0.005387742 0.673351765 0.670551121 0 0 0 0
3740000 -0.006255087 0.005792479 0.678675354 0.665163696 0 0 0 0
3745000 -0.005878204 0.00553121 0.683477998 0.659665227 0 0 0 0
3750000 -0.00619806 0.005570937 0.688666344 0.654357731 0 0 0 0
3755000 -0.005819734 0.005789716 0.693810701 0.648862839 0 0 0 0
3760000 -0.005850176 0.005404917 0.698565006 0.643379271 0 0 0 0
3765000 -0.005980822 0.005698378 0.703737378 0.637935996 0 0 0 0
3770000 -0.005521944 0.005630691 0.708567858 0.632293046 0 0 0 0
3775000 -0.00582738 0.005455845 0.713358581 0.626801014 0 0 0 0
3780000 -0.00562056 0.00582312 0.718249023 0.621073723 0 0 0 0
3785000 -0.005357548 0.005467391 0.722964108 0.615506709 0 0 0 0
3790000 -0.005586237 0.005601441 0.727701247 0.609804034 0 0 0 0
3795000 -0.005192703 0.005750387 0.732299626 0.603912473 0 0 0 0
3800000 -0.005327662 0.00545204 0.736952305 0.598331809 0 0 0 0
3805000 -0.00528548 0.005771531 0.741419792 0.59234798 0 0 0 0
3810000 -0.004982114 0.005443408 0.746006489 0.586664855 0 0 0 0
3815000 -0.005237021 0.005608509 0.750615537 0.580806613 0 0 0 0
3820000 -0.00474629 0.005729561 0.754991889 0.574780583 0 0 0 0
3825000 -0.004932776 0.00538776 0.759618938 0.569167733 0 0 0 0
3830000 -0.004903903 0.005739233 0.76377362 0.562924862 0 0 0 0
3835000 -0.004557821 0.005477538 0.767991304 0.556911588 0 0 0 0
3840000 -0.004853913 0.005514007 0.772387743 0.550974429 0 0 0 0
3845000 -0.004522038 0.005682477 0.77647984 0.544761181 0 0 0 0
3850000 -0.004513994 0.005340653 0.780620158 0.538731456 0 0 0 0
3855000 -0.004586471 0.00563369 0.78489399 0.532565534 0 0 0 0
3860000 -0.004173853 0.005472274 0.788732648 0.52633816 0 0 0 0
3865000 -0.004527764 0.005333393 0.792819738 0.520251393 0 0 0 0
3870000 -0.00419869 0.005661468 0.796783745 0.513820708 0 0 0 0
3875000 -0.004051765 0.005275844 0.800600052 0.507660568 0 0 0 0
3880000 -0.004270072 0.005427693 0.804782093 0.501497388 0 0 0 0
3885000 -0.003911134 0.005511566 0.808535337 0.495072395 0 0 0 0
3890000 -0.004019703 0.005211137 0.812174678 0.48877269 0 0 0 0
3895000 -0.004006216 0.005544912 0.815935612 0.482302845 0 0 0 0
3900000 -0.003643645 0.005208103 0.819417238 0.47592032 0 0 0 0
3905000 -0.003953265 0.005187344 0.823260784 0.469646752 0 0 0 0
3910000 -0.00359234 0.005449405 0.826732874 0.463005841 0 0 0 0
3915000 -0.003480263 0.005034561 0.83020401 0.456689298 0 0 0 0
3920000 -0.003714693 0.005248902 0.834082127 0.450300634 0 0 0 0
3925000 -0.003255785 0.005244518 0.83728224 0.443651617 0 0 0 0
3930000 -0.003456528 0.00496596 0.840606093 0.43723774 0 0 0 0
3935000 -0.003375529 0.005333729 0.843953013 0.43050316 0 0 0 0
3940000 -0.003122322 0.004959212 0.847071648 0.423967868 0 0 0 0
3945000 -0.003399672 0.005017097 0.85055244 0.417410493 0 0 0 0
3950000 -0.003013959 0.005122435 0.853411794 0.410613596 0 0 0 0
3955000 -0.003098938 0.004799939 0.856495857 0.404037803 0 0 0 0
3960000 -0.003125302 0.005038861 0.859763324 0.397274524 0 0 0 0
3965000 -0.002743083 0.004899722 0.862421989 0.390435457 0 0 0 0
3970000 -0.003014252 0.004713104 0.865663588 0.383873492 0 0 0 0
3975000 -0.002785767 0.005027938 0.8685987 0.376954287 0 0 0 0
3980000 -0.002696811 0.004585594 0.871186733 0.370219439 0 0 0 0
3985000 -0.002891828 0.004753709 0.874227941 0.363388985 0 0 0 0
3990000 -0.002498549 0.004753839 0.876870632 0.356510699 0 0 0 0
3995000 -0.002601161 0.004416433 0.879473805 0.349729657 0 0 0 0
4000000 -0.002657193 0.004674276 0.882289886 0.342797309 0 0 0 0
